ID,IG,IS,VD,VG,VS,absID,absIG,combination,date,filename,gm2,hour,remarks,sample,sqrtID,target,temperature,thickness,title,uniqueID
0.00461222,-0.0046124700000000005,9.13E-13,3,-2,0,0.00461222,0.0046124700000000005,(\d+)[-](\d+)[-](\w+)(\d+),05/27/2019,Transfer stab [250-180-G46(1) _BAD_; 27_05_2019 11_10_51].csv,4.9048025186439477E-05,11:10:51,BAD,G46,0.067913327116259,250-180-G46,180,250,Transfer stab,250-180-G46
0.00456478,-0.00456554,1.2314000000000001E-11,3,-1.9500000000000002,0,0.00456478,0.00456554,(\d+)[-](\d+)[-](\w+)(\d+),05/27/2019,Transfer stab [250-180-G46(1) _BAD_; 27_05_2019 11_10_51].csv,4.7544032496624218E-05,11:10:51,BAD,G46,0.067563155639742,250-180-G46,180,250,Transfer stab,250-180-G46
0.00451904,-0.00451822,-2.8550000000000003E-12,3,-1.9000000000000001,0,0.00451904,0.00451822,(\d+)[-](\d+)[-](\w+)(\d+),05/27/2019,Transfer stab [250-180-G46(1) _BAD_; 27_05_2019 11_10_51].csv,4.8876105835884752E-05,11:10:51,BAD,G46,0.0672238053073463,250-180-G46,180,250,Transfer stab,250-180-G46
0.0044708000000000005,-0.0044707,1.3717E-11,3,-1.85,0,0.0044708000000000005,0.0044707,(\d+)[-](\d+)[-](\w+)(\d+),05/27/2019,Transfer stab [250-180-G46(1) _BAD_; 27_05_2019 11_10_51].csv,5.1113022208091509E-05,11:10:51,BAD,G46,0.066864041158159152,250-180-G46,180,250,Transfer stab,250-180-G46
0.00442343,-0.00442259,-6.5570000000000004E-12,3,-1.8,0,0.00442343,0.00442259,(\d+)[-](\d+)[-](\w+)(\d+),05/27/2019,Transfer stab [250-180-G46(1) _BAD_; 27_05_2019 11_10_51].csv,5.1442566490498716E-05,11:10:51,BAD,G46,0.066508871588683571,250-180-G46,180,250,Transfer stab,250-180-G46
0.0043754,-0.00437389,3.641E-12,3,-1.75,0,0.0043754,0.00437389,(\d+)[-](\d+)[-](\w+)(\d+),05/27/2019,Transfer stab [250-180-G46(1) _BAD_; 27_05_2019 11_10_51].csv,5.1955662109825476E-05,11:10:51,BAD,G46,0.06614680642328849,250-180-G46,180,250,Transfer stab,250-180-G46
0.00432807,-0.00432734,-1.091E-12,3,-1.7000000000000002,0,0.00432807,0.00432734,(\d+)[-](\d+)[-](\w+)(\d+),05/27/2019,Transfer stab [250-180-G46(1) _BAD_; 27_05_2019 11_10_51].csv,5.1375557788396724E-05,11:10:51,BAD,G46,0.065788068827105722,250-180-G46,180,250,Transfer stab,250-180-G46
0.00428109,-0.0042806400000000005,-1.0992000000000002E-11,3,-1.6500000000000001,0,0.00428109,0.0042806400000000005,(\d+)[-](\d+)[-](\w+)(\d+),05/27/2019,Transfer stab [250-180-G46(1) _BAD_; 27_05_2019 11_10_51].csv,5.2065516518882323E-05,11:10:51,BAD,G46,0.065430038972936588,250-180-G46,180,250,Transfer stab,250-180-G46
0.00423365,-0.00423336,-6.6930000000000007E-12,3,-1.6,0,0.00423365,0.00423336,(\d+)[-](\d+)[-](\w+)(\d+),05/27/2019,Transfer stab [250-180-G46(1) _BAD_; 27_05_2019 11_10_51].csv,5.3544218340063939E-05,11:10:51,BAD,G46,0.065066504439688477,250-180-G46,180,250,Transfer stab,250-180-G46
0.00418587,-0.00418509,-1.846E-12,3,-1.55,0,0.00418587,0.00418509,(\d+)[-](\d+)[-](\w+)(\d+),05/27/2019,Transfer stab [250-180-G46(1) _BAD_; 27_05_2019 11_10_51].csv,5.4185391305970479E-05,11:10:51,BAD,G46,0.064698299823102,250-180-G46,180,250,Transfer stab,250-180-G46
0.0041384,-0.00413778,9.0000000000000008E-14,3,-1.5,0,0.0041384,0.00413778,(\d+)[-](\d+)[-](\w+)(\d+),05/27/2019,Transfer stab [250-180-G46(1) _BAD_; 27_05_2019 11_10_51].csv,5.5135653239985189E-05,11:10:51,BAD,G46,0.064330397169611822,250-180-G46,180,250,Transfer stab,250-180-G46
0.0040903400000000005,-0.00408968,-5.4310000000000006E-12,3,-1.4500000000000002,0,0.0040903400000000005,0.00408968,(\d+)[-](\d+)[-](\w+)(\d+),05/27/2019,Transfer stab [250-180-G46(1) _BAD_; 27_05_2019 11_10_51].csv,5.5869526562762431E-05,11:10:51,BAD,G46,0.063955765963672112,250-180-G46,180,250,Transfer stab,250-180-G46
0.00404279,-0.00404274,2.1900000000000003E-13,3,-1.4000000000000001,0,0.00404279,0.00404274,(\d+)[-](\d+)[-](\w+)(\d+),05/27/2019,Transfer stab [250-180-G46(1) _BAD_; 27_05_2019 11_10_51].csv,5.6509992083702858E-05,11:10:51,BAD,G46,0.063582937962947256,250-180-G46,180,250,Transfer stab,250-180-G46
0.00399475,-0.00399443,-7.94E-13,3,-1.35,0,0.00399475,0.00399443,(\d+)[-](\d+)[-](\w+)(\d+),05/27/2019,Transfer stab [250-180-G46(1) _BAD_; 27_05_2019 11_10_51].csv,5.6666274780735847E-05,11:10:51,BAD,G46,0.063204034681339769,250-180-G46,180,250,Transfer stab,250-180-G46
0.00394763,-0.00394726,-1.235E-12,3,-1.3,0,0.00394763,0.00394726,(\d+)[-](\d+)[-](\w+)(\d+),05/27/2019,Transfer stab [250-180-G46(1) _BAD_; 27_05_2019 11_10_51].csv,5.6426006030413587E-05,11:10:51,BAD,G46,0.062830167913192778,250-180-G46,180,250,Transfer stab,250-180-G46
0.0039003600000000003,-0.00390083,-3.665E-12,3,-1.25,0,0.0039003600000000003,0.00390083,(\d+)[-](\d+)[-](\w+)(\d+),05/27/2019,Transfer stab [250-180-G46(1) _BAD_; 27_05_2019 11_10_51].csv,5.6138001527373948E-05,11:10:51,BAD,G46,0.062452862224240777,250-180-G46,180,250,Transfer stab,250-180-G46
0.00385404,-0.0038528,-1.9218E-11,3,-1.2,0,0.00385404,0.0038528,(\d+)[-](\d+)[-](\w+)(\d+),05/27/2019,Transfer stab [250-180-G46(1) _BAD_; 27_05_2019 11_10_51].csv,5.7870000140740541E-05,11:10:51,BAD,G46,0.062080914941711356,250-180-G46,180,250,Transfer stab,250-180-G46
0.00380592,-0.00380582,-6.615E-12,3,-1.1500000000000001,0,0.00380592,0.00380582,(\d+)[-](\d+)[-](\w+)(\d+),05/27/2019,Transfer stab [250-180-G46(1) _BAD_; 27_05_2019 11_10_51].csv,5.9375797639134247E-05,11:10:51,BAD,G46,0.061692138883329375,250-180-G46,180,250,Transfer stab,250-180-G46
0.00375896,-0.00375859,-1.7851E-11,3,-1.1,0,0.00375896,0.00375859,(\d+)[-](\d+)[-](\w+)(\d+),05/27/2019,Transfer stab [250-180-G46(1) _BAD_; 27_05_2019 11_10_51].csv,5.9159897528493266E-05,11:10:51,BAD,G46,0.061310358015591461,250-180-G46,180,250,Transfer stab,250-180-G46
0.00371161,-0.0037107,-2.1770000000000003E-11,3,-1.05,0,0.00371161,0.0037107,(\d+)[-](\d+)[-](\w+)(\d+),05/27/2019,Transfer stab [250-180-G46(1) _BAD_; 27_05_2019 11_10_51].csv,6.09357063971148E-05,11:10:51,BAD,G46,0.060922984168538565,250-180-G46,180,250,Transfer stab,250-180-G46
0.00366385,-0.00366338,-2.0202000000000003E-11,3,-1,0,0.00366385,0.00366338,(\d+)[-](\d+)[-](\w+)(\d+),05/27/2019,Transfer stab [250-180-G46(1) _BAD_; 27_05_2019 11_10_51].csv,6.2128895439046871E-05,11:10:51,BAD,G46,0.060529744754128943,250-180-G46,180,250,Transfer stab,250-180-G46
0.00361619,-0.00361552,-1.3737000000000001E-11,3,-0.95000000000000007,0,0.00361619,0.00361552,(\d+)[-](\d+)[-](\w+)(\d+),05/27/2019,Transfer stab [250-180-G46(1) _BAD_; 27_05_2019 11_10_51].csv,6.2816783650962172E-05,11:10:51,BAD,G46,0.060134765319239419,250-180-G46,180,250,Transfer stab,250-180-G46
0.00356853,-0.00356834,-2.7966000000000003E-11,3,-0.9,0,0.00356853,0.00356834,(\d+)[-](\d+)[-](\w+)(\d+),05/27/2019,Transfer stab [250-180-G46(1) _BAD_; 27_05_2019 11_10_51].csv,6.3534860328336274E-05,11:10:51,BAD,G46,0.059737174355672364,250-180-G46,180,250,Transfer stab,250-180-G46
0.00352096,-0.00352119,-1.6726E-11,3,-0.85000000000000009,0,0.00352096,0.00352119,(\d+)[-](\d+)[-](\w+)(\d+),05/27/2019,Transfer stab [250-180-G46(1) _BAD_; 27_05_2019 11_10_51].csv,6.3175416445925573E-05,11:10:51,BAD,G46,0.059337677743572,250-180-G46,180,250,Transfer stab,250-180-G46
0.0034742,-0.0034737500000000003,-2.4268000000000003E-11,3,-0.8,0,0.0034742,0.0034737500000000003,(\d+)[-](\d+)[-](\w+)(\d+),05/27/2019,Transfer stab [250-180-G46(1) _BAD_; 27_05_2019 11_10_51].csv,6.3290959699703711E-05,11:10:51,BAD,G46,0.058942344710742549,250-180-G46,180,250,Transfer stab,250-180-G46
0.00342718,-0.00342677,-2.7519000000000003E-11,3,-0.75,0,0.00342718,0.00342677,(\d+)[-](\d+)[-](\w+)(\d+),05/27/2019,Transfer stab [250-180-G46(1) _BAD_; 27_05_2019 11_10_51].csv,6.5025415345398383E-05,11:10:51,BAD,G46,0.058542121587793518,250-180-G46,180,250,Transfer stab,250-180-G46
0.00337979,-0.00337952,-3.2152000000000004E-11,3,-0.70000000000000007,0,0.00337979,0.00337952,(\d+)[-](\d+)[-](\w+)(\d+),05/27/2019,Transfer stab [250-180-G46(1) _BAD_; 27_05_2019 11_10_51].csv,6.5663133934473251E-05,11:10:51,BAD,G46,0.058135961332036128,250-180-G46,180,250,Transfer stab,250-180-G46
0.0033329600000000003,-0.00333266,-3.4575E-11,3,-0.65,0,0.0033329600000000003,0.00333266,(\d+)[-](\d+)[-](\w+)(\d+),05/27/2019,Transfer stab [250-180-G46(1) _BAD_; 27_05_2019 11_10_51].csv,6.6896261982000185E-05,11:10:51,BAD,G46,0.057731793666921521,250-180-G46,180,250,Transfer stab,250-180-G46
0.00328536,-0.0032848400000000002,-2.971E-11,3,-0.6,0,0.00328536,0.0032848400000000002,(\d+)[-](\d+)[-](\w+)(\d+),05/27/2019,Transfer stab [250-180-G46(1) _BAD_; 27_05_2019 11_10_51].csv,6.8531823530317045E-05,11:10:51,BAD,G46,0.057318059981126372,250-180-G46,180,250,Transfer stab,250-180-G46
0.00323806,-0.00323773,-3.1874000000000004E-11,3,-0.55,0,0.00323806,0.00323773,(\d+)[-](\d+)[-](\w+)(\d+),05/27/2019,Transfer stab [250-180-G46(1) _BAD_; 27_05_2019 11_10_51].csv,6.8891352430600479E-05,11:10:51,BAD,G46,0.056903954168405553,250-180-G46,180,250,Transfer stab,250-180-G46
0.0031909,-0.00319024,-2.5119E-11,3,-0.5,0,0.0031909,0.00319024,(\d+)[-](\d+)[-](\w+)(\d+),05/27/2019,Transfer stab [250-180-G46(1) _BAD_; 27_05_2019 11_10_51].csv,6.9853051262806415E-05,11:10:51,BAD,G46,0.056488051833994066,250-180-G46,180,250,Transfer stab,250-180-G46
0.00314364,-0.00314343,-5.6301000000000004E-11,3,-0.45,0,0.00314364,0.00314343,(\d+)[-](\d+)[-](\w+)(\d+),05/27/2019,Transfer stab [250-180-G46(1) _BAD_; 27_05_2019 11_10_51].csv,7.02519130915964E-05,11:10:51,BAD,G46,0.056068172789917096,250-180-G46,180,250,Transfer stab,250-180-G46
0.00309691,-0.00309706,-6.518700000000001E-11,3,-0.4,0,0.00309691,0.00309706,(\d+)[-](\d+)[-](\w+)(\d+),05/27/2019,Transfer stab [250-180-G46(1) _BAD_; 27_05_2019 11_10_51].csv,7.0531210718188388E-05,11:10:51,BAD,G46,0.0556498876908121,250-180-G46,180,250,Transfer stab,250-180-G46
0.00305017,-0.00304956,-6.0539000000000009E-11,3,-0.35000000000000003,0,0.00305017,0.00304956,(\d+)[-](\d+)[-](\w+)(\d+),05/27/2019,Transfer stab [250-180-G46(1) _BAD_; 27_05_2019 11_10_51].csv,7.19055946192694E-05,11:10:51,BAD,G46,0.055228344172173045,250-180-G46,180,250,Transfer stab,250-180-G46
0.0030032500000000003,-0.00300246,-7.6589000000000008E-11,3,-0.3,0,0.0030032500000000003,0.00300246,(\d+)[-](\d+)[-](\w+)(\d+),05/27/2019,Transfer stab [250-180-G46(1) _BAD_; 27_05_2019 11_10_51].csv,7.4240007408286367E-05,11:10:51,BAD,G46,0.054801916024898256,250-180-G46,180,250,Transfer stab,250-180-G46
0.00295574,-0.0029552000000000003,-7.914300000000001E-11,3,-0.25,0,0.00295574,0.0029552000000000003,(\d+)[-](\d+)[-](\w+)(\d+),05/27/2019,Transfer stab [250-180-G46(1) _BAD_; 27_05_2019 11_10_51].csv,7.5499071476242029E-05,11:10:51,BAD,G46,0.054366717760041393,250-180-G46,180,250,Transfer stab,250-180-G46
0.00290877,-0.0029082500000000002,-8.6218000000000009E-11,3,-0.2,0,0.00290877,0.0029082500000000002,(\d+)[-](\d+)[-](\w+)(\d+),05/27/2019,Transfer stab [250-180-G46(1) _BAD_; 27_05_2019 11_10_51].csv,7.5395629721254314E-05,11:10:51,BAD,G46,0.053933014008119368,250-180-G46,180,250,Transfer stab,250-180-G46
0.00286208,-0.00286185,-9.2244E-11,3,-0.15,0,0.00286208,0.00286185,(\d+)[-](\d+)[-](\w+)(\d+),05/27/2019,Transfer stab [250-180-G46(1) _BAD_; 27_05_2019 11_10_51].csv,7.66001883233908E-05,11:10:51,BAD,G46,0.053498411191361561,250-180-G46,180,250,Transfer stab,250-180-G46
0.00281513,-0.00281437,-8.9818E-11,3,-0.1,0,0.00281513,0.00281437,(\d+)[-](\d+)[-](\w+)(\d+),05/27/2019,Transfer stab [250-180-G46(1) _BAD_; 27_05_2019 11_10_51].csv,7.867789057490361E-05,11:10:51,BAD,G46,0.053057798672768171,250-180-G46,180,250,Transfer stab,250-180-G46
0.00276796,-0.00276764,-1.0411500000000001E-10,3,-0.05,0,0.00276796,0.00276764,(\d+)[-](\d+)[-](\w+)(\d+),05/27/2019,Transfer stab [250-180-G46(1) _BAD_; 27_05_2019 11_10_51].csv,7.85277537950227E-05,11:10:51,BAD,G46,0.052611405607529624,250-180-G46,180,250,Transfer stab,250-180-G46
0.00272188,-0.0027210100000000003,-1.1813100000000002E-10,3,0,0,0.00272188,0.0027210100000000003,(\d+)[-](\d+)[-](\w+)(\d+),05/27/2019,Transfer stab [250-180-G46(1) _BAD_; 27_05_2019 11_10_51].csv,7.9285384007514925E-05,11:10:51,BAD,G46,0.052171639805549529,250-180-G46,180,250,Transfer stab,250-180-G46
0.00267506,-0.00267436,-1.17864E-10,3,0.05,0,0.00267506,0.00267436,(\d+)[-](\d+)[-](\w+)(\d+),05/27/2019,Transfer stab [250-180-G46(1) _BAD_; 27_05_2019 11_10_51].csv,8.1723171512323634E-05,11:10:51,BAD,G46,0.051720982202583893,250-180-G46,180,250,Transfer stab,250-180-G46
0.00262837,-0.00262782,-9.9269000000000014E-11,3,0.1,0,0.00262837,0.00262782,(\d+)[-](\d+)[-](\w+)(\d+),05/27/2019,Transfer stab [250-180-G46(1) _BAD_; 27_05_2019 11_10_51].csv,8.3035659246318173E-05,11:10:51,BAD,G46,0.051267631113598375,250-180-G46,180,250,Transfer stab,250-180-G46
0.00258163,-0.00258084,-1.42998E-10,3,0.15,0,0.00258163,0.00258084,(\d+)[-](\d+)[-](\w+)(\d+),05/27/2019,Transfer stab [250-180-G46(1) _BAD_; 27_05_2019 11_10_51].csv,8.5068061498006875E-05,11:10:51,BAD,G46,0.05080974316014597,250-180-G46,180,250,Transfer stab,250-180-G46
0.00253465,-0.00253427,-1.5130100000000002E-10,3,0.2,0,0.00253465,0.00253427,(\d+)[-](\d+)[-](\w+)(\d+),05/27/2019,Transfer stab [250-180-G46(1) _BAD_; 27_05_2019 11_10_51].csv,8.65436640890042E-05,11:10:51,BAD,G46,0.050345307626431281,250-180-G46,180,250,Transfer stab,250-180-G46
0.00248796,-0.0024875,-1.3495700000000002E-10,3,0.25,0,0.00248796,0.0024875,(\d+)[-](\d+)[-](\w+)(\d+),05/27/2019,Transfer stab [250-180-G46(1) _BAD_; 27_05_2019 11_10_51].csv,8.7457510953777958E-05,11:10:51,BAD,G46,0.049879454688278216,250-180-G46,180,250,Transfer stab,250-180-G46
0.00244136,-0.00244106,-1.7167700000000002E-10,3,0.3,0,0.00244136,0.00244106,(\d+)[-](\d+)[-](\w+)(\d+),05/27/2019,Transfer stab [250-180-G46(1) _BAD_; 27_05_2019 11_10_51].csv,8.86487837166317E-05,11:10:51,BAD,G46,0.049410120420820672,250-180-G46,180,250,Transfer stab,250-180-G46
0.00239492,-0.00239469,-1.7566700000000003E-10,3,0.35000000000000003,0,0.00239492,0.00239469,(\d+)[-](\d+)[-](\w+)(\d+),05/27/2019,Transfer stab [250-180-G46(1) _BAD_; 27_05_2019 11_10_51].csv,9.011923487204443E-05,11:10:51,BAD,G46,0.048937919857713612,250-180-G46,180,250,Transfer stab,250-180-G46
0.00234845,-0.00234787,-1.8001200000000002E-10,3,0.4,0,0.00234845,0.00234787,(\d+)[-](\d+)[-](\w+)(\d+),05/27/2019,Transfer stab [250-180-G46(1) _BAD_; 27_05_2019 11_10_51].csv,9.2261663080295142E-05,11:10:51,BAD,G46,0.048460808907817461,250-180-G46,180,250,Transfer stab,250-180-G46
0.00230183,-0.00230111,-2.0268300000000002E-10,3,0.45,0,0.00230183,0.00230111,(\d+)[-](\d+)[-](\w+)(\d+),05/27/2019,Transfer stab [250-180-G46(1) _BAD_; 27_05_2019 11_10_51].csv,9.502564303198937E-05,11:10:51,BAD,G46,0.047977390508446786,250-180-G46,180,250,Transfer stab,250-180-G46
0.00225492,-0.00225436,-2.08708E-10,3,0.5,0,0.00225492,0.00225436,(\d+)[-](\d+)[-](\w+)(\d+),05/27/2019,Transfer stab [250-180-G46(1) _BAD_; 27_05_2019 11_10_51].csv,9.5591617625875465E-05,11:10:51,BAD,G46,0.047485997936233794,250-180-G46,180,250,Transfer stab,250-180-G46
0.00220897,-0.00220862,-2.2003100000000002E-10,3,0.55,0,0.00220897,0.00220862,(\d+)[-](\d+)[-](\w+)(\d+),05/27/2019,Transfer stab [250-180-G46(1) _BAD_; 27_05_2019 11_10_51].csv,9.6626399462442731E-05,11:10:51,BAD,G46,0.046999680849980248,250-180-G46,180,250,Transfer stab,250-180-G46
0.00216253,-0.0021622,-2.26179E-10,3,0.6,0,0.00216253,0.0021622,(\d+)[-](\d+)[-](\w+)(\d+),05/27/2019,Transfer stab [250-180-G46(1) _BAD_; 27_05_2019 11_10_51].csv,9.9003927703450925E-05,11:10:51,BAD,G46,0.046503010655225323,250-180-G46,180,250,Transfer stab,250-180-G46
0.00211643,-0.00211565,-2.36409E-10,3,0.65,0,0.00211643,0.00211565,(\d+)[-](\d+)[-](\w+)(\d+),05/27/2019,Transfer stab [250-180-G46(1) _BAD_; 27_05_2019 11_10_51].csv,0.00010144249903200235,11:10:51,BAD,G46,0.046004673675616913,250-180-G46,180,250,Transfer stab,250-180-G46
0.00206987,-0.00206962,-2.63287E-10,3,0.70000000000000007,0,0.00206987,0.00206962,(\d+)[-](\d+)[-](\w+)(\d+),05/27/2019,Transfer stab [250-180-G46(1) _BAD_; 27_05_2019 11_10_51].csv,0.00010370212807517375,11:10:51,BAD,G46,0.045495823984185627,250-180-G46,180,250,Transfer stab,250-180-G46
0.0020237700000000003,-0.00202328,-2.71363E-10,3,0.75,0,0.0020237700000000003,0.00202328,(\d+)[-](\d+)[-](\w+)(\d+),05/27/2019,Transfer stab [250-180-G46(1) _BAD_; 27_05_2019 11_10_51].csv,0.00010553366345399169,11:10:51,BAD,G46,0.044986331257394173,250-180-G46,180,250,Transfer stab,250-180-G46
0.00197745,-0.00197696,-2.7973E-10,3,0.8,0,0.00197745,0.00197696,(\d+)[-](\d+)[-](\w+)(\d+),05/27/2019,Transfer stab [250-180-G46(1) _BAD_; 27_05_2019 11_10_51].csv,0.00010834948003375846,11:10:51,BAD,G46,0.044468528196916976,250-180-G46,180,250,Transfer stab,250-180-G46
0.0019312,-0.00193062,-2.9956500000000004E-10,3,0.85000000000000009,0,0.0019312,0.00193062,(\d+)[-](\d+)[-](\w+)(\d+),05/27/2019,Transfer stab [250-180-G46(1) _BAD_; 27_05_2019 11_10_51].csv,0.00011073079223433553,11:10:51,BAD,G46,0.04394542069431126,250-180-G46,180,250,Transfer stab,250-180-G46
0.0018849700000000001,-0.00188443,-3.19787E-10,3,0.9,0,0.0018849700000000001,0.00188443,(\d+)[-](\d+)[-](\w+)(\d+),05/27/2019,Transfer stab [250-180-G46(1) _BAD_; 27_05_2019 11_10_51].csv,0.00011312585039724784,11:10:51,BAD,G46,0.043416241200730406,250-180-G46,180,250,Transfer stab,250-180-G46
0.00183885,-0.00183814,-3.29376E-10,3,0.95000000000000007,0,0.00183885,0.00183814,(\d+)[-](\d+)[-](\w+)(\d+),05/27/2019,Transfer stab [250-180-G46(1) _BAD_; 27_05_2019 11_10_51].csv,0.00011640369310517815,11:10:51,BAD,G46,0.042881814327287972,250-180-G46,180,250,Transfer stab,250-180-G46
0.0017924500000000001,-0.0017920500000000001,-3.5419500000000004E-10,3,1,0,0.0017924500000000001,0.0017920500000000001,(\d+)[-](\d+)[-](\w+)(\d+),05/27/2019,Transfer stab [250-180-G46(1) _BAD_; 27_05_2019 11_10_51].csv,0.00011921656452026475,11:10:51,BAD,G46,0.042337335768798681,250-180-G46,180,250,Transfer stab,250-180-G46
0.0017464,-0.0017458200000000001,-3.65252E-10,3,1.05,0,0.0017464,0.0017458200000000001,(\d+)[-](\d+)[-](\w+)(\d+),05/27/2019,Transfer stab [250-180-G46(1) _BAD_; 27_05_2019 11_10_51].csv,0.00012152838312844224,11:10:51,BAD,G46,0.041789950945173411,250-180-G46,180,250,Transfer stab,250-180-G46
0.00170032,-0.00169974,-3.7972400000000004E-10,3,1.1,0,0.00170032,0.00169974,(\d+)[-](\d+)[-](\w+)(\d+),05/27/2019,Transfer stab [250-180-G46(1) _BAD_; 27_05_2019 11_10_51].csv,0.00012446408390405408,11:10:51,BAD,G46,0.041234936643579315,250-180-G46,180,250,Transfer stab,250-180-G46
0.0016544,-0.0016538,-4.0300600000000006E-10,3,1.1500000000000001,0,0.0016544,0.0016538,(\d+)[-](\d+)[-](\w+)(\d+),05/27/2019,Transfer stab [250-180-G46(1) _BAD_; 27_05_2019 11_10_51].csv,0.00012767856974907861,11:10:51,BAD,G46,0.04067431622043572,250-180-G46,180,250,Transfer stab,250-180-G46
0.00160841,-0.00160804,-4.17452E-10,3,1.2,0,0.00160841,0.00160804,(\d+)[-](\d+)[-](\w+)(\d+),05/27/2019,Transfer stab [250-180-G46(1) _BAD_; 27_05_2019 11_10_51].csv,0.00013071708519530402,11:10:51,BAD,G46,0.040104987221042721,250-180-G46,180,250,Transfer stab,250-180-G46
0.0015627,-0.00156244,-4.3916400000000005E-10,3,1.25,0,0.0015627,0.00156244,(\d+)[-](\d+)[-](\w+)(\d+),05/27/2019,Transfer stab [250-180-G46(1) _BAD_; 27_05_2019 11_10_51].csv,0.00013376305285789817,11:10:51,BAD,G46,0.039531000493283751,250-180-G46,180,250,Transfer stab,250-180-G46
0.00151698,-0.0015164900000000001,-4.5753100000000003E-10,3,1.3,0,0.00151698,0.0015164900000000001,(\d+)[-](\d+)[-](\w+)(\d+),05/27/2019,Transfer stab [250-180-G46(1) _BAD_; 27_05_2019 11_10_51].csv,0.00013810163431755777,11:10:51,BAD,G46,0.038948427439371672,250-180-G46,180,250,Transfer stab,250-180-G46
0.00147117,-0.00147067,-4.69408E-10,3,1.35,0,0.00147117,0.00147067,(\d+)[-](\d+)[-](\w+)(\d+),05/27/2019,Transfer stab [250-180-G46(1) _BAD_; 27_05_2019 11_10_51].csv,0.00014204792732410985,11:10:51,BAD,G46,0.038355833976072007,250-180-G46,180,250,Transfer stab,250-180-G46
0.00142556,-0.00142496,-4.89618E-10,3,1.4000000000000001,0,0.00142556,0.00142496,(\d+)[-](\d+)[-](\w+)(\d+),05/27/2019,Transfer stab [250-180-G46(1) _BAD_; 27_05_2019 11_10_51].csv,0.000146615233023995,11:10:51,BAD,G46,0.037756588828971295,250-180-G46,180,250,Transfer stab,250-180-G46
