
SetupTitle, Output
PrimitiveTest, I/V Sweep
TestParameter, Context.MainFrame, 4155C
TestParameter, Channel.UnitType, SMU, SMU, SMU
TestParameter, Channel.Unit, SMU1:MP, SMU4:MP, SMU3:MP
TestParameter, Channel.IName, ID, IS, IG
TestParameter, Channel.VName, VD, VS, VG
TestParameter, Channel.Mode, V, COMMON, V
TestParameter, Channel.Func, VAR1, CONST, VAR2
TestParameter, Channel.Index, 
TestParameter, Channel.Time, 
TestParameter, Measurement.Port.Unit, SMU1:MP, SMU4:MP, SMU3:MP
TestParameter, Measurement.Port.SeriesResistor, NONE, NONE, NONE
TestParameter, Measurement.Port.Filter, ON, ON, ON
TestParameter, Measurement.Primary.Locus, Single
TestParameter, Measurement.Primary.Scale, LINEAR
TestParameter, Measurement.Primary.Start, 0
TestParameter, Measurement.Primary.Stop, 5
TestParameter, Measurement.Primary.Step, 0.5
TestParameter, Measurement.Primary.Compliance, 0.1
TestParameter, Measurement.Primary.PowerCompliance, 0
TestParameter, Measurement.Aborting.Condition, CONTINUE AT ANY
TestParameter, Measurement.PostOutput.Value, START
TestParameter, Measurement.PostOutput.Retention, OFF
TestParameter, Measurement.Secondary.Start, -1
TestParameter, Measurement.Secondary.Count, 7
TestParameter, Measurement.Secondary.Step, 1
TestParameter, Measurement.Secondary.Compliance, 0.1
TestParameter, Measurement.Secondary.PowerCompliance, 0
TestParameter, Measurement.Bias.Source, 0, 0, -1
TestParameter, Measurement.Bias.Compliance, 0.1, 0.1, 0.1
TestParameter, Measurement.Monitor.Unit, SMU1:MP, SMU4:MP, SMU3:MP
TestParameter, Measurement.Monitor.Adc, HR ADC, HR ADC, HR ADC
TestParameter, Measurement.Monitor.RangingMode, AUTO, AUTO, AUTO
TestParameter, Measurement.Monitor.RangeBoundary, , , 
TestParameter, Measurement.Monitor.RangeRating, BY FULL RANGE, BY FULL RANGE, BY FULL RANGE
TestParameter, Measurement.Monitor.RangeRatingCoeff, 50, 50, 50
TestParameter, Measurement.Timing.Hold, 0.5
TestParameter, Measurement.Timing.Delay, 0.05
TestParameter, Measurement.Adc.HighResolution.AutoZero, OFF
TestParameter, Measurement.Adc.HighResolution.Mode, AUTO
TestParameter, Measurement.Adc.HighResolution.Coeff, 1
TestParameter, Measurement.Ag16440ASelector.SemiconductorRelay.Channel1, DEFAULT
TestParameter, Measurement.Ag16440ASelector.SemiconductorRelay.Channel3, DEFAULT
TestParameter, Function.User.Name, absID, absIG
TestParameter, Function.User.Unit, A, A
TestParameter, Function.User.Definition, abs(ID), abs(IG)
TestParameter, Output.Graph.Enabled, true
TestParameter, Output.Graph.XAxis.Data, VD
TestParameter, Output.Graph.XAxis.Scale, Linear
TestParameter, Output.Graph.XAxis.Left, 0
TestParameter, Output.Graph.XAxis.Right, 7
TestParameter, Output.Graph.YAxis.Data, ID
TestParameter, Output.Graph.YAxis.Scale, Linear
TestParameter, Output.Graph.YAxis.Bottom, 1E-14
TestParameter, Output.Graph.YAxis.Top, 0.01
TestParameter, Output.Graph.YAxis.Group, 
TestParameter, Output.List.Data, VG, IG, VD, ID, VS, IS, absIG
TestParameter, AutoAnalysis.Interpolation, false
TestParameter, AutoAnalysis.Line1.Enabled, false
TestParameter, AutoAnalysis.Line1.Type, 1
TestParameter, AutoAnalysis.Line1.Fix, True
TestParameter, AutoAnalysis.Line1.YAxis, 0
TestParameter, AutoAnalysis.Line1.Point1.Type, 0
TestParameter, AutoAnalysis.Line1.Point1.XY.X, 
TestParameter, AutoAnalysis.Line1.Point1.XY.Y, 
TestParameter, AutoAnalysis.Line1.Point1.Data.Var, 
TestParameter, AutoAnalysis.Line1.Point1.Data.Condition, 
TestParameter, AutoAnalysis.Line1.Point1.Data.Start, false
TestParameter, AutoAnalysis.Line1.Point1.Data.StartVar, 
TestParameter, AutoAnalysis.Line1.Point1.Data.StartCondition, 
TestParameter, AutoAnalysis.Line1.Point2.Type, 0
TestParameter, AutoAnalysis.Line1.Point2.XY.X, 
TestParameter, AutoAnalysis.Line1.Point2.XY.Y, 
TestParameter, AutoAnalysis.Line1.Point2.Data.Var, 
TestParameter, AutoAnalysis.Line1.Point2.Data.Condition, 
TestParameter, AutoAnalysis.Line1.Point2.Data.Start, false
TestParameter, AutoAnalysis.Line1.Point2.Data.StartVar, 
TestParameter, AutoAnalysis.Line1.Point2.Data.StartCondition, 
TestParameter, AutoAnalysis.Line1.GradientExpr, 0
TestParameter, AutoAnalysis.Line2.Enabled, false
TestParameter, AutoAnalysis.Line2.Type, 1
TestParameter, AutoAnalysis.Line2.Fix, True
TestParameter, AutoAnalysis.Line2.YAxis, 0
TestParameter, AutoAnalysis.Line2.Point1.Type, 0
TestParameter, AutoAnalysis.Line2.Point1.XY.X, 
TestParameter, AutoAnalysis.Line2.Point1.XY.Y, 
TestParameter, AutoAnalysis.Line2.Point1.Data.Var, 
TestParameter, AutoAnalysis.Line2.Point1.Data.Condition, 
TestParameter, AutoAnalysis.Line2.Point1.Data.Start, false
TestParameter, AutoAnalysis.Line2.Point1.Data.StartVar, 
TestParameter, AutoAnalysis.Line2.Point1.Data.StartCondition, 
TestParameter, AutoAnalysis.Line2.Point2.Type, 0
TestParameter, AutoAnalysis.Line2.Point2.XY.X, 
TestParameter, AutoAnalysis.Line2.Point2.XY.Y, 
TestParameter, AutoAnalysis.Line2.Point2.Data.Var, 
TestParameter, AutoAnalysis.Line2.Point2.Data.Condition, 
TestParameter, AutoAnalysis.Line2.Point2.Data.Start, false
TestParameter, AutoAnalysis.Line2.Point2.Data.StartVar, 
TestParameter, AutoAnalysis.Line2.Point2.Data.StartCondition, 
TestParameter, AutoAnalysis.Line2.GradientExpr, 0
TestParameter, AutoAnalysis.Marker.Enabled, false
TestParameter, AutoAnalysis.Marker.Data.Var, 
TestParameter, AutoAnalysis.Marker.Data.Condition, 
TestParameter, AutoAnalysis.Marker.Data.Start, false
TestParameter, AutoAnalysis.Marker.Data.StartVar, 
TestParameter, AutoAnalysis.Marker.Data.StartCondition, 
MetaData, TestRecord.EntryPoint, true
MetaData, TestRecord.RecordTime, 04/24/2019 15:39:07
MetaData, TestRecord.TestTarget, 45
MetaData, TestRecord.IterationIndex, 1
MetaData, TestRecord.Preservation, true
MetaData, TestRecord.Flag, 
MetaData, TestRecord.Remarks, 350-300-G45
MetaData, TestRecord.LinkKey, 42f8d8fd-031f-41fe-bf92-79155e3eb776
Dimension1, 11, 11, 11, 11, 11, 11, 11, 11
Dimension2, 7, 7, 7, 7, 7, 7, 7, 7
DataName, VD, VG, VS, ID, IS, IG, absID, absIG
DataValue, 0, -1, 0, 6.3E-13, 2.42E-12, 1.58E-13, 6.3E-13, 1.58E-13
DataValue, 0.5, -1, 0, 1.598E-12, -2.123E-12, -9.78E-13, 1.598E-12, 9.78E-13
DataValue, 1, -1, 0, 1.3690000000000001E-12, 1.71E-13, -1.074E-12, 1.3690000000000001E-12, 1.074E-12
DataValue, 1.5, -1, 0, 1.6430000000000002E-12, 7.1700000000000008E-13, -1.391E-12, 1.6430000000000002E-12, 1.391E-12
DataValue, 2, -1, 0, 2.37E-12, 8.26E-13, -2.582E-12, 2.37E-12, 2.582E-12
DataValue, 2.5, -1, 0, 2.8310000000000004E-12, 3.2000000000000005E-13, -2.3050000000000004E-12, 2.8310000000000004E-12, 2.3050000000000004E-12
DataValue, 3, -1, 0, 2.9140000000000003E-12, -1.5990000000000002E-12, -4.3160000000000006E-12, 2.9140000000000003E-12, 4.3160000000000006E-12
DataValue, 3.5, -1, 0, 3.347E-12, -1.9100000000000002E-13, -2.9680000000000003E-12, 3.347E-12, 2.9680000000000003E-12
DataValue, 4, -1, 0, 4.265E-12, 1.276E-12, -3.6560000000000006E-12, 4.265E-12, 3.6560000000000006E-12
DataValue, 4.5, -1, 0, 5.3340000000000005E-12, 4.0400000000000005E-13, -4.72E-12, 5.3340000000000005E-12, 4.72E-12
DataValue, 5, -1, 0, 6.2830000000000006E-12, -3.6100000000000003E-13, -5.992E-12, 6.2830000000000006E-12, 5.992E-12
DataValue, 0, 0, 0, 1.0434400000000001E-10, -1.0359300000000001E-10, 4.8300000000000006E-13, 1.0434400000000001E-10, 4.8300000000000006E-13
DataValue, 0.5, 0, 0, 4.73653E-09, -4.8425E-09, -2.7700000000000003E-13, 4.73653E-09, 2.7700000000000003E-13
DataValue, 1, 0, 0, 4.97751E-09, -4.98478E-09, -3.28E-13, 4.97751E-09, 3.28E-13
DataValue, 1.5, 0, 0, 5.08615E-09, -5.09529E-09, -4.783E-12, 5.08615E-09, 4.783E-12
DataValue, 2, 0, 0, 5.16562E-09, -5.1735E-09, -9.55E-13, 5.16562E-09, 9.55E-13
DataValue, 2.5, 0, 0, 5.23657E-09, -5.24399E-09, -1.4590000000000001E-12, 5.23657E-09, 1.4590000000000001E-12
DataValue, 3, 0, 0, 5.30567E-09, -5.31424E-09, -1.4320000000000002E-12, 5.30567E-09, 1.4320000000000002E-12
DataValue, 3.5, 0, 0, 5.37393E-09, -5.37226E-09, -2.482E-12, 5.37393E-09, 2.482E-12
DataValue, 4, 0, 0, 5.43365E-09, -5.42892E-09, -4.764E-12, 5.43365E-09, 4.764E-12
DataValue, 4.5, 0, 0, 5.48629E-09, -5.48958E-09, -3.1260000000000002E-12, 5.48629E-09, 3.1260000000000002E-12
DataValue, 5, 0, 0, 5.54807E-09, -5.54754E-09, -1.3690000000000001E-12, 5.54807E-09, 1.3690000000000001E-12
DataValue, 0, 1, 0, 1.68946E-09, -1.71101E-09, 1.4300000000000002E-12, 1.68946E-09, 1.4300000000000002E-12
DataValue, 0.5, 1, 0, 5.67857E-07, -5.39371E-07, 6.0000000000000007E-13, 5.67857E-07, 6.0000000000000007E-13
DataValue, 1, 1, 0, 5.33528E-07, -5.30612E-07, 3.4E-14, 5.33528E-07, 3.4E-14
DataValue, 1.5, 1, 0, 5.00616E-07, -4.9305E-07, 2.0400000000000001E-13, 5.00616E-07, 2.0400000000000001E-13
DataValue, 2, 1, 0, 4.70995E-07, -4.68229E-07, 1.4900000000000001E-12, 4.70995E-07, 1.4900000000000001E-12
DataValue, 2.5, 1, 0, 4.53106E-07, -4.5062099999999997E-07, -1.5820000000000001E-12, 4.53106E-07, 1.5820000000000001E-12
DataValue, 3, 1, 0, 4.37611E-07, -4.35104E-07, -1.5130000000000001E-12, 4.37611E-07, 1.5130000000000001E-12
DataValue, 3.5, 1, 0, 4.24616E-07, -4.25427E-07, -1.205E-12, 4.24616E-07, 1.205E-12
DataValue, 4, 1, 0, 4.15575E-07, -4.14046E-07, -2.064E-12, 4.15575E-07, 2.064E-12
DataValue, 4.5, 1, 0, 4.04578E-07, -4.03948E-07, -5.6880000000000008E-12, 4.04578E-07, 5.6880000000000008E-12
DataValue, 5, 1, 0, 3.95979E-07, -3.95218E-07, -2.39E-12, 3.95979E-07, 2.39E-12
DataValue, 0, 2, 0, 2.042E-09, -1.99199E-09, 1.896E-12, 2.042E-09, 1.896E-12
DataValue, 0.5, 2, 0, 1.6608000000000003E-06, -1.6695400000000001E-06, 9.6400000000000013E-13, 1.6608000000000003E-06, 9.6400000000000013E-13
DataValue, 1, 2, 0, 2.7517600000000002E-06, -2.7491700000000003E-06, 4.1900000000000003E-13, 2.7517600000000002E-06, 4.1900000000000003E-13
DataValue, 1.5, 2, 0, 2.71972E-06, -2.6985900000000004E-06, 1.76E-13, 2.71972E-06, 1.76E-13
DataValue, 2, 2, 0, 2.5856600000000002E-06, -2.59052E-06, 1E-13, 2.5856600000000002E-06, 1E-13
DataValue, 2.5, 2, 0, 2.4942E-06, -2.4833900000000004E-06, -4.6000000000000006E-13, 2.4942E-06, 4.6000000000000006E-13
DataValue, 3, 2, 0, 2.4523800000000003E-06, -2.4458100000000002E-06, -1.5380000000000001E-12, 2.4523800000000003E-06, 1.5380000000000001E-12
DataValue, 3.5, 2, 0, 2.41423E-06, -2.3915000000000003E-06, -3.1E-14, 2.41423E-06, 3.1E-14
DataValue, 4, 2, 0, 2.39731E-06, -2.3857600000000003E-06, -1.7250000000000002E-12, 2.39731E-06, 1.7250000000000002E-12
DataValue, 4.5, 2, 0, 2.3589600000000004E-06, -2.3430200000000004E-06, -1.343E-12, 2.3589600000000004E-06, 1.343E-12
DataValue, 5, 2, 0, 2.3033400000000003E-06, -2.3193000000000004E-06, -1.2230000000000001E-12, 2.3033400000000003E-06, 1.2230000000000001E-12
DataValue, 0, 3, 0, 2.14602E-09, -2.11321E-09, 1.506E-12, 2.14602E-09, 1.506E-12
DataValue, 0.5, 3, 0, 2.2230800000000002E-06, -2.20606E-06, 1.948E-12, 2.2230800000000002E-06, 1.948E-12
DataValue, 1, 3, 0, 7.0835600000000008E-06, -7.0286000000000008E-06, -5.0900000000000005E-13, 7.0835600000000008E-06, 5.0900000000000005E-13
DataValue, 1.5, 3, 0, 1.00834E-05, -9.9705400000000016E-06, -2.93E-13, 1.00834E-05, 2.93E-13
DataValue, 2, 3, 0, 1.0568700000000001E-05, -1.0542340000000002E-05, -4.0400000000000005E-13, 1.0568700000000001E-05, 4.0400000000000005E-13
DataValue, 2.5, 3, 0, 1.02554E-05, -1.0571560000000001E-05, 4.1197000000000004E-11, 1.02554E-05, 4.1197000000000004E-11
DataValue, 3, 3, 0, 2.72011E-05, -2.5048200000000002E-05, -4.67E-13, 2.72011E-05, 4.67E-13
DataValue, 3.5, 3, 0, 2.48362E-05, -2.47035E-05, -1.87E-13, 2.48362E-05, 1.87E-13
DataValue, 4, 3, 0, 2.3039700000000002E-05, -2.29351E-05, -3.1940000000000003E-12, 2.3039700000000002E-05, 3.1940000000000003E-12
DataValue, 4.5, 3, 0, 2.17708E-05, -2.16312E-05, -4.517E-12, 2.17708E-05, 4.517E-12
DataValue, 5, 3, 0, 2.22771E-05, -2.2181E-05, -1.6300000000000001E-12, 2.22771E-05, 1.6300000000000001E-12
DataValue, 0, 4, 0, 1.4843699999999999E-08, -1.4798499999999999E-08, -1.0830000000000001E-12, 1.4843699999999999E-08, 1.0830000000000001E-12
DataValue, 0.5, 4, 0, 1.28458E-05, -1.29218E-05, 1.698E-12, 1.28458E-05, 1.698E-12
DataValue, 1, 4, 0, 2.86232E-05, -2.8358200000000002E-05, 1.1940000000000002E-12, 2.86232E-05, 1.1940000000000002E-12
DataValue, 1.5, 4, 0, 5.1842E-05, -5.18713E-05, 3.7E-14, 5.1842E-05, 3.7E-14
DataValue, 2, 4, 0, 6.39942E-05, -6.40809E-05, 8.26E-13, 6.39942E-05, 8.26E-13
DataValue, 2.5, 4, 0, 7.53198E-05, -7.80119E-05, 3.5700000000000004E-13, 7.53198E-05, 3.5700000000000004E-13
DataValue, 3, 4, 0, 8.18263E-05, -8.0981E-05, -9.52E-13, 8.18263E-05, 9.52E-13
DataValue, 3.5, 4, 0, 8.1589000000000008E-05, -8.1009E-05, -4.941E-12, 8.1589000000000008E-05, 4.941E-12
DataValue, 4, 4, 0, 7.96126E-05, -7.81051E-05, -6.2600000000000006E-13, 7.96126E-05, 6.2600000000000006E-13
DataValue, 4.5, 4, 0, 7.58694E-05, -7.5502E-05, -1.827E-12, 7.58694E-05, 1.827E-12
DataValue, 5, 4, 0, 7.54061E-05, -7.54614E-05, -2.1990000000000002E-12, 7.54061E-05, 2.1990000000000002E-12
DataValue, 0, 5, 0, 4.12526E-08, -4.1383899999999996E-08, 2.8400000000000004E-12, 4.12526E-08, 2.8400000000000004E-12
DataValue, 0.5, 5, 0, 2.6488600000000002E-05, -2.64677E-05, 5.4460000000000008E-12, 2.6488600000000002E-05, 5.4460000000000008E-12
DataValue, 1, 5, 0, 5.4325E-05, -5.43279E-05, 7.5000000000000009E-14, 5.4325E-05, 7.5000000000000009E-14
DataValue, 1.5, 5, 0, 7.9565E-05, -7.79755E-05, 3.021E-12, 7.9565E-05, 3.021E-12
DataValue, 2, 5, 0, 0.0001041272, -0.00010395970000000001, 3.513E-12, 0.0001041272, 3.513E-12
DataValue, 2.5, 5, 0, 0.00012563100000000002, -0.00012793100000000002, -4.3800000000000005E-13, 0.00012563100000000002, 4.3800000000000005E-13
DataValue, 3, 5, 0, 0.00014670700000000002, -0.000146252, -1.387E-12, 0.00014670700000000002, 1.387E-12
DataValue, 3.5, 5, 0, 0.000159938, -0.00016071500000000002, 4.36E-13, 0.000159938, 4.36E-13
DataValue, 4, 5, 0, 0.000169342, -0.00017008100000000001, -6.2100000000000008E-13, 0.000169342, 6.2100000000000008E-13
DataValue, 4.5, 5, 0, 0.000177428, -0.00017660600000000002, 1.103E-12, 0.000177428, 1.103E-12
DataValue, 5, 5, 0, 0.000179399, -0.00018011, -1.77E-13, 0.000179399, 1.77E-13