
SetupTitle, Output
PrimitiveTest, I/V Sweep
TestParameter, Context.MainFrame, 4155C
TestParameter, Channel.UnitType, SMU, SMU, SMU
TestParameter, Channel.Unit, SMU1:MP, SMU4:MP, SMU3:MP
TestParameter, Channel.IName, ID, IS, IG
TestParameter, Channel.VName, VD, VS, VG
TestParameter, Channel.Mode, V, COMMON, V
TestParameter, Channel.Func, VAR1, CONST, VAR2
TestParameter, Channel.Index, 
TestParameter, Channel.Time, 
TestParameter, Measurement.Port.Unit, SMU1:MP, SMU4:MP, SMU3:MP
TestParameter, Measurement.Port.SeriesResistor, NONE, NONE, NONE
TestParameter, Measurement.Port.Filter, ON, ON, ON
TestParameter, Measurement.Primary.Locus, Single
TestParameter, Measurement.Primary.Scale, LINEAR
TestParameter, Measurement.Primary.Start, 0
TestParameter, Measurement.Primary.Stop, 5
TestParameter, Measurement.Primary.Step, 0.5
TestParameter, Measurement.Primary.Compliance, 0.1
TestParameter, Measurement.Primary.PowerCompliance, 0
TestParameter, Measurement.Aborting.Condition, CONTINUE AT ANY
TestParameter, Measurement.PostOutput.Value, START
TestParameter, Measurement.PostOutput.Retention, OFF
TestParameter, Measurement.Secondary.Start, -1
TestParameter, Measurement.Secondary.Count, 7
TestParameter, Measurement.Secondary.Step, 1
TestParameter, Measurement.Secondary.Compliance, 0.1
TestParameter, Measurement.Secondary.PowerCompliance, 0
TestParameter, Measurement.Bias.Source, 0, 0, -1
TestParameter, Measurement.Bias.Compliance, 0.1, 0.1, 0.1
TestParameter, Measurement.Monitor.Unit, SMU1:MP, SMU4:MP, SMU3:MP
TestParameter, Measurement.Monitor.Adc, HR ADC, HR ADC, HR ADC
TestParameter, Measurement.Monitor.RangingMode, AUTO, AUTO, AUTO
TestParameter, Measurement.Monitor.RangeBoundary, , , 
TestParameter, Measurement.Monitor.RangeRating, BY FULL RANGE, BY FULL RANGE, BY FULL RANGE
TestParameter, Measurement.Monitor.RangeRatingCoeff, 50, 50, 50
TestParameter, Measurement.Timing.Hold, 0.5
TestParameter, Measurement.Timing.Delay, 0.05
TestParameter, Measurement.Adc.HighResolution.AutoZero, OFF
TestParameter, Measurement.Adc.HighResolution.Mode, AUTO
TestParameter, Measurement.Adc.HighResolution.Coeff, 1
TestParameter, Measurement.Ag16440ASelector.SemiconductorRelay.Channel1, DEFAULT
TestParameter, Measurement.Ag16440ASelector.SemiconductorRelay.Channel3, DEFAULT
TestParameter, Function.User.Name, absID, absIG
TestParameter, Function.User.Unit, A, A
TestParameter, Function.User.Definition, abs(ID), abs(IG)
TestParameter, Output.Graph.Enabled, true
TestParameter, Output.Graph.XAxis.Data, VD
TestParameter, Output.Graph.XAxis.Scale, Linear
TestParameter, Output.Graph.XAxis.Left, 0
TestParameter, Output.Graph.XAxis.Right, 7
TestParameter, Output.Graph.YAxis.Data, ID
TestParameter, Output.Graph.YAxis.Scale, Linear
TestParameter, Output.Graph.YAxis.Bottom, 1E-14
TestParameter, Output.Graph.YAxis.Top, 0.01
TestParameter, Output.Graph.YAxis.Group, 
TestParameter, Output.List.Data, VG, IG, VD, ID, VS, IS, absIG
TestParameter, AutoAnalysis.Interpolation, false
TestParameter, AutoAnalysis.Line1.Enabled, false
TestParameter, AutoAnalysis.Line1.Type, 1
TestParameter, AutoAnalysis.Line1.Fix, True
TestParameter, AutoAnalysis.Line1.YAxis, 0
TestParameter, AutoAnalysis.Line1.Point1.Type, 0
TestParameter, AutoAnalysis.Line1.Point1.XY.X, 
TestParameter, AutoAnalysis.Line1.Point1.XY.Y, 
TestParameter, AutoAnalysis.Line1.Point1.Data.Var, 
TestParameter, AutoAnalysis.Line1.Point1.Data.Condition, 
TestParameter, AutoAnalysis.Line1.Point1.Data.Start, false
TestParameter, AutoAnalysis.Line1.Point1.Data.StartVar, 
TestParameter, AutoAnalysis.Line1.Point1.Data.StartCondition, 
TestParameter, AutoAnalysis.Line1.Point2.Type, 0
TestParameter, AutoAnalysis.Line1.Point2.XY.X, 
TestParameter, AutoAnalysis.Line1.Point2.XY.Y, 
TestParameter, AutoAnalysis.Line1.Point2.Data.Var, 
TestParameter, AutoAnalysis.Line1.Point2.Data.Condition, 
TestParameter, AutoAnalysis.Line1.Point2.Data.Start, false
TestParameter, AutoAnalysis.Line1.Point2.Data.StartVar, 
TestParameter, AutoAnalysis.Line1.Point2.Data.StartCondition, 
TestParameter, AutoAnalysis.Line1.GradientExpr, 0
TestParameter, AutoAnalysis.Line2.Enabled, false
TestParameter, AutoAnalysis.Line2.Type, 1
TestParameter, AutoAnalysis.Line2.Fix, True
TestParameter, AutoAnalysis.Line2.YAxis, 0
TestParameter, AutoAnalysis.Line2.Point1.Type, 0
TestParameter, AutoAnalysis.Line2.Point1.XY.X, 
TestParameter, AutoAnalysis.Line2.Point1.XY.Y, 
TestParameter, AutoAnalysis.Line2.Point1.Data.Var, 
TestParameter, AutoAnalysis.Line2.Point1.Data.Condition, 
TestParameter, AutoAnalysis.Line2.Point1.Data.Start, false
TestParameter, AutoAnalysis.Line2.Point1.Data.StartVar, 
TestParameter, AutoAnalysis.Line2.Point1.Data.StartCondition, 
TestParameter, AutoAnalysis.Line2.Point2.Type, 0
TestParameter, AutoAnalysis.Line2.Point2.XY.X, 
TestParameter, AutoAnalysis.Line2.Point2.XY.Y, 
TestParameter, AutoAnalysis.Line2.Point2.Data.Var, 
TestParameter, AutoAnalysis.Line2.Point2.Data.Condition, 
TestParameter, AutoAnalysis.Line2.Point2.Data.Start, false
TestParameter, AutoAnalysis.Line2.Point2.Data.StartVar, 
TestParameter, AutoAnalysis.Line2.Point2.Data.StartCondition, 
TestParameter, AutoAnalysis.Line2.GradientExpr, 0
TestParameter, AutoAnalysis.Marker.Enabled, false
TestParameter, AutoAnalysis.Marker.Data.Var, 
TestParameter, AutoAnalysis.Marker.Data.Condition, 
TestParameter, AutoAnalysis.Marker.Data.Start, false
TestParameter, AutoAnalysis.Marker.Data.StartVar, 
TestParameter, AutoAnalysis.Marker.Data.StartCondition, 
MetaData, TestRecord.EntryPoint, true
MetaData, TestRecord.RecordTime, 04/23/2019 16:32:07
MetaData, TestRecord.TestTarget, 42
MetaData, TestRecord.IterationIndex, 1
MetaData, TestRecord.Preservation, true
MetaData, TestRecord.Flag, 
MetaData, TestRecord.Remarks, 250-180-G42
MetaData, TestRecord.LinkKey, 796527ac-9ad2-4948-b2af-11e2e2bc4d85
Dimension1, 11, 11, 11, 11, 11, 11, 11, 11
Dimension2, 7, 7, 7, 7, 7, 7, 7, 7
DataName, VD, VG, VS, ID, IS, IG, absID, absIG
DataValue, 0, -1, 0, 4.75E-13, 2.327E-12, -2.8730000000000004E-12, 4.75E-13, 2.8730000000000004E-12
DataValue, 0.5, -1, 0, 4.8200000000000007E-13, 2.411E-12, -3.694E-12, 4.8200000000000007E-13, 3.694E-12
DataValue, 1, -1, 0, 5.4800000000000009E-13, 3.067E-12, -2.812E-12, 5.4800000000000009E-13, 2.812E-12
DataValue, 1.5, -1, 0, 8.3500000000000008E-13, 2.9720000000000003E-12, -2.9470000000000003E-12, 8.3500000000000008E-13, 2.9470000000000003E-12
DataValue, 2, -1, 0, 6.55E-13, 1.3400000000000002E-12, -3.4020000000000002E-12, 6.55E-13, 3.4020000000000002E-12
DataValue, 2.5, -1, 0, 3.39E-13, 2.6600000000000004E-12, -2.954E-12, 3.39E-13, 2.954E-12
DataValue, 3, -1, 0, 6.81E-13, 3.2570000000000004E-12, -4.386E-12, 6.81E-13, 4.386E-12
DataValue, 3.5, -1, 0, 9.52E-13, 2.1250000000000003E-12, -2.874E-12, 9.52E-13, 2.874E-12
DataValue, 4, -1, 0, 5.7200000000000009E-13, 2.594E-12, -3.5870000000000004E-12, 5.7200000000000009E-13, 3.5870000000000004E-12
DataValue, 4.5, -1, 0, 7.06E-13, 2.657E-12, -3.2620000000000004E-12, 7.06E-13, 3.2620000000000004E-12
DataValue, 5, -1, 0, 1.0040000000000002E-12, 2.165E-12, -3.3700000000000004E-12, 1.0040000000000002E-12, 3.3700000000000004E-12
DataValue, 0, 0, 0, 1.7156E-11, -1.675E-11, 3.63E-13, 1.7156E-11, 3.63E-13
DataValue, 0.5, 0, 0, 2.50495E-09, -2.56967E-09, -4.5000000000000004E-14, 2.50495E-09, 4.5000000000000004E-14
DataValue, 1, 0, 0, 2.6568E-09, -2.66288E-09, -2.2100000000000002E-13, 2.6568E-09, 2.2100000000000002E-13
DataValue, 1.5, 0, 0, 2.72036E-09, -2.72846E-09, -3.3000000000000005E-14, 2.72036E-09, 3.3000000000000005E-14
DataValue, 2, 0, 0, 2.77017E-09, -2.77223E-09, -6.54E-13, 2.77017E-09, 6.54E-13
DataValue, 2.5, 0, 0, 2.81256E-09, -2.81414E-09, -2.6600000000000003E-13, 2.81256E-09, 2.6600000000000003E-13
DataValue, 3, 0, 0, 2.84663E-09, -2.84739E-09, 1.0350000000000001E-12, 2.84663E-09, 1.0350000000000001E-12
DataValue, 3.5, 0, 0, 2.87796E-09, -2.87957E-09, -6.05E-13, 2.87796E-09, 6.05E-13
DataValue, 4, 0, 0, 2.90805E-09, -2.9083E-09, -5.5600000000000005E-13, 2.90805E-09, 5.5600000000000005E-13
DataValue, 4.5, 0, 0, 2.93446E-09, -2.93454E-09, -4.65E-13, 2.93446E-09, 4.65E-13
DataValue, 5, 0, 0, 2.96453E-09, -2.96472E-09, -9.29E-13, 2.96453E-09, 9.29E-13
DataValue, 0, 1, 0, 1.18451E-10, -1.1368100000000001E-10, 2.2870000000000003E-12, 1.18451E-10, 2.2870000000000003E-12
DataValue, 0.5, 1, 0, 3.00737E-07, -3.07844E-07, 9.32E-13, 3.00737E-07, 9.32E-13
DataValue, 1, 1, 0, 6.3038899999999994E-07, -6.356E-07, 1.304E-12, 6.3038899999999994E-07, 1.304E-12
DataValue, 1.5, 1, 0, 8.36391E-07, -8.41015E-07, 9.55E-13, 8.36391E-07, 9.55E-13
DataValue, 2, 1, 0, 9.57818E-07, -9.61831E-07, 8.6400000000000005E-13, 9.57818E-07, 8.6400000000000005E-13
DataValue, 2.5, 1, 0, 1.033793E-06, -1.037232E-06, -6.81E-13, 1.033793E-06, 6.81E-13
DataValue, 3, 1, 0, 1.0884789999999999E-06, -1.093426E-06, 1.69E-13, 1.0884789999999999E-06, 1.69E-13
DataValue, 3.5, 1, 0, 1.14447E-06, -1.1481100000000001E-06, 5.0100000000000009E-13, 1.14447E-06, 5.0100000000000009E-13
DataValue, 4, 1, 0, 1.18513E-06, -1.18935E-06, 3.06E-13, 1.18513E-06, 3.06E-13
DataValue, 4.5, 1, 0, 1.22759E-06, -1.23135E-06, 6.0200000000000006E-13, 1.22759E-06, 6.0200000000000006E-13
DataValue, 5, 1, 0, 1.2630800000000001E-06, -1.26627E-06, 9.4E-14, 1.2630800000000001E-06, 9.4E-14
DataValue, 0, 2, 0, 3.6942400000000004E-10, -3.50991E-10, 3.526E-12, 3.6942400000000004E-10, 3.526E-12
DataValue, 0.5, 2, 0, 6.8417299999999994E-07, -7.0513499999999994E-07, 1.964E-12, 6.8417299999999994E-07, 1.964E-12
DataValue, 1, 2, 0, 1.6308500000000002E-06, -1.6440600000000002E-06, 2.0320000000000002E-12, 1.6308500000000002E-06, 2.0320000000000002E-12
DataValue, 1.5, 2, 0, 2.40225E-06, -2.41343E-06, 2.0450000000000003E-12, 2.40225E-06, 2.0450000000000003E-12
DataValue, 2, 2, 0, 3.0071500000000005E-06, -3.01763E-06, 1.736E-12, 3.0071500000000005E-06, 1.736E-12
DataValue, 2.5, 2, 0, 3.45108E-06, -3.4629900000000003E-06, 1.291E-12, 3.45108E-06, 1.291E-12
DataValue, 3, 2, 0, 3.77041E-06, -3.7807800000000006E-06, 1.17E-12, 3.77041E-06, 1.17E-12
DataValue, 3.5, 2, 0, 4.00504E-06, -4.01507E-06, 9.2000000000000012E-13, 4.00504E-06, 9.2000000000000012E-13
DataValue, 4, 2, 0, 4.1925100000000008E-06, -4.1980800000000008E-06, 9.52E-13, 4.1925100000000008E-06, 9.52E-13
DataValue, 4.5, 2, 0, 4.33825E-06, -4.35163E-06, 9.61E-13, 4.33825E-06, 9.61E-13
DataValue, 5, 2, 0, 4.4934100000000007E-06, -4.50211E-06, 9.1800000000000013E-13, 4.4934100000000007E-06, 9.1800000000000013E-13
DataValue, 0, 3, 0, 7.8532600000000009E-10, -7.8407200000000008E-10, 2.9655E-11, 7.8532600000000009E-10, 2.9655E-11
DataValue, 0.5, 3, 0, 1.1156300000000002E-06, -1.13979E-06, 2.6391E-11, 1.1156300000000002E-06, 2.6391E-11
DataValue, 1, 3, 0, 2.6651400000000004E-06, -2.6798400000000004E-06, 2.6686E-11, 2.6651400000000004E-06, 2.6686E-11
DataValue, 1.5, 3, 0, 4.1494900000000008E-06, -4.1672000000000005E-06, 2.6335000000000002E-11, 4.1494900000000008E-06, 2.6335000000000002E-11
DataValue, 2, 3, 0, 5.4605500000000006E-06, -5.4796200000000006E-06, 3.0477E-11, 5.4605500000000006E-06, 3.0477E-11
DataValue, 2.5, 3, 0, 6.5596700000000005E-06, -6.5848600000000009E-06, 2.3728E-11, 6.5596700000000005E-06, 2.3728E-11
DataValue, 3, 3, 0, 7.463E-06, -7.4810100000000007E-06, 2.1770000000000003E-11, 7.463E-06, 2.1770000000000003E-11
DataValue, 3.5, 3, 0, 8.1632600000000008E-06, -8.1806100000000016E-06, 2.0986E-11, 8.1632600000000008E-06, 2.0986E-11
DataValue, 4, 3, 0, 8.7186500000000016E-06, -8.73064E-06, 2.1054000000000003E-11, 8.7186500000000016E-06, 2.1054000000000003E-11
DataValue, 4.5, 3, 0, 9.1503300000000015E-06, -9.16664E-06, 2.3502E-11, 9.1503300000000015E-06, 2.3502E-11
DataValue, 5, 3, 0, 9.5186600000000015E-06, -9.53436E-06, 2.2841E-11, 9.5186600000000015E-06, 2.2841E-11
DataValue, 0, 4, 0, 1.28996E-09, -1.4617E-09, 2.56936E-10, 1.28996E-09, 2.56936E-10
DataValue, 0.5, 4, 0, 1.6201600000000001E-06, -1.6388500000000002E-06, 1.2922600000000002E-10, 1.6201600000000001E-06, 1.2922600000000002E-10
DataValue, 1, 4, 0, 3.83761E-06, -3.8629700000000006E-06, 1.18382E-10, 3.83761E-06, 1.18382E-10
DataValue, 1.5, 4, 0, 6.0684400000000005E-06, -6.0955300000000007E-06, 1.28829E-10, 6.0684400000000005E-06, 1.28829E-10
DataValue, 2, 4, 0, 8.14202E-06, -8.1601900000000012E-06, 1.24518E-10, 8.14202E-06, 1.24518E-10
DataValue, 2.5, 4, 0, 9.95381E-06, -9.9884E-06, 1.0242800000000001E-10, 9.95381E-06, 1.0242800000000001E-10
DataValue, 3, 4, 0, 1.1630300000000001E-05, -1.16464E-05, 9.8607000000000009E-11, 1.1630300000000001E-05, 9.8607000000000009E-11
DataValue, 3.5, 4, 0, 1.29883E-05, -1.3001E-05, 9.8958000000000009E-11, 1.29883E-05, 9.8958000000000009E-11
DataValue, 4, 4, 0, 1.414E-05, -1.41546E-05, 8.4252000000000011E-11, 1.414E-05, 8.4252000000000011E-11
DataValue, 4.5, 4, 0, 1.5102200000000001E-05, -1.5123100000000001E-05, 8.631900000000001E-11, 1.5102200000000001E-05, 8.631900000000001E-11
DataValue, 5, 4, 0, 1.5883800000000002E-05, -1.5890100000000002E-05, 9.4524000000000009E-11, 1.5883800000000002E-05, 9.4524000000000009E-11
DataValue, 0, 5, 0, 1.74735E-09, -2.9253E-09, 1.21393E-09, 1.74735E-09, 1.21393E-09
DataValue, 0.5, 5, 0, 2.09466E-06, -2.13527E-06, 1.31997E-09, 2.09466E-06, 1.31997E-09
DataValue, 1, 5, 0, 4.99495E-06, -5.0331100000000008E-06, 1.07429E-09, 4.99495E-06, 1.07429E-09
DataValue, 1.5, 5, 0, 7.96948E-06, -8.0108500000000014E-06, 1.07163E-09, 7.96948E-06, 1.07163E-09
DataValue, 2, 5, 0, 1.08425E-05, -1.088893E-05, 9.40188E-10, 1.08425E-05, 9.40188E-10
DataValue, 2.5, 5, 0, 1.3584900000000001E-05, -1.36486E-05, 8.7906500000000011E-10, 1.3584900000000001E-05, 8.7906500000000011E-10
DataValue, 3, 5, 0, 1.6076E-05, -1.61137E-05, 9.9833700000000017E-10, 1.6076E-05, 9.9833700000000017E-10
DataValue, 3.5, 5, 0, 1.81962E-05, -1.8232400000000002E-05, 8.3766300000000011E-10, 1.81962E-05, 8.3766300000000011E-10
DataValue, 4, 5, 0, 2.0071300000000002E-05, -2.01029E-05, 8.6606000000000011E-10, 2.0071300000000002E-05, 8.6606000000000011E-10
DataValue, 4.5, 5, 0, 2.17151E-05, -2.17312E-05, 9.0759100000000008E-10, 2.17151E-05, 9.0759100000000008E-10
DataValue, 5, 5, 0, 2.3109200000000002E-05, -2.31333E-05, 8.61448E-10, 2.3109200000000002E-05, 8.61448E-10