
SetupTitle, Transfer sat
PrimitiveTest, I/V Sweep
TestParameter, Context.MainFrame, 4155C
TestParameter, Channel.UnitType, SMU, SMU, SMU
TestParameter, Channel.Unit, SMU1:MP, SMU4:MP, SMU3:MP
TestParameter, Channel.IName, ID, IS, IG
TestParameter, Channel.VName, VD, VS, VG
TestParameter, Channel.Mode, V, COMMON, V
TestParameter, Channel.Func, CONST, CONST, VAR1
TestParameter, Channel.Index, 
TestParameter, Channel.Time, 
TestParameter, Measurement.Port.Unit, SMU1:MP, SMU4:MP, SMU3:MP
TestParameter, Measurement.Port.SeriesResistor, NONE, NONE, NONE
TestParameter, Measurement.Port.Filter, ON, ON, ON
TestParameter, Measurement.Primary.Locus, Double
TestParameter, Measurement.Primary.Scale, LINEAR
TestParameter, Measurement.Primary.Start, -2
TestParameter, Measurement.Primary.Stop, 3
TestParameter, Measurement.Primary.Step, 0.05
TestParameter, Measurement.Primary.Compliance, 0.001
TestParameter, Measurement.Primary.PowerCompliance, 0
TestParameter, Measurement.Aborting.Condition, CONTINUE AT ANY
TestParameter, Measurement.PostOutput.Value, START
TestParameter, Measurement.PostOutput.Retention, OFF
TestParameter, Measurement.Bias.Source, 5, 0, -2
TestParameter, Measurement.Bias.Compliance, 0.001, 0.1, 0.001
TestParameter, Measurement.Monitor.Unit, SMU1:MP, SMU4:MP, SMU3:MP
TestParameter, Measurement.Monitor.Adc, HR ADC, HR ADC, HR ADC
TestParameter, Measurement.Monitor.RangingMode, AUTO, AUTO, AUTO
TestParameter, Measurement.Monitor.RangeBoundary, , , 
TestParameter, Measurement.Monitor.RangeRating, BY FULL RANGE, BY FULL RANGE, BY FULL RANGE
TestParameter, Measurement.Monitor.RangeRatingCoeff, 50, 50, 50
TestParameter, Measurement.Timing.Hold, 0.5
TestParameter, Measurement.Timing.Delay, 0.05
TestParameter, Measurement.Adc.HighResolution.AutoZero, OFF
TestParameter, Measurement.Adc.HighResolution.Mode, AUTO
TestParameter, Measurement.Adc.HighResolution.Coeff, 1
TestParameter, Measurement.Ag16440ASelector.SemiconductorRelay.Channel1, DEFAULT
TestParameter, Measurement.Ag16440ASelector.SemiconductorRelay.Channel3, DEFAULT
TestParameter, Function.User.Name, absID, sqrtID, gm2, absIG
TestParameter, Function.User.Unit, A, A, A/V, A
TestParameter, Function.User.Definition, abs(ID), sqrt(abs(ID)), (delta(sqrtID)/delta(VG))^2, abs(IG)
TestParameter, Output.Graph.Enabled, true
TestParameter, Output.Graph.XAxis.Data, VG
TestParameter, Output.Graph.XAxis.Scale, Linear
TestParameter, Output.Graph.XAxis.Left, -5
TestParameter, Output.Graph.XAxis.Right, 7
TestParameter, Output.Graph.YAxis.Data, ID, absIG, gm2
TestParameter, Output.Graph.YAxis.Scale, Log, Log, Linear
TestParameter, Output.Graph.YAxis.Bottom, 1E-14, 1E-14, 0
TestParameter, Output.Graph.YAxis.Top, 0.01, 0.01, 1E-05
TestParameter, Output.Graph.YAxis.Group, , , 
TestParameter, Output.List.Data, VG, IG, VD, ID, VS, IS, sqrtID, gm2, absIG
TestParameter, AutoAnalysis.Interpolation, false
TestParameter, AutoAnalysis.Line1.Enabled, false
TestParameter, AutoAnalysis.Line1.Type, 1
TestParameter, AutoAnalysis.Line1.Fix, True
TestParameter, AutoAnalysis.Line1.YAxis, 0
TestParameter, AutoAnalysis.Line1.Point1.Type, 0
TestParameter, AutoAnalysis.Line1.Point1.XY.X, 
TestParameter, AutoAnalysis.Line1.Point1.XY.Y, 
TestParameter, AutoAnalysis.Line1.Point1.Data.Var, 
TestParameter, AutoAnalysis.Line1.Point1.Data.Condition, 
TestParameter, AutoAnalysis.Line1.Point1.Data.Start, false
TestParameter, AutoAnalysis.Line1.Point1.Data.StartVar, 
TestParameter, AutoAnalysis.Line1.Point1.Data.StartCondition, 
TestParameter, AutoAnalysis.Line1.Point2.Type, 0
TestParameter, AutoAnalysis.Line1.Point2.XY.X, 
TestParameter, AutoAnalysis.Line1.Point2.XY.Y, 
TestParameter, AutoAnalysis.Line1.Point2.Data.Var, 
TestParameter, AutoAnalysis.Line1.Point2.Data.Condition, 
TestParameter, AutoAnalysis.Line1.Point2.Data.Start, false
TestParameter, AutoAnalysis.Line1.Point2.Data.StartVar, 
TestParameter, AutoAnalysis.Line1.Point2.Data.StartCondition, 
TestParameter, AutoAnalysis.Line1.GradientExpr, 0
TestParameter, AutoAnalysis.Line2.Enabled, false
TestParameter, AutoAnalysis.Line2.Type, 1
TestParameter, AutoAnalysis.Line2.Fix, True
TestParameter, AutoAnalysis.Line2.YAxis, 0
TestParameter, AutoAnalysis.Line2.Point1.Type, 0
TestParameter, AutoAnalysis.Line2.Point1.XY.X, 
TestParameter, AutoAnalysis.Line2.Point1.XY.Y, 
TestParameter, AutoAnalysis.Line2.Point1.Data.Var, 
TestParameter, AutoAnalysis.Line2.Point1.Data.Condition, 
TestParameter, AutoAnalysis.Line2.Point1.Data.Start, false
TestParameter, AutoAnalysis.Line2.Point1.Data.StartVar, 
TestParameter, AutoAnalysis.Line2.Point1.Data.StartCondition, 
TestParameter, AutoAnalysis.Line2.Point2.Type, 0
TestParameter, AutoAnalysis.Line2.Point2.XY.X, 
TestParameter, AutoAnalysis.Line2.Point2.XY.Y, 
TestParameter, AutoAnalysis.Line2.Point2.Data.Var, 
TestParameter, AutoAnalysis.Line2.Point2.Data.Condition, 
TestParameter, AutoAnalysis.Line2.Point2.Data.Start, false
TestParameter, AutoAnalysis.Line2.Point2.Data.StartVar, 
TestParameter, AutoAnalysis.Line2.Point2.Data.StartCondition, 
TestParameter, AutoAnalysis.Line2.GradientExpr, 0
TestParameter, AutoAnalysis.Marker.Enabled, false
TestParameter, AutoAnalysis.Marker.Data.Var, 
TestParameter, AutoAnalysis.Marker.Data.Condition, 
TestParameter, AutoAnalysis.Marker.Data.Start, false
TestParameter, AutoAnalysis.Marker.Data.StartVar, 
TestParameter, AutoAnalysis.Marker.Data.StartCondition, 
MetaData, TestRecord.EntryPoint, true
MetaData, TestRecord.RecordTime, 04/23/2019 15:18:21
MetaData, TestRecord.TestTarget, 47
MetaData, TestRecord.IterationIndex, 1
MetaData, TestRecord.Preservation, true
MetaData, TestRecord.Flag, 
MetaData, TestRecord.Remarks, 250-300-G47
MetaData, TestRecord.LinkKey, 3d0d80da-c7b5-4fc4-8914-0a449daa3414
Dimension1, 202, 202, 202, 202, 202, 202, 202, 202, 202, 202
Dimension2, 1, 1, 1, 1, 1, 1, 1, 1, 1, 1
DataName, VG, VD, VS, ID, IS, IG, absID, sqrtID, gm2, absIG
DataValue, -2, 5, 0, 5.117E-12, -8.5600000000000009E-13, -4.3980000000000004E-12, 5.117E-12, 2.2620786900547911E-06, 6.4718802976134945E-11, 4.3980000000000004E-12
DataValue, -1.9500000000000002, 5, 0, 3.459E-12, 4.071E-12, -5.269E-12, 3.459E-12, 1.8598387026836494E-06, 2.6003589007746354E-11, 5.269E-12
DataValue, -1.9000000000000001, 5, 0, 3.07E-12, -6.58E-13, -3.3790000000000004E-12, 3.07E-12, 1.7521415467935232E-06, 4.8675285806699763E-15, 3.3790000000000004E-12
DataValue, -1.85, 5, 0, 3.485E-12, -3.2400000000000003E-13, -3.1020000000000003E-12, 3.485E-12, 1.8668154702594469E-06, 1.7575786780339685E-12, 3.1020000000000003E-12
DataValue, -1.8, 5, 0, 2.623E-12, -1.87E-13, -1.7390000000000002E-12, 2.623E-12, 1.6195678435928518E-06, 7.23634036257285E-12, 1.7390000000000002E-12
DataValue, -1.75, 5, 0, 2.553E-12, 8.5800000000000008E-13, -4.735E-12, 2.553E-12, 1.5978110025907321E-06, 4.1013893611744707E-12, 4.735E-12
DataValue, -1.7000000000000002, 5, 0, 3.3200000000000004E-12, 9.0900000000000006E-13, -1.852E-12, 3.3200000000000004E-12, 1.82208671582886E-06, 1.2705003812752933E-11, 1.852E-12
DataValue, -1.6500000000000001, 5, 0, 1.5410000000000002E-12, 3.7320000000000007E-12, -2.4550000000000003E-12, 1.5410000000000002E-12, 1.2413702106946179E-06, 7.116796296855666E-12, 2.4550000000000003E-12
DataValue, -1.6, 5, 0, 2.419E-12, -1.759E-12, -2.092E-12, 2.419E-12, 1.555313473226539E-06, 1.64631833644713E-11, 2.092E-12
DataValue, -1.55, 5, 0, 2.7130000000000003E-12, 4.5200000000000004E-13, -2.28E-12, 2.7130000000000003E-12, 1.647118696390761E-06, 2.313528273784866E-12, 2.28E-12
DataValue, -1.5, 5, 0, 1.969E-12, -1.092E-12, -8.3800000000000006E-13, 1.969E-12, 1.4032106042928838E-06, 2.5441169367181785E-11, 8.3800000000000006E-13
DataValue, -1.4500000000000002, 5, 0, 4.6290000000000006E-12, 1.1440000000000002E-12, -1.575E-12, 4.6290000000000006E-12, 2.1515110968805158E-06, 4.9926506615693169E-12, 1.575E-12
DataValue, -1.4000000000000001, 5, 0, 2.6460000000000002E-12, -5.5400000000000006E-13, -5.443E-12, 2.6460000000000002E-12, 1.6266530054071151E-06, 1.5211788195363719E-10, 5.443E-12
DataValue, -1.35, 5, 0, 8.43E-13, -1.1710000000000002E-12, -2.115E-12, 8.43E-13, 9.1815031449104239E-07, 1.450544045102207E-11, 2.115E-12
DataValue, -1.3, 5, 0, 1.552E-12, 2.314E-12, -2.4120000000000002E-12, 1.552E-12, 1.2457929201917949E-06, 8.82222962432166E-11, 2.4120000000000002E-12
DataValue, -1.25, 5, 0, -3.4500000000000004E-12, -1.9105E-11, 9.77E-13, 3.4500000000000004E-12, 1.8574175621006711E-06, 1.56365839615326E-14, 9.77E-13
DataValue, -1.2, 5, 0, 1.521E-12, -5.5440000000000006E-12, -4.964E-12, 1.521E-12, 1.2332882874656679E-06, 2.6231702376270184E-15, 4.964E-12
DataValue, -1.1500000000000001, 5, 0, 3.4310000000000002E-12, 1.362E-12, -1.4400000000000001E-12, 3.4310000000000002E-12, 1.8522958726942086E-06, 1.0240000000000026E-10, 1.4400000000000001E-12
DataValue, -1.1, 5, 0, -4.9000000000000006E-14, -6.9510000000000006E-12, 6.05E-13, 4.9000000000000006E-14, 2.2135943621178657E-07, 1.8020214400369673E-10, 6.05E-13
DataValue, -1.05, 5, 0, -2.6E-13, -7.3800000000000009E-13, -3.5060000000000002E-12, 2.6E-13, 5.0990195135927852E-07, 3.2570161651400783E-10, 3.5060000000000002E-12
DataValue, -1, 5, 0, 4.105E-12, -2.6710000000000002E-12, -3.7690000000000006E-12, 4.105E-12, 2.0260799589354809E-06, 2.0912468824438463E-10, 3.7690000000000006E-12
DataValue, -0.95000000000000007, 5, 0, 3.826E-12, 8.673E-12, -2.566E-12, 3.826E-12, 1.9560163598497843E-06, 1.6292310818628754E-10, 2.566E-12
DataValue, -0.9, 5, 0, 5.62E-13, -3.0900000000000004E-12, -3.4520000000000002E-12, 5.62E-13, 7.496665925596525E-07, 4.308623150036548E-11, 3.4520000000000002E-12
DataValue, -0.85000000000000009, 5, 0, 1.6890000000000002E-12, 9.67E-13, -1.7470000000000001E-12, 1.6890000000000002E-12, 1.2996153277027784E-06, 6.8005610571445068E-12, 1.7470000000000001E-12
DataValue, -0.8, 5, 0, 1.021E-12, -6.6800000000000008E-13, -7.120000000000001E-13, 1.021E-12, 1.0104454463255302E-06, 2.4727361793801144E-12, 7.120000000000001E-13
DataValue, -0.75, 5, 0, -1.3050000000000002E-12, 2.5340000000000003E-12, -2.6720000000000003E-12, 1.3050000000000002E-12, 1.1423659658795863E-06, 2.2003745842861784E-11, 2.6720000000000003E-12
DataValue, -0.70000000000000007, 5, 0, 2.189E-12, -2.627E-12, -1.427E-12, 2.189E-12, 1.4795269514273811E-06, 2.4654810419468738E-11, 1.427E-12
DataValue, -0.65, 5, 0, 2.686E-12, -6.8450000000000008E-12, 1.69E-13, 2.686E-12, 1.6389020715100704E-06, 1.8061910853688545E-10, 1.69E-13
DataValue, -0.6, 5, 0, 7.972E-12, -6.103E-12, -1.007E-12, 7.972E-12, 2.8234730386529281E-06, 7.9108004605515771E-10, 1.007E-12
DataValue, -0.55, 5, 0, 1.9816E-11, -2.3493E-11, -4.2000000000000003E-13, 1.9816E-11, 4.4515165954986625E-06, 1.8950571092434027E-09, 4.2000000000000003E-13
DataValue, -0.5, 5, 0, 5.1505000000000007E-11, -4.6957000000000005E-11, -9.26E-13, 5.1505000000000007E-11, 7.1766984052557212E-06, 3.6323400322436788E-09, 9.26E-13
DataValue, -0.45, 5, 0, 1.0979700000000001E-10, -1.0880400000000001E-10, -1.18E-12, 1.0979700000000001E-10, 1.04784063673824E-05, 5.6989352365385548E-09, 1.18E-12
DataValue, -0.4, 5, 0, 2.1685E-10, -2.02492E-10, -3.3570000000000003E-12, 2.1685E-10, 1.472582765076381E-05, 7.7506674190231185E-09, 3.3570000000000003E-12
DataValue, -0.35000000000000003, 5, 0, 3.71803E-10, -3.40553E-10, -3.451E-12, 3.71803E-10, 1.9282193858583625E-05, 7.7249466486621711E-09, 3.451E-12
DataValue, -0.3, 5, 0, 5.5295500000000008E-10, -5.4832600000000008E-10, -4.68E-13, 5.5295500000000008E-10, 2.3514995215819205E-05, 8.6473794840164517E-09, 4.68E-13
DataValue, -0.25, 5, 0, 8.1689200000000008E-10, -7.3076100000000008E-10, -3.28E-12, 8.1689200000000008E-10, 2.8581322572617244E-05, 5.3941336349130584E-09, 3.28E-12
DataValue, -0.2, 5, 0, 9.52307E-10, -9.0742200000000007E-10, -2.285E-12, 9.52307E-10, 3.0859471803645635E-05, 1.2272782709377295E-09, 2.285E-12
DataValue, -0.15, 5, 0, 1.02942E-09, -1.01435E-09, 3.5900000000000004E-13, 1.02942E-09, 3.2084575733520306E-05, 1.3045248048927483E-09, 3.5900000000000004E-13
DataValue, -0.1, 5, 0, 1.18827E-09, -1.14826E-09, 5.4700000000000009E-13, 1.18827E-09, 3.4471292403970004E-05, 6.44270853377926E-10, 5.4700000000000009E-13
DataValue, -0.05, 5, 0, 1.19874E-09, -1.2305E-09, -1.4430000000000002E-12, 1.19874E-09, 3.4622824841425056E-05, 1.1582922664952625E-09, 1.4430000000000002E-12
DataValue, 0, 5, 0, 1.43449E-09, -1.39259E-09, -2.2500000000000003E-12, 1.43449E-09, 3.78746617146609E-05, 9.69468979675294E-10, 2.2500000000000003E-12
DataValue, 0.05, 5, 0, 1.42404E-09, -1.34742E-09, 3.9400000000000004E-13, 1.42404E-09, 3.773645452344457E-05, 2.5397532808318292E-13, 3.9400000000000004E-13
DataValue, 0.1, 5, 0, 1.43831E-09, -1.42031E-09, -5.34E-13, 1.43831E-09, 3.7925057679586991E-05, 1.4233487242772391E-12, 5.34E-13
DataValue, 0.15, 5, 0, 1.41505E-09, -1.28456E-09, -1.116E-12, 1.41505E-09, 3.76171503439588E-05, 4.3391660241966928E-10, 1.116E-12
DataValue, 0.2, 5, 0, 1.60065E-09, -1.60447E-09, -1.998E-12, 1.60065E-09, 4.0008124174972266E-05, 1.8339915067807502E-10, 1.998E-12
DataValue, 0.25, 5, 0, 1.51877E-09, -1.39835E-09, 9.5000000000000012E-14, 1.51877E-09, 3.8971399769574611E-05, 9.7923209968089831E-10, 9.5000000000000012E-14
DataValue, 0.3, 5, 0, 1.36005E-09, -1.49009E-09, 4.5200000000000004E-13, 1.36005E-09, 3.6878855730621578E-05, 3.1514193153819805E-11, 4.5200000000000004E-13
DataValue, 0.35000000000000003, 5, 0, 1.47533E-09, -1.45356E-09, -5.2000000000000006E-14, 1.47533E-09, 3.8410024733134445E-05, 1.4988951752812136E-10, 5.2000000000000006E-14
DataValue, 0.4, 5, 0, 1.45185E-09, -1.39369E-09, -2.8270000000000004E-12, 1.45185E-09, 3.8103149476125987E-05, 1.7880407947649122E-10, 2.8270000000000004E-12
DataValue, 0.45, 5, 0, 1.57984E-09, -1.37917E-09, -2.6050000000000003E-12, 1.57984E-09, 3.9747201159326932E-05, 1.2735359457360652E-09, 2.6050000000000003E-12
DataValue, 0.5, 5, 0, 1.73654E-09, -1.58986E-09, -2.24E-13, 1.73654E-09, 4.1671813015514457E-05, 2.1610585577064409E-10, 2.24E-13
DataValue, 0.55, 5, 0, 1.46514E-09, -1.47835E-09, -7.05E-13, 1.46514E-09, 3.8277147229123539E-05, 1.5111042012175817E-09, 7.05E-13
DataValue, 0.6, 5, 0, 1.42767E-09, -1.51561E-09, -8.5100000000000011E-13, 1.42767E-09, 3.7784520640071646E-05, 9.2788064069009175E-11, 8.5100000000000011E-13
DataValue, 0.65, 5, 0, 1.53981E-09, -1.44654E-09, 1.973E-12, 1.53981E-09, 3.9240412841864953E-05, 2.7253401712628452E-09, 1.973E-12
DataValue, 0.70000000000000007, 5, 0, 1.84943E-09, -1.90597E-09, 1.03E-13, 1.84943E-09, 4.3004999709336123E-05, 2.5432070860223487E-10, 1.03E-13
DataValue, 0.75, 5, 0, 1.66751E-09, -1.71711E-09, -3.421E-12, 1.66751E-09, 4.0835156421887254E-05, 4.765791693991011E-10, 3.421E-12
DataValue, 0.8, 5, 0, 1.66643E-09, -1.46645E-09, -6.13E-13, 1.66643E-09, 4.0821930380617723E-05, 2.1233142895377981E-10, 6.13E-13
DataValue, 0.85000000000000009, 5, 0, 1.78864E-09, -1.72476E-09, 9.4E-13, 1.78864E-09, 4.2292316086967853E-05, 3.1058388055068168E-10, 9.4E-13
DataValue, 0.9, 5, 0, 1.81342E-09, -1.73372E-09, -1.182E-12, 1.81342E-09, 4.2584269396104475E-05, 7.896554407755763E-12, 1.182E-12
DataValue, 0.95000000000000007, 5, 0, 1.76495E-09, -1.81265E-09, -4.2580000000000006E-12, 1.76495E-09, 4.2011308001536922E-05, 9.7684785019392573E-11, 4.2580000000000006E-12
DataValue, 1, 5, 0, 1.73022E-09, -1.63872E-09, 1.3440000000000001E-12, 1.73022E-09, 4.1595913260800037E-05, 8.2932400832533924E-13, 1.3440000000000001E-12
DataValue, 1.05, 5, 0, 1.77261E-09, -1.595E-09, -3.9100000000000005E-13, 1.77261E-09, 4.2102375229908347E-05, 7.2579681728121869E-11, 3.9100000000000005E-13
DataValue, 1.1, 5, 0, 1.80182E-09, -1.64899E-09, -4.6200000000000005E-13, 1.80182E-09, 4.2447850357821419E-05, 1.366156477647323E-11, 4.6200000000000005E-13
DataValue, 1.1500000000000001, 5, 0, 1.80387E-09, -1.75178E-09, -2.05E-13, 1.80387E-09, 4.24719907703889E-05, 5.1173515145452084E-10, 2.05E-13
DataValue, 1.2, 5, 0, 1.61489E-09, -1.57914E-09, 1.1290000000000001E-12, 1.61489E-09, 4.0185693971860184E-05, 4.7944614048279793E-10, 1.1290000000000001E-12
DataValue, 1.25, 5, 0, 1.99466E-09, -1.96576E-09, 2.7800000000000003E-13, 1.99466E-09, 4.4661616629942987E-05, 5.1210826402941908E-10, 2.7800000000000003E-13
DataValue, 1.3, 5, 0, 1.80189E-09, -1.78104E-09, -2.042E-12, 1.80189E-09, 4.2448674890978637E-05, 1.2540843561218525E-09, 2.042E-12
DataValue, 1.35, 5, 0, 1.69088E-09, -1.80953E-09, 5.8E-14, 1.69088E-09, 4.1120311282868472E-05, 3.2973548472838769E-11, 5.8E-14
DataValue, 1.4000000000000001, 5, 0, 1.85097E-09, -1.68278E-09, -1.2590000000000002E-12, 1.85097E-09, 4.3022900878485636E-05, 9.2028745071618047E-10, 1.2590000000000002E-12
DataValue, 1.4500000000000002, 5, 0, 1.94957E-09, -2.0148E-09, 4.09E-13, 1.94957E-09, 4.4153935271955093E-05, 3.8067558720654959E-11, 4.09E-13
DataValue, 1.5, 5, 0, 1.90444E-09, -1.94828E-09, -2.974E-12, 1.90444E-09, 4.3639890009027292E-05, 3.8635179944087085E-10, 2.974E-12
DataValue, 1.55, 5, 0, 2.12701E-09, -1.91194E-09, -4.5000000000000004E-14, 2.12701E-09, 4.611951864449585E-05, 8.278919226943753E-10, 4.5000000000000004E-14
DataValue, 1.6, 5, 0, 2.16385E-09, -2.02564E-09, -2.72E-13, 2.16385E-09, 4.6517201119585858E-05, 4.3089148049670011E-12, 2.72E-13
DataValue, 1.6500000000000001, 5, 0, 2.1462E-09, -2.12274E-09, 4.0000000000000006E-14, 2.1462E-09, 4.6327097901768031E-05, 2.4537665160422529E-10, 4.0000000000000006E-14
DataValue, 1.7000000000000002, 5, 0, 2.02057E-09, -2.12866E-09, 6.8E-14, 2.02057E-09, 4.4950750827989519E-05, 8.8990338646580414E-10, 6.8E-14
DataValue, 1.75, 5, 0, 1.8787E-09, -1.96384E-09, -2.0300000000000002E-13, 1.8787E-09, 4.3343973052778633E-05, 5.7592370788870411E-11, 2.0300000000000002E-13
DataValue, 1.8, 5, 0, 1.95292E-09, -2.12504E-09, -1.9910000000000003E-12, 1.95292E-09, 4.4191854453055034E-05, 1.2363976202151779E-09, 1.9910000000000003E-12
DataValue, 1.85, 5, 0, 2.19588E-09, -2.06319E-09, 1.1100000000000001E-13, 2.19588E-09, 4.6860217669148746E-05, 3.2992762425755232E-13, 1.1100000000000001E-13
DataValue, 1.9000000000000001, 5, 0, 1.958E-09, -1.86775E-09, 2.0000000000000003E-14, 1.958E-09, 4.4249293779675177E-05, 5.0020376653205317E-10, 2.0000000000000003E-14
DataValue, 1.9500000000000002, 5, 0, 2.41049E-09, -2.29828E-09, -4.5000000000000004E-14, 2.41049E-09, 4.909674123605354E-05, 9.0594684760976511E-11, 4.5000000000000004E-14
DataValue, 2, 5, 0, 2.04314E-09, -2.11636E-09, -4.8020000000000007E-12, 2.04314E-09, 4.5201106181154462E-05, 2.9141218406688681E-10, 4.8020000000000007E-12
DataValue, 2.05, 5, 0, 2.24578E-09, -2.23241E-09, -2.5E-14, 2.24578E-09, 4.7389661319743572E-05, 4.544901175695979E-13, 2.5E-14
DataValue, 2.1, 5, 0, 2.03705E-09, -2.19397E-09, 3.0200000000000003E-13, 2.03705E-09, 4.5133690298933015E-05, 2.8872157676292227E-10, 3.0200000000000003E-13
DataValue, 2.15, 5, 0, 2.08762E-09, -2.23657E-09, 1.2100000000000002E-13, 2.08762E-09, 4.5690480408942951E-05, 8.5320428589082862E-10, 1.2100000000000002E-13
DataValue, 2.2, 5, 0, 2.30925E-09, -2.34971E-09, -3.5E-14, 2.30925E-09, 4.805465638208227E-05, 5.6059236606501934E-11, 3.5E-14
DataValue, 2.25, 5, 0, 2.1566E-09, -2.297E-09, 1.63E-13, 2.1566E-09, 4.6439207572911923E-05, 1.4571815985793795E-10, 1.63E-13
DataValue, 2.3000000000000003, 5, 0, 2.19469E-09, -2.15038E-09, 6.2E-14, 2.19469E-09, 4.6847518610914711E-05, 7.5207285717681364E-10, 6.2E-14
DataValue, 2.35, 5, 0, 2.41883E-09, -2.13873E-09, -4.783E-12, 2.41883E-09, 4.9181602251248386E-05, 2.2589266258831955E-10, 4.783E-12
DataValue, 2.4, 5, 0, 2.33777E-09, -2.24969E-09, -1.3900000000000001E-13, 2.33777E-09, 4.8350491207432419E-05, 4.1581675109506472E-10, 1.3900000000000001E-13
DataValue, 2.45, 5, 0, 2.22241E-09, -2.24395E-09, 1.7900000000000002E-13, 2.22241E-09, 4.7142443721130961E-05, 2.9977335186072105E-10, 1.7900000000000002E-13
DataValue, 2.5, 5, 0, 2.17334E-09, -2.10942E-09, 1.3300000000000001E-13, 2.17334E-09, 4.6619094800306882E-05, 3.7730876097610861E-10, 1.3300000000000001E-13
DataValue, 2.5500000000000003, 5, 0, 2.04304E-09, -2.00219E-09, -3.665E-12, 2.04304E-09, 4.52E-05, 6.1857530888274818E-11, 3.665E-12
