
SetupTitle, Transfer lin
PrimitiveTest, I/V Sweep
TestParameter, Context.MainFrame, 4155C
TestParameter, Channel.UnitType, SMU, SMU, SMU
TestParameter, Channel.Unit, SMU3:MP, SMU4:MP, SMU1:MP
TestParameter, Channel.IName, ID, IS, IG
TestParameter, Channel.VName, VD, VS, VG
TestParameter, Channel.Mode, V, COMMON, V
TestParameter, Channel.Func, CONST, CONST, VAR1
TestParameter, Channel.Index, 
TestParameter, Channel.Time, 
TestParameter, Measurement.Port.Unit, SMU3:MP, SMU4:MP, SMU1:MP
TestParameter, Measurement.Port.SeriesResistor, NONE, NONE, NONE
TestParameter, Measurement.Port.Filter, ON, ON, ON
TestParameter, Measurement.Primary.Locus, Double
TestParameter, Measurement.Primary.Scale, LINEAR
TestParameter, Measurement.Primary.Start, -2
TestParameter, Measurement.Primary.Stop, 3
TestParameter, Measurement.Primary.Step, 0.05
TestParameter, Measurement.Primary.Compliance, 0.001
TestParameter, Measurement.Primary.PowerCompliance, 0
TestParameter, Measurement.Aborting.Condition, CONTINUE AT ANY
TestParameter, Measurement.PostOutput.Value, START
TestParameter, Measurement.PostOutput.Retention, OFF
TestParameter, Measurement.Bias.Source, 0.1, 0, -2
TestParameter, Measurement.Bias.Compliance, 0.001, 0.1, 0.001
TestParameter, Measurement.Monitor.Unit, SMU3:MP, SMU4:MP, SMU1:MP
TestParameter, Measurement.Monitor.Adc, HR ADC, HR ADC, HR ADC
TestParameter, Measurement.Monitor.RangingMode, AUTO, AUTO, AUTO
TestParameter, Measurement.Monitor.RangeBoundary, , , 
TestParameter, Measurement.Monitor.RangeRating, BY FULL RANGE, BY FULL RANGE, BY FULL RANGE
TestParameter, Measurement.Monitor.RangeRatingCoeff, 50, 50, 50
TestParameter, Measurement.Timing.Hold, 0.5
TestParameter, Measurement.Timing.Delay, 0.05
TestParameter, Measurement.Adc.HighResolution.AutoZero, OFF
TestParameter, Measurement.Adc.HighResolution.Mode, AUTO
TestParameter, Measurement.Adc.HighResolution.Coeff, 1
TestParameter, Measurement.Ag16440ASelector.SemiconductorRelay.Channel1, DEFAULT
TestParameter, Measurement.Ag16440ASelector.SemiconductorRelay.Channel3, DEFAULT
TestParameter, Function.User.Name, absID, sqrtID, gm2, absIG
TestParameter, Function.User.Unit, A, A, A/V, A
TestParameter, Function.User.Definition, abs(ID), sqrt(abs(ID)), (delta(sqrtID)/delta(VG))^2, abs(IG)
TestParameter, Output.Graph.Enabled, true
TestParameter, Output.Graph.XAxis.Data, VG
TestParameter, Output.Graph.XAxis.Scale, Linear
TestParameter, Output.Graph.XAxis.Left, -5
TestParameter, Output.Graph.XAxis.Right, 7
TestParameter, Output.Graph.YAxis.Data, ID, absIG, gm2
TestParameter, Output.Graph.YAxis.Scale, Log, Log, Linear
TestParameter, Output.Graph.YAxis.Bottom, 1E-14, 1E-14, 0
TestParameter, Output.Graph.YAxis.Top, 0.01, 0.01, 1E-05
TestParameter, Output.Graph.YAxis.Group, , , 
TestParameter, Output.List.Data, VG, IG, VD, ID, VS, IS, sqrtID, gm2, absIG
TestParameter, AutoAnalysis.Interpolation, false
TestParameter, AutoAnalysis.Line1.Enabled, false
TestParameter, AutoAnalysis.Line1.Type, 1
TestParameter, AutoAnalysis.Line1.Fix, True
TestParameter, AutoAnalysis.Line1.YAxis, 0
TestParameter, AutoAnalysis.Line1.Point1.Type, 0
TestParameter, AutoAnalysis.Line1.Point1.XY.X, 
TestParameter, AutoAnalysis.Line1.Point1.XY.Y, 
TestParameter, AutoAnalysis.Line1.Point1.Data.Var, 
TestParameter, AutoAnalysis.Line1.Point1.Data.Condition, 
TestParameter, AutoAnalysis.Line1.Point1.Data.Start, false
TestParameter, AutoAnalysis.Line1.Point1.Data.StartVar, 
TestParameter, AutoAnalysis.Line1.Point1.Data.StartCondition, 
TestParameter, AutoAnalysis.Line1.Point2.Type, 0
TestParameter, AutoAnalysis.Line1.Point2.XY.X, 
TestParameter, AutoAnalysis.Line1.Point2.XY.Y, 
TestParameter, AutoAnalysis.Line1.Point2.Data.Var, 
TestParameter, AutoAnalysis.Line1.Point2.Data.Condition, 
TestParameter, AutoAnalysis.Line1.Point2.Data.Start, false
TestParameter, AutoAnalysis.Line1.Point2.Data.StartVar, 
TestParameter, AutoAnalysis.Line1.Point2.Data.StartCondition, 
TestParameter, AutoAnalysis.Line1.GradientExpr, 0
TestParameter, AutoAnalysis.Line2.Enabled, false
TestParameter, AutoAnalysis.Line2.Type, 1
TestParameter, AutoAnalysis.Line2.Fix, True
TestParameter, AutoAnalysis.Line2.YAxis, 0
TestParameter, AutoAnalysis.Line2.Point1.Type, 0
TestParameter, AutoAnalysis.Line2.Point1.XY.X, 
TestParameter, AutoAnalysis.Line2.Point1.XY.Y, 
TestParameter, AutoAnalysis.Line2.Point1.Data.Var, 
TestParameter, AutoAnalysis.Line2.Point1.Data.Condition, 
TestParameter, AutoAnalysis.Line2.Point1.Data.Start, false
TestParameter, AutoAnalysis.Line2.Point1.Data.StartVar, 
TestParameter, AutoAnalysis.Line2.Point1.Data.StartCondition, 
TestParameter, AutoAnalysis.Line2.Point2.Type, 0
TestParameter, AutoAnalysis.Line2.Point2.XY.X, 
TestParameter, AutoAnalysis.Line2.Point2.XY.Y, 
TestParameter, AutoAnalysis.Line2.Point2.Data.Var, 
TestParameter, AutoAnalysis.Line2.Point2.Data.Condition, 
TestParameter, AutoAnalysis.Line2.Point2.Data.Start, false
TestParameter, AutoAnalysis.Line2.Point2.Data.StartVar, 
TestParameter, AutoAnalysis.Line2.Point2.Data.StartCondition, 
TestParameter, AutoAnalysis.Line2.GradientExpr, 0
TestParameter, AutoAnalysis.Marker.Enabled, false
TestParameter, AutoAnalysis.Marker.Data.Var, 
TestParameter, AutoAnalysis.Marker.Data.Condition, 
TestParameter, AutoAnalysis.Marker.Data.Start, false
TestParameter, AutoAnalysis.Marker.Data.StartVar, 
TestParameter, AutoAnalysis.Marker.Data.StartCondition, 
MetaData, TestRecord.EntryPoint, true
MetaData, TestRecord.RecordTime, 05/27/2019 10:51:33
MetaData, TestRecord.TestTarget, 350-180-G21
MetaData, TestRecord.IterationIndex, 1
MetaData, TestRecord.Preservation, true
MetaData, TestRecord.Flag, 
MetaData, TestRecord.Remarks, MEH
MetaData, TestRecord.LinkKey, bca40356-ea6e-4167-b6fa-fbb4a20dd699
Dimension1, 202, 202, 202, 202, 202, 202, 202, 202, 202, 202
Dimension2, 1, 1, 1, 1, 1, 1, 1, 1, 1, 1
DataName, VG, VD, VS, ID, IS, IG, absID, sqrtID, gm2, absIG
DataValue, -2, 0.1, 0, 1.32566E-10, 6.2400000000000009E-12, -1.2875300000000002E-10, 1.32566E-10, 1.1513730933107653E-05, 2.966149319728875E-10, 1.2875300000000002E-10
DataValue, -1.9500000000000002, 0.1, 0, 1.1347800000000001E-10, 4.317E-12, -1.16951E-10, 1.1347800000000001E-10, 1.0652605315133008E-05, 1.6166246669342277E-10, 1.16951E-10
DataValue, -1.9000000000000001, 0.1, 0, 1.04904E-10, 3.4980000000000002E-12, -1.07791E-10, 1.04904E-10, 1.0242265374417908E-05, 5.5967064527614963E-11, 1.07791E-10
DataValue, -1.85, 0.1, 0, 9.8099000000000007E-11, 2.09E-12, -9.9627000000000009E-11, 9.8099000000000007E-11, 9.9044939295251224E-06, 5.9182841712516152E-11, 9.9627000000000009E-11
DataValue, -1.8, 0.1, 0, 8.9737E-11, 3.338E-12, -9.2867000000000011E-11, 8.9737E-11, 9.4729615221429035E-06, 3.7292857454631127E-11, 9.2867000000000011E-11
DataValue, -1.75, 0.1, 0, 8.6375000000000012E-11, 2.47E-12, -8.6845000000000011E-11, 8.6375000000000012E-11, 9.2938151477205538E-06, 3.7514093054107815E-11, 8.6845000000000011E-11
DataValue, -1.7000000000000002, 0.1, 0, 7.8508E-11, 1.954E-12, -8.1148000000000008E-11, 7.8508E-11, 8.8604740279513265E-06, 9.9823687096202811E-11, 8.1148000000000008E-11
DataValue, -1.6500000000000001, 0.1, 0, 6.8802E-11, 1.437E-12, -7.5347E-11, 6.8802E-11, 8.2946971011604763E-06, 3.658675605704153E-11, 7.5347E-11
DataValue, -1.6, 0.1, 0, 6.8155000000000009E-11, 3.4580000000000004E-12, -7.0921000000000008E-11, 6.8155000000000009E-11, 8.2556041571771111E-06, 1.120053312332576E-11, 7.0921000000000008E-11
DataValue, -1.55, 0.1, 0, 6.3362E-11, -1.892E-12, -6.3783000000000011E-11, 6.3362E-11, 7.9600251255884876E-06, 5.6370918743219727E-11, 6.3783000000000011E-11
DataValue, -1.5, 0.1, 0, 5.6322000000000003E-11, 2.169E-12, -6.097300000000001E-11, 5.6322000000000003E-11, 7.5047984649822542E-06, 7.4559195750683589E-11, 6.097300000000001E-11
DataValue, -1.4500000000000002, 0.1, 0, 5.0361E-11, -1.4900000000000001E-12, -5.4217E-11, 5.0361E-11, 7.0965484568204E-06, 2.6835015649338548E-11, 5.4217E-11
DataValue, -1.4000000000000001, 0.1, 0, 4.8815E-11, 4.0820000000000006E-12, -5.1908000000000007E-11, 4.8815E-11, 6.9867732180170269E-06, 1.1047523163296159E-11, 5.1908000000000007E-11
DataValue, -1.35, 0.1, 0, 4.5754000000000006E-11, -1.6E-12, -4.5284000000000006E-11, 4.5754000000000006E-11, 6.76417031127987E-06, 4.0023426092396677E-11, 4.5284000000000006E-11
DataValue, -1.3, 0.1, 0, 4.0375E-11, 5.2100000000000006E-12, -4.2459000000000006E-11, 4.0375E-11, 6.3541325135694174E-06, 7.3614188195473421E-11, 4.2459000000000006E-11
DataValue, -1.25, 0.1, 0, 3.4883E-11, -1.2480000000000001E-12, -3.6933E-11, 3.4883E-11, 5.9061832006804533E-06, 8.4365928685441835E-11, 3.6933E-11
DataValue, -1.2, 0.1, 0, 2.9546E-11, 1.4470000000000002E-12, -3.3784E-11, 2.9546E-11, 5.4356232393351178E-06, 2.0381656165047181E-11, 3.3784E-11
DataValue, -1.1500000000000001, 0.1, 0, 2.9754E-11, 1.91E-12, -3.0662000000000005E-11, 2.9754E-11, 5.4547227243921393E-06, 6.9590701286055224E-11, 3.0662000000000005E-11
DataValue, -1.1, 0.1, 0, 2.1173000000000003E-11, -2.357E-12, -2.6948000000000004E-11, 2.1173000000000003E-11, 4.6014128265131786E-06, 6.0640508462640326E-11, 2.6948000000000004E-11
DataValue, -1.05, 0.1, 0, 2.1865E-11, -1.0453000000000002E-11, -1.8554000000000002E-11, 2.1865E-11, 4.6760025662952757E-06, 1.7103579477900454E-11, 1.8554000000000002E-11
DataValue, -1, 0.1, 0, 2.5150000000000002E-11, 4.746E-12, -4.0155E-11, 2.5150000000000002E-11, 5.0149775672479332E-06, 4.715669483351837E-12, 4.0155E-11
DataValue, -0.95000000000000007, 0.1, 0, 2.3943000000000003E-11, 1.5761E-11, -2.9605000000000004E-11, 2.3943000000000003E-11, 4.8931584891560587E-06, 1.7054650854296063E-10, 2.9605000000000004E-11
DataValue, -0.9, 0.1, 0, 1.3757000000000001E-11, 2.81E-13, -1.9510000000000002E-11, 1.3757000000000001E-11, 3.7090430032556919E-06, 3.6335480346938659E-10, 1.9510000000000002E-11
DataValue, -0.85000000000000009, 0.1, 0, 8.922000000000001E-12, -1.8100000000000002E-12, -1.0898000000000001E-11, 8.922000000000001E-12, 2.9869717106126064E-06, 1.2182951953963381E-14, 1.0898000000000001E-11
DataValue, -0.8, 0.1, 0, 1.3839E-11, -5.7050000000000004E-12, -3.847E-12, 1.3839E-11, 3.7200806442871639E-06, 2.7547675665568329E-11, 3.847E-12
DataValue, -0.75, 0.1, 0, 6.0620000000000006E-12, 2.0360000000000002E-12, -2.0370000000000003E-12, 6.0620000000000006E-12, 2.4621129137389294E-06, 2.8421683854758413E-10, 2.0370000000000003E-12
DataValue, -0.70000000000000007, 0.1, 0, 4.138E-12, 5.827E-12, -3.0140000000000003E-12, 4.138E-12, 2.0342074623793908E-06, 2.2293260798751147E-10, 3.0140000000000003E-12
DataValue, -0.65, 0.1, 0, 9.3900000000000014E-13, 1.7600000000000002E-12, -2.034E-12, 9.3900000000000014E-13, 9.6902012363005148E-07, 7.89384756229561E-12, 2.034E-12
DataValue, -0.6, 0.1, 0, -5.3600000000000006E-12, 1.4610000000000001E-12, 3.7200000000000003E-13, 5.3600000000000006E-12, 2.3151673805580453E-06, 4.0363039555983684E-12, 3.7200000000000003E-13
DataValue, -0.55, 0.1, 0, -5.9E-13, -8E-13, 1.441E-12, 5.9E-13, 7.6811457478686082E-07, 6.5557174118668138E-12, 1.441E-12
DataValue, -0.5, 0.1, 0, -4.2400000000000005E-12, -5.4000000000000003E-14, 3.4040000000000004E-12, 4.2400000000000005E-12, 2.0591260281974E-06, 1.8101368984818584E-10, 3.4040000000000004E-12
DataValue, -0.45, 0.1, 0, -4.467E-12, -1.195E-12, 4.1980000000000005E-12, 4.467E-12, 2.1135278564523347E-06, 4.255359222357237E-11, 4.1980000000000005E-12
DataValue, -0.4, 0.1, 0, -7.352E-12, -2.043E-12, 7.015E-12, 7.352E-12, 2.7114571728131722E-06, 3.3702634354996443E-11, 7.015E-12
DataValue, -0.35000000000000003, 0.1, 0, -7.2580000000000008E-12, -1.0810000000000001E-12, 7.186E-12, 7.2580000000000008E-12, 2.6940675566882136E-06, 6.4243234441556011E-11, 7.186E-12
DataValue, -0.3, 0.1, 0, -1.2341000000000002E-11, -2.3120000000000002E-12, 9.066E-12, 1.2341000000000002E-11, 3.5129759464021385E-06, 6.724768214248387E-11, 9.066E-12
DataValue, -0.25, 0.1, 0, -1.2349E-11, -2.105E-12, 1.0504000000000001E-11, 1.2349E-11, 3.5141143976825798E-06, 2.74046372170786E-11, 1.0504000000000001E-11
DataValue, -0.2, 0.1, 0, -8.937E-12, -3.146E-12, 1.0488000000000001E-11, 8.937E-12, 2.989481560404747E-06, 5.2229382451533852E-11, 1.0488000000000001E-11
DataValue, -0.15, 0.1, 0, -7.792E-12, -4.993E-12, 1.1877E-11, 7.792E-12, 2.7914154115788642E-06, 5.7744024625034795E-12, 1.1877E-11
DataValue, -0.1, 0.1, 0, -7.558E-12, -6.363E-12, 1.2517000000000001E-11, 7.558E-12, 2.7491816964325949E-06, 4.78572466856354E-13, 1.2517000000000001E-11
DataValue, -0.05, 0.1, 0, -8.183000000000001E-12, -7.3700000000000011E-12, 1.2970000000000002E-11, 8.183000000000001E-12, 2.8605943438383573E-06, 2.8163580512990949E-10, 1.2970000000000002E-11
DataValue, 0, 0.1, 0, -1.147E-12, -1.1148E-11, 1.4116000000000002E-11, 1.147E-12, 1.0709808588392231E-06, 2.2055054800196991E-10, 1.4116000000000002E-11
DataValue, 0.05, 0.1, 0, 1.892E-12, -1.53E-11, 1.3580000000000002E-11, 1.892E-12, 1.3754999091239518E-06, 3.1147349415752349E-10, 1.3580000000000002E-11
DataValue, 0.1, 0.1, 0, 8.042E-12, -2.2084000000000002E-11, 1.4787E-11, 8.042E-12, 2.8358420266298332E-06, 8.1428399529660992E-10, 1.4787E-11
DataValue, 0.15, 0.1, 0, 1.7885E-11, -3.2307E-11, 1.5081E-11, 1.7885E-11, 4.2290660907581007E-06, 7.3297548436671294E-10, 1.5081E-11
DataValue, 0.2, 0.1, 0, 3.0727E-11, -4.5359000000000003E-11, 1.5405E-11, 3.0727E-11, 5.543194025108629E-06, 9.57482309282309E-10, 1.5405E-11
DataValue, 0.25, 0.1, 0, 5.3632000000000004E-11, -6.3869E-11, 1.6292E-11, 5.3632000000000004E-11, 7.323387194461317E-06, 1.0594204395379174E-09, 1.6292E-11
DataValue, 0.3, 0.1, 0, 7.7406000000000012E-11, -8.9001000000000011E-11, 1.6707E-11, 7.7406000000000012E-11, 8.7980679697306276E-06, 1.0449131440454285E-09, 1.6707E-11
DataValue, 0.35000000000000003, 0.1, 0, 1.1142700000000001E-10, -1.23828E-10, 1.684E-11, 1.1142700000000001E-10, 1.0555898824827756E-05, 1.4299282232923391E-09, 1.684E-11
DataValue, 0.4, 0.1, 0, 1.5824400000000002E-10, -1.68032E-10, 1.6968000000000003E-11, 1.5824400000000002E-10, 1.2579507144558566E-05, 1.7902683845429347E-09, 1.6968000000000003E-11
DataValue, 0.45, 0.1, 0, 2.1865700000000002E-10, -2.2788700000000003E-10, 1.7091E-11, 2.1865700000000002E-10, 1.4787055149690894E-05, 2.1371523785139891E-09, 1.7091E-11
DataValue, 0.5, 0.1, 0, 2.9592400000000003E-10, -3.0411600000000005E-10, 1.7838000000000002E-11, 2.9592400000000003E-10, 1.7202441687155928E-05, 2.5353290041796264E-09, 1.7838000000000002E-11
DataValue, 0.55, 0.1, 0, 3.9292200000000004E-10, -3.9980300000000003E-10, 1.7833E-11, 3.9292200000000004E-10, 1.9822260214213716E-05, 3.1435835962644639E-09, 1.7833E-11
DataValue, 0.6, 0.1, 0, 5.2026E-10, -5.22041E-10, 1.8747E-11, 5.2026E-10, 2.2809208666676712E-05, 3.834211732118612E-09, 1.8747E-11
DataValue, 0.65, 0.1, 0, 6.76747E-10, -6.72081E-10, 1.8604E-11, 6.76747E-10, 2.60143614182628E-05, 4.3326274273909165E-09, 1.8604E-11
DataValue, 0.70000000000000007, 0.1, 0, 8.63859E-10, -8.5718300000000006E-10, 1.8858000000000002E-11, 8.63859E-10, 2.9391478356829893E-05, 3.9993050464659788E-09, 1.8858000000000002E-11
DataValue, 0.75, 0.1, 0, 1.04577E-09, -1.02532E-09, 1.715E-11, 1.04577E-09, 3.2338367305725251E-05, 5.5689772755735893E-09, 1.715E-11
DataValue, 0.8, 0.1, 0, 1.35822E-09, -1.35392E-09, 1.8911E-11, 1.35822E-09, 3.6854036413939792E-05, 8.7525700917904882E-09, 1.8911E-11
DataValue, 0.85000000000000009, 0.1, 0, 1.73838E-09, -1.73805E-09, 1.9377000000000002E-11, 1.73838E-09, 4.1693884443644728E-05, 1.0310253067307067E-08, 1.9377000000000002E-11
DataValue, 0.9, 0.1, 0, 2.20975E-09, -2.19804E-09, 2.0183E-11, 2.20975E-09, 4.700797804628487E-05, 1.1713049698123971E-08, 2.0183E-11
DataValue, 0.95000000000000007, 0.1, 0, 2.75799E-09, -2.73459E-09, 2.0239E-11, 2.75799E-09, 5.2516568814041919E-05, 1.3009628317775239E-08, 2.0239E-11
DataValue, 1, 0.1, 0, 3.41219E-09, -3.38437E-09, 2.0569E-11, 3.41219E-09, 5.8413953812423965E-05, 1.4535709809418783E-08, 2.0569E-11
DataValue, 1.05, 0.1, 0, 4.16967E-09, -4.13403E-09, 1.8901000000000003E-11, 4.16967E-09, 6.4572981966144321E-05, 1.6212409238989861E-08, 1.8901000000000003E-11
DataValue, 1.1, 0.1, 0, 5.06186E-09, -5.01679E-09, 2.0125E-11, 5.06186E-09, 7.1146749750076421E-05, 1.8218593733778837E-08, 2.0125E-11
DataValue, 1.1500000000000001, 0.1, 0, 6.09502E-09, -6.04738E-09, 2.1449000000000002E-11, 6.09502E-09, 7.80706090664086E-05, 2.0332040156130757E-08, 2.1449000000000002E-11
DataValue, 1.2, 0.1, 0, 7.29415E-09, -7.22891E-09, 1.9981E-11, 7.29415E-09, 8.5405796056239644E-05, 2.2566954272396063E-08, 1.9981E-11
DataValue, 1.25, 0.1, 0, 8.66629E-09, -8.58382E-09, 2.2925E-11, 8.66629E-09, 9.30929105786257E-05, 2.5159419140027432E-08, 2.2925E-11
DataValue, 1.3, 0.1, 0, 1.025511E-08, -1.015219E-08, 2.6499000000000003E-11, 1.025511E-08, 0.00010126751700323259, 2.0950471572129639E-08, 2.6499000000000003E-11
DataValue, 1.35, 0.1, 0, 1.1570699999999999E-08, -1.1321599999999999E-08, 2.2795E-11, 1.1570699999999999E-08, 0.00010756718830572824, 2.3097703117831532E-08, 2.2795E-11
DataValue, 1.4000000000000001, 0.1, 0, 1.3564199999999999E-08, -1.3444199999999999E-08, 2.5356E-11, 1.3564199999999999E-08, 0.0001164654455192612, 3.4214200616804286E-08, 2.5356E-11
DataValue, 1.4500000000000002, 0.1, 0, 1.58922E-08, -1.57527E-08, 2.8975000000000002E-11, 1.58922E-08, 0.00012606426932323052, 3.6814295268081222E-08, 2.8975000000000002E-11
DataValue, 1.5, 0.1, 0, 1.84016E-08, -1.8264599999999997E-08, 2.5956E-11, 1.84016E-08, 0.00013565249721254674, 3.8545545867067351E-08, 2.5956E-11
DataValue, 1.55, 0.1, 0, 2.1227699999999997E-08, -2.1053999999999998E-08, 2.3782000000000002E-11, 2.1227699999999997E-08, 0.00014569728892467422, 4.1511713464978934E-08, 2.3782000000000002E-11
DataValue, 1.6, 0.1, 0, 2.4344399999999998E-08, -2.41278E-08, 2.5102000000000004E-11, 2.4344399999999998E-08, 0.00015602692075408013, 4.303630588754383E-08, 2.5102000000000004E-11
DataValue, 1.6500000000000001, 0.1, 0, 2.77031E-08, -2.7479799999999998E-08, 2.6093000000000004E-11, 2.77031E-08, 0.00016644248255778932, 4.508427438983396E-08, 2.6093000000000004E-11
DataValue, 1.7000000000000002, 0.1, 0, 3.14211E-08, -3.1178199999999994E-08, 2.7251000000000002E-11, 3.14211E-08, 0.00017725997856256218, 4.8029733212555425E-08, 2.7251000000000002E-11
DataValue, 1.75, 0.1, 0, 3.54788E-08, -3.5211099999999996E-08, 3.0301000000000003E-11, 3.54788E-08, 0.00018835816945383602, 5.0276937707784937E-08, 3.0301000000000003E-11
DataValue, 1.8, 0.1, 0, 3.9873099999999995E-08, -3.9602999999999994E-08, 2.1657000000000003E-11, 3.9873099999999995E-08, 0.00019968249798117007, 5.246144392689684E-08, 2.1657000000000003E-11
DataValue, 1.85, 0.1, 0, 4.4631899999999993E-08, -4.4310099999999997E-08, 2.9985E-11, 4.4631899999999993E-08, 0.00021126263275837492, 5.5173127793616943E-08, 2.9985E-11
DataValue, 1.9000000000000001, 0.1, 0, 4.9805499999999996E-08, -4.9469199999999995E-08, 3.0941E-11, 4.9805499999999996E-08, 0.00022317145874864913, 5.7810255097168951E-08, 3.0941E-11
DataValue, 1.9500000000000002, 0.1, 0, 5.5369099999999996E-08, -5.5002499999999992E-08, 2.9065000000000002E-11, 5.5369099999999996E-08, 0.00023530639600316858, 5.97428643009051E-08, 2.9065000000000002E-11
DataValue, 2, 0.1, 0, 6.1312599999999993E-08, -6.0908499999999992E-08, 2.6476000000000003E-11, 6.1312599999999993E-08, 0.00024761381221571628, 6.1787115412285349E-08, 2.6476000000000003E-11
DataValue, 2.05, 0.1, 0, 6.7684999999999987E-08, -6.7274899999999993E-08, 2.8779E-11, 6.7684999999999987E-08, 0.00026016341018675164, 6.3836224560697319E-08, 2.8779E-11
DataValue, 2.1, 0.1, 0, 7.4463299999999986E-08, -7.39958E-08, 3.2379E-11, 7.4463299999999986E-08, 0.00027287964379923979, 6.51903810966635E-08, 3.2379E-11
DataValue, 2.15, 0.1, 0, 8.16221E-08, -8.1159699999999991E-08, 3.2853E-11, 8.16221E-08, 0.00028569581726024622, 6.8110285506266584E-08, 3.2853E-11
DataValue, 2.2, 0.1, 0, 8.93876E-08, -8.88804E-08, 3.4684000000000005E-11, 8.93876E-08, 0.00029897759113351624, 7.1377513705302841E-08, 3.4684000000000005E-11
