
SetupTitle, Transfer sat
PrimitiveTest, I/V Sweep
TestParameter, Context.MainFrame, 4155C
TestParameter, Channel.UnitType, SMU, SMU, SMU
TestParameter, Channel.Unit, SMU1:MP, SMU4:MP, SMU3:MP
TestParameter, Channel.IName, ID, IS, IG
TestParameter, Channel.VName, VD, VS, VG
TestParameter, Channel.Mode, V, COMMON, V
TestParameter, Channel.Func, CONST, CONST, VAR1
TestParameter, Channel.Index, 
TestParameter, Channel.Time, 
TestParameter, Measurement.Port.Unit, SMU1:MP, SMU4:MP, SMU3:MP
TestParameter, Measurement.Port.SeriesResistor, NONE, NONE, NONE
TestParameter, Measurement.Port.Filter, ON, ON, ON
TestParameter, Measurement.Primary.Locus, Double
TestParameter, Measurement.Primary.Scale, LINEAR
TestParameter, Measurement.Primary.Start, -2
TestParameter, Measurement.Primary.Stop, 3
TestParameter, Measurement.Primary.Step, 0.05
TestParameter, Measurement.Primary.Compliance, 0.001
TestParameter, Measurement.Primary.PowerCompliance, 0
TestParameter, Measurement.Aborting.Condition, CONTINUE AT ANY
TestParameter, Measurement.PostOutput.Value, START
TestParameter, Measurement.PostOutput.Retention, OFF
TestParameter, Measurement.Bias.Source, 5, 0, -2
TestParameter, Measurement.Bias.Compliance, 0.001, 0.1, 0.001
TestParameter, Measurement.Monitor.Unit, SMU1:MP, SMU4:MP, SMU3:MP
TestParameter, Measurement.Monitor.Adc, HR ADC, HR ADC, HR ADC
TestParameter, Measurement.Monitor.RangingMode, AUTO, AUTO, AUTO
TestParameter, Measurement.Monitor.RangeBoundary, , , 
TestParameter, Measurement.Monitor.RangeRating, BY FULL RANGE, BY FULL RANGE, BY FULL RANGE
TestParameter, Measurement.Monitor.RangeRatingCoeff, 50, 50, 50
TestParameter, Measurement.Timing.Hold, 0.5
TestParameter, Measurement.Timing.Delay, 0.05
TestParameter, Measurement.Adc.HighResolution.AutoZero, OFF
TestParameter, Measurement.Adc.HighResolution.Mode, AUTO
TestParameter, Measurement.Adc.HighResolution.Coeff, 1
TestParameter, Measurement.Ag16440ASelector.SemiconductorRelay.Channel1, DEFAULT
TestParameter, Measurement.Ag16440ASelector.SemiconductorRelay.Channel3, DEFAULT
TestParameter, Function.User.Name, absID, sqrtID, gm2, absIG
TestParameter, Function.User.Unit, A, A, A/V, A
TestParameter, Function.User.Definition, abs(ID), sqrt(abs(ID)), (delta(sqrtID)/delta(VG))^2, abs(IG)
TestParameter, Output.Graph.Enabled, true
TestParameter, Output.Graph.XAxis.Data, VG
TestParameter, Output.Graph.XAxis.Scale, Linear
TestParameter, Output.Graph.XAxis.Left, -5
TestParameter, Output.Graph.XAxis.Right, 7
TestParameter, Output.Graph.YAxis.Data, ID, absIG, gm2
TestParameter, Output.Graph.YAxis.Scale, Log, Log, Linear
TestParameter, Output.Graph.YAxis.Bottom, 1E-14, 1E-14, 0
TestParameter, Output.Graph.YAxis.Top, 0.01, 0.01, 1E-05
TestParameter, Output.Graph.YAxis.Group, , , 
TestParameter, Output.List.Data, VG, IG, VD, ID, VS, IS, sqrtID, gm2, absIG
TestParameter, AutoAnalysis.Interpolation, false
TestParameter, AutoAnalysis.Line1.Enabled, false
TestParameter, AutoAnalysis.Line1.Type, 1
TestParameter, AutoAnalysis.Line1.Fix, True
TestParameter, AutoAnalysis.Line1.YAxis, 0
TestParameter, AutoAnalysis.Line1.Point1.Type, 0
TestParameter, AutoAnalysis.Line1.Point1.XY.X, 
TestParameter, AutoAnalysis.Line1.Point1.XY.Y, 
TestParameter, AutoAnalysis.Line1.Point1.Data.Var, 
TestParameter, AutoAnalysis.Line1.Point1.Data.Condition, 
TestParameter, AutoAnalysis.Line1.Point1.Data.Start, false
TestParameter, AutoAnalysis.Line1.Point1.Data.StartVar, 
TestParameter, AutoAnalysis.Line1.Point1.Data.StartCondition, 
TestParameter, AutoAnalysis.Line1.Point2.Type, 0
TestParameter, AutoAnalysis.Line1.Point2.XY.X, 
TestParameter, AutoAnalysis.Line1.Point2.XY.Y, 
TestParameter, AutoAnalysis.Line1.Point2.Data.Var, 
TestParameter, AutoAnalysis.Line1.Point2.Data.Condition, 
TestParameter, AutoAnalysis.Line1.Point2.Data.Start, false
TestParameter, AutoAnalysis.Line1.Point2.Data.StartVar, 
TestParameter, AutoAnalysis.Line1.Point2.Data.StartCondition, 
TestParameter, AutoAnalysis.Line1.GradientExpr, 0
TestParameter, AutoAnalysis.Line2.Enabled, false
TestParameter, AutoAnalysis.Line2.Type, 1
TestParameter, AutoAnalysis.Line2.Fix, True
TestParameter, AutoAnalysis.Line2.YAxis, 0
TestParameter, AutoAnalysis.Line2.Point1.Type, 0
TestParameter, AutoAnalysis.Line2.Point1.XY.X, 
TestParameter, AutoAnalysis.Line2.Point1.XY.Y, 
TestParameter, AutoAnalysis.Line2.Point1.Data.Var, 
TestParameter, AutoAnalysis.Line2.Point1.Data.Condition, 
TestParameter, AutoAnalysis.Line2.Point1.Data.Start, false
TestParameter, AutoAnalysis.Line2.Point1.Data.StartVar, 
TestParameter, AutoAnalysis.Line2.Point1.Data.StartCondition, 
TestParameter, AutoAnalysis.Line2.Point2.Type, 0
TestParameter, AutoAnalysis.Line2.Point2.XY.X, 
TestParameter, AutoAnalysis.Line2.Point2.XY.Y, 
TestParameter, AutoAnalysis.Line2.Point2.Data.Var, 
TestParameter, AutoAnalysis.Line2.Point2.Data.Condition, 
TestParameter, AutoAnalysis.Line2.Point2.Data.Start, false
TestParameter, AutoAnalysis.Line2.Point2.Data.StartVar, 
TestParameter, AutoAnalysis.Line2.Point2.Data.StartCondition, 
TestParameter, AutoAnalysis.Line2.GradientExpr, 0
TestParameter, AutoAnalysis.Marker.Enabled, false
TestParameter, AutoAnalysis.Marker.Data.Var, 
TestParameter, AutoAnalysis.Marker.Data.Condition, 
TestParameter, AutoAnalysis.Marker.Data.Start, false
TestParameter, AutoAnalysis.Marker.Data.StartVar, 
TestParameter, AutoAnalysis.Marker.Data.StartCondition, 
MetaData, TestRecord.EntryPoint, true
MetaData, TestRecord.RecordTime, 04/23/2019 17:30:29
MetaData, TestRecord.TestTarget, 24
MetaData, TestRecord.IterationIndex, 1
MetaData, TestRecord.Preservation, true
MetaData, TestRecord.Flag, 
MetaData, TestRecord.Remarks, 150-300-G24
MetaData, TestRecord.LinkKey, 8c9fbc68-94ac-4d02-b7b6-d97180833764
Dimension1, 202, 202, 202, 202, 202, 202, 202, 202, 202, 202
Dimension2, 1, 1, 1, 1, 1, 1, 1, 1, 1, 1
DataName, VG, VD, VS, ID, IS, IG, absID, sqrtID, gm2, absIG
DataValue, -2, 5, 0, 2.7429500000000003E-10, 1.2304000000000001E-11, -3.08331E-10, 2.7429500000000003E-10, 1.6561853760977364E-05, 1.0805374846433378E-10, 3.08331E-10
DataValue, -1.9500000000000002, 5, 0, 2.91781E-10, 1.1236000000000001E-11, -3.0504900000000004E-10, 2.91781E-10, 1.7081598285874772E-05, 1.8019489971401942E-11, 3.0504900000000004E-10
DataValue, -1.9000000000000001, 5, 0, 2.8853600000000004E-10, 6.426E-12, -3.2662900000000003E-10, 2.8853600000000004E-10, 1.6986347459062529E-05, 1.0247222747007683E-09, 3.2662900000000003E-10
DataValue, -1.85, 5, 0, 4.1138900000000006E-10, 8.73E-12, -3.4382400000000004E-10, 4.1138900000000006E-10, 2.0282726641159468E-05, 5.2768654520281277E-10, 3.4382400000000004E-10
DataValue, -1.8, 5, 0, 3.7185300000000004E-10, 4.606E-12, -4.4812500000000004E-10, 3.7185300000000004E-10, 1.9283490347963464E-05, 3.306430562118953E-10, 4.4812500000000004E-10
DataValue, -1.75, 5, 0, 4.8845800000000007E-10, 3.4500000000000004E-12, -5.3079900000000006E-10, 4.8845800000000007E-10, 2.2101085946170158E-05, 2.266666420613937E-10, 5.3079900000000006E-10
DataValue, -1.7000000000000002, 5, 0, 4.3218400000000003E-10, 4.191E-12, -2.9793E-10, 4.3218400000000003E-10, 2.0789035571666137E-05, 3.118481829291276E-09, 2.9793E-10
DataValue, -1.6500000000000001, 5, 0, 2.72803E-10, 5.4700000000000007E-12, -2.60466E-10, 2.72803E-10, 1.6516749074802826E-05, 2.8127047843551334E-09, 2.60466E-10
DataValue, -1.6, 5, 0, 2.39802E-10, 2.623E-12, -2.32926E-10, 2.39802E-10, 1.5485541643739814E-05, 3.4998701972241407E-10, 2.32926E-10
DataValue, -1.55, 5, 0, 2.1450400000000002E-10, 1.333E-12, -2.0819200000000002E-10, 2.1450400000000002E-10, 1.4645955072988584E-05, 1.4198911958371629E-10, 2.0819200000000002E-10
DataValue, -1.5, 5, 0, 2.0431700000000003E-10, 1.015E-12, -1.9906500000000003E-10, 2.0431700000000003E-10, 1.4293949769045644E-05, 3.4922894943917392E-11, 1.9906500000000003E-10
DataValue, -1.4500000000000002, 5, 0, 1.9754300000000002E-10, 1.6740000000000001E-12, -1.9133900000000003E-10, 1.9754300000000002E-10, 1.4054999110636758E-05, 6.185356263312753E-11, 1.9133900000000003E-10
DataValue, -1.4000000000000001, 5, 0, 1.8245200000000002E-10, 2.9180000000000003E-12, -1.8089700000000002E-10, 1.8245200000000002E-10, 1.3507479409571574E-05, 7.898168677365537E-11, 1.8089700000000002E-10
DataValue, -1.35, 5, 0, 1.73351E-10, 3.484E-12, -1.7408700000000002E-10, 1.73351E-10, 1.3166282694823167E-05, 2.9664136629917721E-11, 1.7408700000000002E-10
DataValue, -1.3, 5, 0, 1.68035E-10, 3.2690000000000003E-12, -1.7430800000000003E-10, 1.68035E-10, 1.2962831480814677E-05, 1.4179762822824237E-11, 1.7430800000000003E-10
DataValue, -1.25, 5, 0, 1.6357700000000002E-10, 6.0150000000000005E-12, -1.66995E-10, 1.6357700000000002E-10, 1.2789722436393998E-05, 7.1607701703112613E-12, 1.66995E-10
DataValue, -1.2, 5, 0, 1.6116900000000002E-10, 1.0020000000000002E-12, -1.6767500000000002E-10, 1.6116900000000002E-10, 1.2695235326688515E-05, 5.5638621279575767E-12, 1.6767500000000002E-10
DataValue, -1.1500000000000001, 5, 0, 1.5759900000000002E-10, 1.0020000000000002E-12, -1.48391E-10, 1.5759900000000002E-10, 1.2553844032805251E-05, 2.5601349473843057E-11, 1.48391E-10
DataValue, -1.1, 5, 0, 1.48578E-10, 5.6590000000000008E-12, -1.4745600000000002E-10, 1.48578E-10, 1.2189257565577979E-05, 2.8474079533993933E-11, 1.4745600000000002E-10
DataValue, -1.05, 5, 0, 1.44486E-10, 1.1120000000000001E-12, -1.44083E-10, 1.44486E-10, 1.2020232942834344E-05, 6.1019667919903971E-12, 1.44083E-10
DataValue, -1, 5, 0, 1.4261700000000002E-10, -1.262E-12, -1.3749400000000002E-10, 1.4261700000000002E-10, 1.1942235971542348E-05, 2.012686701251005E-11, 1.3749400000000002E-10
DataValue, -0.95000000000000007, 5, 0, 1.3390200000000002E-10, 7.141E-12, -1.31792E-10, 1.3390200000000002E-10, 1.1571603173285888E-05, 3.5076953618956494E-11, 1.31792E-10
DataValue, -0.9, 5, 0, 1.2882200000000002E-10, 1.946E-12, -1.2792400000000002E-10, 1.2882200000000002E-10, 1.134997797354691E-05, 1.8222096549156928E-11, 1.2792400000000002E-10
DataValue, -0.85000000000000009, 5, 0, 1.24205E-10, -1.53E-13, -1.2325100000000002E-10, 1.24205E-10, 1.1144729696138889E-05, 1.5525230410868003E-11, 1.2325100000000002E-10
DataValue, -0.8, 5, 0, 1.20033E-10, 1.755E-12, -1.19157E-10, 1.20033E-10, 1.0955957283596902E-05, 1.8483709761990262E-11, 1.19157E-10
DataValue, -0.75, 5, 0, 1.1480700000000002E-10, 2.1740000000000002E-12, -1.1419200000000001E-10, 1.1480700000000002E-10, 1.071480284466308E-05, 8.9197386196935428E-12, 1.1419200000000001E-10
DataValue, -0.70000000000000007, 5, 0, 1.13578E-10, -1.161E-12, -1.1286300000000001E-10, 1.13578E-10, 1.0657297968997583E-05, 3.3036552087631528E-12, 1.1286300000000001E-10
DataValue, -0.65, 5, 0, 1.1094500000000001E-10, -1.1420000000000002E-12, -1.0961200000000001E-10, 1.1094500000000001E-10, 1.0533043244950625E-05, 9.3587810569266178E-12, 1.0961200000000001E-10
DataValue, -0.6, 5, 0, 1.0715100000000001E-10, 2.0160000000000003E-12, -1.03316E-10, 1.0715100000000001E-10, 1.0351376720031012E-05, 2.7305719787196448E-11, 1.03316E-10
DataValue, -0.55, 5, 0, 1.0021000000000001E-10, 7.1700000000000008E-13, -9.8888E-11, 1.0021000000000001E-10, 1.001049449328054E-05, 1.3552762778966302E-11, 9.8888E-11
DataValue, -0.5, 5, 0, 9.9665000000000012E-11, 5.87E-13, -1.0010500000000001E-10, 9.9665000000000012E-11, 9.98323594832858E-06, 3.7233237825160309E-12, 1.0010500000000001E-10
DataValue, -0.45, 5, 0, 9.6384E-11, 7.95E-13, -9.6142000000000008E-11, 9.6384E-11, 9.817535332251165E-06, 1.739705343422287E-11, 9.6142000000000008E-11
DataValue, -0.4, 5, 0, 9.1511000000000011E-11, -1.5660000000000002E-12, -9.2204000000000011E-11, 9.1511000000000011E-11, 9.5661381967855763E-06, 4.612843479084033E-12, 9.2204000000000011E-11
DataValue, -0.35000000000000003, 5, 0, 9.221300000000001E-11, -2.109E-12, -9.0559000000000013E-11, 9.221300000000001E-11, 9.6027600199109421E-06, 2.6109516143311276E-13, 9.0559000000000013E-11
DataValue, -0.3, 5, 0, 9.0536000000000009E-11, -3.3990000000000004E-12, -8.823400000000001E-11, 9.0536000000000009E-11, 9.51504072508363E-06, 4.0530049659182155E-12, 8.823400000000001E-11
DataValue, -0.25, 5, 0, 9.6120000000000013E-11, -1.1642E-11, -8.4202000000000008E-11, 9.6120000000000013E-11, 9.8040807830209159E-06, 2.0201523736863782E-10, 8.4202000000000008E-11
DataValue, -0.2, 5, 0, 1.1960400000000001E-10, -3.4603E-11, -8.2888E-11, 1.1960400000000001E-10, 1.0936361369303779E-05, 2.2253081766407515E-09, 8.2888E-11
DataValue, -0.15, 5, 0, 2.1087100000000003E-10, -1.23812E-10, -8.0925000000000007E-11, 2.1087100000000003E-10, 1.4521398004324516E-05, 1.4806205976864238E-08, 8.0925000000000007E-11
DataValue, -0.1, 5, 0, 5.3381500000000008E-10, -4.37118E-10, -7.8461E-11, 5.3381500000000008E-10, 2.3104436803350134E-05, 5.6773858582528755E-08, 7.8461E-11
DataValue, -0.05, 5, 0, 1.47062E-09, -1.32173E-09, -7.5635E-11, 1.47062E-09, 3.8348663601226052E-05, 1.9130771901909823E-07, 7.5635E-11
DataValue, 0, 5, 0, 4.46801E-09, -4.29889E-09, -7.255600000000001E-11, 4.46801E-09, 6.6843174670268318E-05, 4.5135987645447814E-07, 7.255600000000001E-11
DataValue, 0.05, 5, 0, 1.1136999999999999E-08, -1.0616799999999999E-08, -7.0603000000000007E-11, 1.1136999999999999E-08, 0.00010553198567259123, 9.5273876355248413E-07, 7.0603000000000007E-11
DataValue, 0.1, 5, 0, 2.7044299999999997E-08, -2.6488599999999998E-08, -6.7622E-11, 2.7044299999999997E-08, 0.00016445151261086047, 1.7464775467943092E-06, 6.7622E-11
DataValue, 0.15, 5, 0, 5.6494799999999993E-08, -5.5487899999999995E-08, -6.5573E-11, 5.6494799999999993E-08, 0.00023768634794619567, 2.5163838372430412E-06, 6.5573E-11
DataValue, 0.2, 5, 0, 1.043824E-07, -1.02847E-07, -6.5128000000000008E-11, 1.043824E-07, 0.00032308265196385891, 3.1123135633801323E-06, 6.5128000000000008E-11
DataValue, 0.25, 5, 0, 1.71482E-07, -1.6642699999999999E-07, -6.2166000000000008E-11, 1.71482E-07, 0.00041410385170872295, 3.8311150473783371E-06, 6.2166000000000008E-11
DataValue, 0.3, 5, 0, 2.69169E-07, -2.66327E-07, -5.9891000000000008E-11, 2.69169E-07, 0.000518814995928221, 4.7820457552157818E-06, 5.9891000000000008E-11
DataValue, 0.35000000000000003, 5, 0, 4.00414E-07, -3.9681599999999997E-07, -5.9095E-11, 4.00414E-07, 0.00063278274312752872, 5.5663587317049229E-06, 5.9095E-11
DataValue, 0.4, 5, 0, 5.69642E-07, -5.6472E-07, -5.6489E-11, 5.69642E-07, 0.00075474631499597271, 6.1001511099412857E-06, 5.6489E-11
DataValue, 0.45, 5, 0, 7.73991E-07, -7.67685E-07, -5.3951000000000007E-11, 7.73991E-07, 0.00087976758294449568, 6.5280852691649784E-06, 5.3951000000000007E-11
DataValue, 0.5, 5, 0, 1.0206E-06, -1.012706E-06, -5.2019E-11, 1.0206E-06, 0.0010102474944289643, 6.35957926864277E-06, 5.2019E-11
DataValue, 0.55, 5, 0, 1.2813100000000002E-06, -1.2683300000000002E-06, -5.0429000000000005E-11, 1.2813100000000002E-06, 0.0011319496455231568, 6.9673899918666555E-06, 5.0429000000000005E-11
DataValue, 0.6, 5, 0, 1.6236000000000002E-06, -1.6131300000000003E-06, -4.9510000000000005E-11, 1.6236000000000002E-06, 0.0012742056348957181, 8.37045549523944E-06, 4.9510000000000005E-11
DataValue, 0.65, 5, 0, 2.02E-06, -2.0071800000000003E-06, -4.6757E-11, 2.02E-06, 0.0014212670403551896, 8.8220881202755075E-06, 4.6757E-11
DataValue, 0.70000000000000007, 5, 0, 2.4687500000000003E-06, -2.4550500000000003E-06, -4.5544E-11, 2.4687500000000003E-06, 0.0015712256362470669, 9.3384321200194859E-06, 4.5544E-11
DataValue, 0.75, 5, 0, 2.9820300000000004E-06, -2.96832E-06, -4.4620000000000003E-11, 2.9820300000000004E-06, 0.0017268555237772499, 9.9645015703356152E-06, 4.4620000000000003E-11
DataValue, 0.8, 5, 0, 3.5603600000000004E-06, -3.5424E-06, -4.2801000000000006E-11, 3.5603600000000004E-06, 0.0018868916238088504, 1.059703616991351E-05, 4.2801000000000006E-11
DataValue, 0.85000000000000009, 5, 0, 4.2122900000000005E-06, -4.19225E-06, -4.1159E-11, 4.2122900000000005E-06, 0.0020523864158583783, 1.1339267692350399E-05, 4.1159E-11
DataValue, 0.9, 5, 0, 4.94453E-06, -4.9215700000000009E-06, -3.966E-11, 4.94453E-06, 0.0022236299152511869, 1.2040391337291729E-05, 3.966E-11
DataValue, 0.95000000000000007, 5, 0, 5.7570200000000007E-06, -5.735290000000001E-06, -3.8241000000000004E-11, 5.7570200000000007E-06, 0.0023993790863471327, 1.2843411432417216E-05, 3.8241000000000004E-11
DataValue, 1, 5, 0, 6.6667600000000009E-06, -6.637000000000001E-06, -3.6624E-11, 6.6667600000000009E-06, 0.0025820069713306353, 1.3706430555761148E-05, 3.6624E-11
DataValue, 1.05, 5, 0, 7.67069E-06, -7.64117E-06, -3.6203E-11, 7.67069E-06, 0.00276960105430367, 1.4383275888578304E-05, 3.6203E-11
DataValue, 1.1, 5, 0, 8.769060000000001E-06, -8.73856E-06, -3.103E-11, 8.769060000000001E-06, 0.0029612598670160648, 1.5082250325584479E-05, 3.103E-11
DataValue, 1.1500000000000001, 5, 0, 9.9727100000000009E-06, -9.9461200000000009E-06, -3.344E-11, 9.9727100000000009E-06, 0.0031579597844177813, 1.5892487007551392E-05, 3.344E-11
DataValue, 1.2, 5, 0, 1.1289020000000001E-05, -1.1261870000000001E-05, -3.2866E-11, 1.1289020000000001E-05, 0.00335991368936763, 1.6229193279456567E-05, 3.2866E-11
DataValue, 1.25, 5, 0, 1.2679400000000001E-05, -1.2620000000000001E-05, -2.9311E-11, 1.2679400000000001E-05, 0.003560814513562873, 1.6773592818559856E-05, 2.9311E-11
DataValue, 1.3, 5, 0, 1.42089E-05, -1.41779E-05, -2.7605E-11, 1.42089E-05, 0.0037694694586904403, 1.7779681136903238E-05, 2.7605E-11
DataValue, 1.35, 5, 0, 1.58601E-05, -1.58311E-05, -2.7732000000000002E-11, 1.58601E-05, 0.0039824741053772093, 1.8493648102695921E-05, 2.7732000000000002E-11
DataValue, 1.4000000000000001, 5, 0, 1.76359E-05, -1.76049E-05, -2.7578000000000002E-11, 1.76359E-05, 0.0041995118763970656, 1.9078597525223073E-05, 2.7578000000000002E-11
DataValue, 1.4500000000000002, 5, 0, 1.95299E-05, -1.94998E-05, -2.6760000000000003E-11, 1.95299E-05, 0.0044192646447118325, 1.9416271353268236E-05, 2.6760000000000003E-11
DataValue, 1.5, 5, 0, 2.1531E-05, -2.15086E-05, -2.5810000000000003E-11, 2.1531E-05, 0.0046401508596165281, 1.9910854403310693E-05, 2.5810000000000003E-11
DataValue, 1.55, 5, 0, 2.36729E-05, -2.36503E-05, -2.5824000000000003E-11, 2.36729E-05, 0.0048654804490409782, 2.0313381216457324E-05, 2.5824000000000003E-11
DataValue, 1.6, 5, 0, 2.5916800000000002E-05, -2.58942E-05, -2.1531E-11, 2.5916800000000002E-05, 0.0050908545451623351, 2.0613543831952209E-05, 2.1531E-11
DataValue, 1.6500000000000001, 5, 0, 2.82971E-05, -2.82775E-05, -2.4589E-11, 2.82971E-05, 0.0053195018563771549, 2.0950929089891181E-05, 2.4589E-11
DataValue, 1.7000000000000002, 5, 0, 3.07867E-05, -3.0769E-05, -2.1196000000000003E-11, 3.07867E-05, 0.00554857639399513, 2.1131024188177463E-05, 2.1196000000000003E-11
DataValue, 1.75, 5, 0, 3.3399E-05, -3.33805E-05, -1.9651E-11, 3.3399E-05, 0.0057791867940048458, 2.140802150149495E-05, 1.9651E-11
DataValue, 1.8, 5, 0, 3.61353E-05, -3.61212E-05, -2.0158E-11, 3.61353E-05, 0.0060112644260587973, 2.2106281281933605E-05, 2.0158E-11
DataValue, 1.85, 5, 0, 3.9054500000000004E-05, -3.90419E-05, -1.6761E-11, 3.9054500000000004E-05, 0.0062493599672286447, 2.2387599748185926E-05, 1.6761E-11
DataValue, 1.9000000000000001, 5, 0, 4.20477E-05, -4.20344E-05, -1.7246E-11, 4.20477E-05, 0.0064844197890019427, 2.21936459794667E-05, 1.7246E-11
DataValue, 1.9500000000000002, 5, 0, 4.5164600000000005E-05, -4.51562E-05, -1.5677E-11, 4.5164600000000005E-05, 0.0067204612936910815, 2.2433512002279295E-05, 1.5677E-11
DataValue, 2, 5, 0, 4.84146E-05, -4.8405900000000004E-05, -1.797E-11, 4.84146E-05, 0.0069580600744747817, 2.2660542477594153E-05, 1.797E-11
DataValue, 2.05, 5, 0, 5.17895E-05, -5.1780600000000004E-05, -1.9348000000000002E-11, 5.17895E-05, 0.0071964922010657392, 2.2795143487430302E-05, 1.9348000000000002E-11
DataValue, 2.1, 5, 0, 5.52867E-05, -5.5278800000000003E-05, -1.4565E-11, 5.52867E-05, 0.0074355026729872138, 2.2930493993015475E-05, 1.4565E-11
DataValue, 2.15, 5, 0, 5.8911E-05, -5.8906E-05, -1.1650000000000002E-11, 5.8911E-05, 0.0076753501548789292, 2.313236605763558E-05, 1.1650000000000002E-11
