
SetupTitle, Transfer stab
PrimitiveTest, I/V Sweep
TestParameter, Context.MainFrame, 4155C
TestParameter, Channel.UnitType, SMU, SMU, SMU
TestParameter, Channel.Unit, SMU1:MP, SMU4:MP, SMU3:MP
TestParameter, Channel.IName, ID, IS, IG
TestParameter, Channel.VName, VD, VS, VG
TestParameter, Channel.Mode, V, COMMON, V
TestParameter, Channel.Func, CONST, CONST, VAR1
TestParameter, Channel.Index, 
TestParameter, Channel.Time, 
TestParameter, Measurement.Port.Unit, SMU1:MP, SMU4:MP, SMU3:MP
TestParameter, Measurement.Port.SeriesResistor, NONE, NONE, NONE
TestParameter, Measurement.Port.Filter, ON, ON, ON
TestParameter, Measurement.Primary.Locus, Single
TestParameter, Measurement.Primary.Scale, LINEAR
TestParameter, Measurement.Primary.Start, -2
TestParameter, Measurement.Primary.Stop, 3
TestParameter, Measurement.Primary.Step, 0.05
TestParameter, Measurement.Primary.Compliance, 0.1
TestParameter, Measurement.Primary.PowerCompliance, 0
TestParameter, Measurement.Aborting.Condition, CONTINUE AT ANY
TestParameter, Measurement.PostOutput.Value, START
TestParameter, Measurement.PostOutput.Retention, OFF
TestParameter, Measurement.Bias.Source, 3, 0, -2
TestParameter, Measurement.Bias.Compliance, 0.1, 0.1, 0.1
TestParameter, Measurement.Monitor.Unit, SMU1:MP, SMU4:MP, SMU3:MP
TestParameter, Measurement.Monitor.Adc, HR ADC, HR ADC, HR ADC
TestParameter, Measurement.Monitor.RangingMode, AUTO, AUTO, AUTO
TestParameter, Measurement.Monitor.RangeBoundary, , , 
TestParameter, Measurement.Monitor.RangeRating, BY FULL RANGE, BY FULL RANGE, BY FULL RANGE
TestParameter, Measurement.Monitor.RangeRatingCoeff, 50, 50, 50
TestParameter, Measurement.Timing.Hold, 0.5
TestParameter, Measurement.Timing.Delay, 0.05
TestParameter, Measurement.Adc.HighResolution.AutoZero, OFF
TestParameter, Measurement.Adc.HighResolution.Mode, AUTO
TestParameter, Measurement.Adc.HighResolution.Coeff, 1
TestParameter, Measurement.Ag16440ASelector.SemiconductorRelay.Channel1, DEFAULT
TestParameter, Measurement.Ag16440ASelector.SemiconductorRelay.Channel3, DEFAULT
TestParameter, Function.User.Name, absID, sqrtID, gm2, absIG
TestParameter, Function.User.Unit, A, A, A/V, A
TestParameter, Function.User.Definition, abs(ID), sqrt(abs(ID)), (delta(sqrtID)/delta(VG))^2, abs(IG)
TestParameter, Output.Graph.Enabled, true
TestParameter, Output.Graph.XAxis.Data, VG
TestParameter, Output.Graph.XAxis.Scale, Linear
TestParameter, Output.Graph.XAxis.Left, -5
TestParameter, Output.Graph.XAxis.Right, 7
TestParameter, Output.Graph.YAxis.Data, ID, absIG, gm2
TestParameter, Output.Graph.YAxis.Scale, Log, Log, Linear
TestParameter, Output.Graph.YAxis.Bottom, 1E-14, 1E-14, 0
TestParameter, Output.Graph.YAxis.Top, 0.01, 0.01, 1E-05
TestParameter, Output.Graph.YAxis.Group, , , 
TestParameter, Output.List.Data, VG, IG, VD, ID, VS, IS, sqrtID, gm2, absIG
TestParameter, AutoAnalysis.Interpolation, false
TestParameter, AutoAnalysis.Line1.Enabled, false
TestParameter, AutoAnalysis.Line1.Type, 1
TestParameter, AutoAnalysis.Line1.Fix, True
TestParameter, AutoAnalysis.Line1.YAxis, 0
TestParameter, AutoAnalysis.Line1.Point1.Type, 0
TestParameter, AutoAnalysis.Line1.Point1.XY.X, 
TestParameter, AutoAnalysis.Line1.Point1.XY.Y, 
TestParameter, AutoAnalysis.Line1.Point1.Data.Var, 
TestParameter, AutoAnalysis.Line1.Point1.Data.Condition, 
TestParameter, AutoAnalysis.Line1.Point1.Data.Start, false
TestParameter, AutoAnalysis.Line1.Point1.Data.StartVar, 
TestParameter, AutoAnalysis.Line1.Point1.Data.StartCondition, 
TestParameter, AutoAnalysis.Line1.Point2.Type, 0
TestParameter, AutoAnalysis.Line1.Point2.XY.X, 
TestParameter, AutoAnalysis.Line1.Point2.XY.Y, 
TestParameter, AutoAnalysis.Line1.Point2.Data.Var, 
TestParameter, AutoAnalysis.Line1.Point2.Data.Condition, 
TestParameter, AutoAnalysis.Line1.Point2.Data.Start, false
TestParameter, AutoAnalysis.Line1.Point2.Data.StartVar, 
TestParameter, AutoAnalysis.Line1.Point2.Data.StartCondition, 
TestParameter, AutoAnalysis.Line1.GradientExpr, 0
TestParameter, AutoAnalysis.Line2.Enabled, false
TestParameter, AutoAnalysis.Line2.Type, 1
TestParameter, AutoAnalysis.Line2.Fix, True
TestParameter, AutoAnalysis.Line2.YAxis, 0
TestParameter, AutoAnalysis.Line2.Point1.Type, 0
TestParameter, AutoAnalysis.Line2.Point1.XY.X, 
TestParameter, AutoAnalysis.Line2.Point1.XY.Y, 
TestParameter, AutoAnalysis.Line2.Point1.Data.Var, 
TestParameter, AutoAnalysis.Line2.Point1.Data.Condition, 
TestParameter, AutoAnalysis.Line2.Point1.Data.Start, false
TestParameter, AutoAnalysis.Line2.Point1.Data.StartVar, 
TestParameter, AutoAnalysis.Line2.Point1.Data.StartCondition, 
TestParameter, AutoAnalysis.Line2.Point2.Type, 0
TestParameter, AutoAnalysis.Line2.Point2.XY.X, 
TestParameter, AutoAnalysis.Line2.Point2.XY.Y, 
TestParameter, AutoAnalysis.Line2.Point2.Data.Var, 
TestParameter, AutoAnalysis.Line2.Point2.Data.Condition, 
TestParameter, AutoAnalysis.Line2.Point2.Data.Start, false
TestParameter, AutoAnalysis.Line2.Point2.Data.StartVar, 
TestParameter, AutoAnalysis.Line2.Point2.Data.StartCondition, 
TestParameter, AutoAnalysis.Line2.GradientExpr, 0
TestParameter, AutoAnalysis.Marker.Enabled, false
TestParameter, AutoAnalysis.Marker.Data.Var, 
TestParameter, AutoAnalysis.Marker.Data.Condition, 
TestParameter, AutoAnalysis.Marker.Data.Start, false
TestParameter, AutoAnalysis.Marker.Data.StartVar, 
TestParameter, AutoAnalysis.Marker.Data.StartCondition, 
MetaData, TestRecord.EntryPoint, true
MetaData, TestRecord.RecordTime, 04/23/2019 14:30:30
MetaData, TestRecord.TestTarget, 36
MetaData, TestRecord.IterationIndex, 3
MetaData, TestRecord.Preservation, true
MetaData, TestRecord.Flag, 
MetaData, TestRecord.Remarks, 250-300-G36
MetaData, TestRecord.LinkKey, 252415f9-b5e6-4788-a5ad-6c29d8004aa1
Dimension1, 101, 101, 101, 101, 101, 101, 101, 101, 101, 101
Dimension2, 1, 1, 1, 1, 1, 1, 1, 1, 1, 1
DataName, VG, VD, VS, ID, IS, IG, absID, sqrtID, gm2, absIG
DataValue, -2, 3, 0, 4.562E-12, -2.347E-12, -2.674E-12, 4.562E-12, 2.135883891975404E-06, 6.4489001201446939E-11, 2.674E-12
DataValue, -1.9500000000000002, 3, 0, 3.008E-12, 2.0960000000000004E-12, -4.1770000000000005E-12, 3.008E-12, 1.734358671094304E-06, 7.3146803317995573E-11, 4.1770000000000005E-12
DataValue, -1.9000000000000001, 3, 0, 1.64E-12, 1.3590000000000002E-12, -2.665E-12, 1.64E-12, 1.2806248474865697E-06, 1.4476150520440428E-11, 2.665E-12
DataValue, -1.85, 3, 0, 1.833E-12, -1.7330000000000002E-12, -2.098E-12, 1.833E-12, 1.3538833036861043E-06, 4.1600757416444E-12, 2.098E-12
DataValue, -1.8, 3, 0, 2.2040000000000003E-12, 5.2000000000000006E-14, -1.527E-12, 2.2040000000000003E-12, 1.4845874847916508E-06, 4.4370177169111093E-12, 1.527E-12
DataValue, -1.75, 3, 0, 1.3070000000000002E-12, 1.2110000000000002E-12, -1.761E-12, 1.3070000000000002E-12, 1.1432410069622241E-06, 4.8605802743335772E-12, 1.761E-12
DataValue, -1.7000000000000002, 3, 0, 1.598E-12, -1.3000000000000001E-12, -1.494E-12, 1.598E-12, 1.2641202474448386E-06, 5.6157798621737278E-12, 1.494E-12
DataValue, -1.6500000000000001, 3, 0, 1.905E-12, 1.2000000000000002E-13, -1.2460000000000001E-12, 1.905E-12, 1.3802173741842261E-06, 3.3030304535325552E-13, 1.2460000000000001E-12
DataValue, -1.6, 3, 0, 1.456E-12, 4.4000000000000004E-13, -1.4170000000000001E-12, 1.456E-12, 1.2066482503198686E-06, 4.187442461774672E-12, 1.4170000000000001E-12
DataValue, -1.55, 3, 0, 1.3820000000000002E-12, -4.6000000000000006E-13, -2.535E-12, 1.3820000000000002E-12, 1.1755849607748476E-06, 5.1311211009307974E-13, 2.535E-12
DataValue, -1.5, 3, 0, 1.6340000000000001E-12, -1.53E-13, -1.2520000000000001E-12, 1.6340000000000001E-12, 1.2782800945019836E-06, 2.0759393379700221E-12, 1.2520000000000001E-12
DataValue, -1.4500000000000002, 3, 0, 1.0640000000000001E-12, 3.8500000000000003E-13, -2.0320000000000002E-12, 1.0640000000000001E-12, 1.03150375665821E-06, 5.13542442337259E-12, 2.0320000000000002E-12
DataValue, -1.4000000000000001, 3, 0, 1.1060000000000001E-12, -5.19E-13, -1.437E-12, 1.1060000000000001E-12, 1.0516653460107926E-06, 2.6736158238107184E-14, 1.437E-12
DataValue, -1.35, 3, 0, 1.0980000000000002E-12, -3.0900000000000005E-13, 1.4530000000000002E-12, 1.0980000000000002E-12, 1.047854951794379E-06, 9.1242774918791942E-15, 1.4530000000000002E-12
DataValue, -1.3, 3, 0, 1.086E-12, 1.25E-13, -1.185E-12, 1.086E-12, 1.0421132376090421E-06, 7.3215427341918294E-13, 1.185E-12
DataValue, -1.25, 3, 0, 9.26E-13, -1.3700000000000002E-13, -3.4350000000000002E-12, 9.26E-13, 9.6228893789755283E-07, 9.7176098657850576E-14, 3.4350000000000002E-12
DataValue, -1.2, 3, 0, 1.022E-12, 3.2300000000000004E-13, -1.003E-12, 1.022E-12, 1.010940156488009E-06, 2.1492494318289905E-14, 1.003E-12
DataValue, -1.1500000000000001, 3, 0, 8.9800000000000011E-13, 7.8100000000000011E-13, -8.5900000000000008E-13, 8.9800000000000011E-13, 9.4762861923857074E-07, 1.3523157681219535E-13, 8.5900000000000008E-13
DataValue, -1.1, 3, 0, 9.49E-13, 1.2100000000000002E-13, -6.52E-13, 9.49E-13, 9.7416631023660436E-07, 1.0237438726647117E-12, 6.52E-13
DataValue, -1.05, 3, 0, 1.1000000000000002E-12, 2.6600000000000003E-13, -7.6800000000000006E-13, 1.1000000000000002E-12, 1.0488088481701517E-06, 1.1425713662409492E-13, 7.6800000000000006E-13
DataValue, -1, 3, 0, 1.0160000000000001E-12, 3.3700000000000003E-13, 7.2100000000000006E-13, 1.0160000000000001E-12, 1.0079682534683322E-06, 1.2617145259102025E-12, 7.2100000000000006E-13
DataValue, -0.95000000000000007, 3, 0, 8.770000000000001E-13, -4.0500000000000004E-13, -7.9100000000000006E-13, 8.770000000000001E-13, 9.3648278147545247E-07, 1.2857351134068853E-13, 7.9100000000000006E-13
DataValue, -0.9, 3, 0, 9.4500000000000011E-13, -5.14E-13, -1.8650000000000002E-12, 9.4500000000000011E-13, 9.7211110476117919E-07, 6.1475596459361017E-13, 1.8650000000000002E-12
DataValue, -0.85000000000000009, 3, 0, 1.03E-12, -8.1100000000000008E-13, -8.45E-13, 1.03E-12, 1.0148891565092219E-06, 1.5076952580048289E-13, 8.45E-13
DataValue, -0.8, 3, 0, 1.022E-12, -1.556E-12, -2.3000000000000003E-13, 1.022E-12, 1.010940156488009E-06, 1.3260694847821209E-12, 2.3000000000000003E-13
DataValue, -0.75, 3, 0, 1.2770000000000001E-12, -5.89E-13, -2.82E-13, 1.2770000000000001E-12, 1.1300442469213319E-06, 1.6701754652990664E-12, 2.82E-13
DataValue, -0.70000000000000007, 3, 0, 1.3000000000000001E-12, -2.5200000000000004E-13, -6.2500000000000006E-13, 1.3000000000000001E-12, 1.140175425099138E-06, 1.3065428620118046E-13, 6.2500000000000006E-13
DataValue, -0.65, 3, 0, 1.36E-12, -4.69E-13, -4.5300000000000004E-13, 1.36E-12, 1.16619037896906E-06, 1.3550646059156033E-12, 4.5300000000000004E-13
DataValue, -0.6, 3, 0, 1.579E-12, -8.93E-13, 2.32E-13, 1.579E-12, 1.2565826673959816E-06, 3.6485823756273244E-12, 2.32E-13
DataValue, -0.55, 3, 0, 1.842E-12, -1.556E-12, 2.24E-13, 1.842E-12, 1.3572030061858837E-06, 5.4155092713565253E-12, 2.24E-13
DataValue, -0.5, 3, 0, 2.218E-12, -2.119E-12, -7.32E-13, 2.218E-12, 1.4892951352905172E-06, 1.4634114390862278E-12, 7.32E-13
DataValue, -0.45, 3, 0, 2.185E-12, -1.8170000000000002E-12, 1.544E-12, 2.185E-12, 1.4781745499094483E-06, 2.5548655944736032E-13, 1.544E-12
DataValue, -0.4, 3, 0, 2.0700000000000003E-12, -1.864E-12, -1.829E-12, 2.0700000000000003E-12, 1.4387494569938161E-06, 6.6831516948702294E-13, 1.829E-12
DataValue, -0.35000000000000003, 3, 0, 1.95E-12, -2.001E-12, -3.867E-12, 1.95E-12, 1.396424004376894E-06, 5.0240813483161408E-14, 3.867E-12
DataValue, -0.3, 3, 0, 2.135E-12, -1.5700000000000002E-12, -5.34E-13, 2.135E-12, 1.4611639196202458E-06, 1.6463758962600889E-14, 5.34E-13
DataValue, -0.25, 3, 0, 1.9860000000000002E-12, -2.031E-12, -4.36E-13, 1.9860000000000002E-12, 1.4092551223962253E-06, 4.1334253764586276E-14, 4.36E-13
DataValue, -0.2, 3, 0, 2.076E-12, -1.9860000000000002E-12, -8.8E-14, 2.076E-12, 1.44083309234623E-06, 4.318018423258567E-14, 8.8E-14
DataValue, -0.15, 3, 0, 2.0450000000000003E-12, -1.1250000000000002E-12, -6.84E-13, 2.0450000000000003E-12, 1.4300349646075092E-06, 1.3010954940201423E-14, 6.84E-13
DataValue, -0.1, 3, 0, 2.109E-12, -1.1440000000000002E-12, 3.4E-14, 2.109E-12, 1.4522396496446446E-06, 2.3500972532616162E-13, 3.4E-14
DataValue, -0.05, 3, 0, 2.186E-12, -1.203E-12, -3.7000000000000004E-13, 2.186E-12, 1.4785127662620977E-06, 2.3311196885333695E-15, 3.7000000000000004E-13
DataValue, 0, 3, 0, 2.0950000000000003E-12, -1.4720000000000002E-12, -8E-13, 2.0950000000000003E-12, 1.447411482613013E-06, 1.2672921777722481E-13, 8E-13
DataValue, 0.05, 3, 0, 2.0820000000000002E-12, -2.0910000000000003E-12, -3.78E-13, 2.0820000000000002E-12, 1.4429137188342205E-06, 8.1848465398355034E-14, 3.78E-13
DataValue, 0.1, 3, 0, 2.013E-12, -1.927E-12, -4.47E-13, 2.013E-12, 1.4188023118109162E-06, 4.3507955532863747E-13, 4.47E-13
DataValue, 0.15, 3, 0, 1.896E-12, -2.056E-12, -1.83E-13, 1.896E-12, 1.3769531582446805E-06, 5.0078864361161275E-14, 1.83E-13
DataValue, 0.2, 3, 0, 1.95E-12, -2.08E-12, -2.4470000000000004E-12, 1.95E-12, 1.396424004376894E-06, 1.338935574640077E-14, 2.4470000000000004E-12
DataValue, 0.25, 3, 0, 1.9280000000000003E-12, -2.069E-12, -3.9000000000000005E-13, 1.9280000000000003E-12, 1.3885243966167826E-06, 2.5104551657823747E-14, 3.9000000000000005E-13
DataValue, 0.3, 3, 0, 1.906E-12, -1.988E-12, -4.4400000000000003E-13, 1.906E-12, 1.3805795884337853E-06, 4.584158737310141E-14, 4.4400000000000003E-13
DataValue, 0.35000000000000003, 3, 0, 1.8690000000000002E-12, -1.6300000000000001E-12, 1.3700000000000002E-13, 1.8690000000000002E-12, 1.3671137480107498E-06, 6.4152973495734416E-16, 1.3700000000000002E-13
DataValue, 0.4, 3, 0, 1.913E-12, -1.41E-12, -1.88E-13, 1.913E-12, 1.3831124321616085E-06, 6.5124359685443068E-15, 1.88E-13
DataValue, 0.45, 3, 0, 1.847E-12, -1.18E-12, 1.827E-12, 1.847E-12, 1.3590437814875576E-06, 1.7952120134566977E-13, 1.827E-12
DataValue, 0.5, 3, 0, 2.0320000000000002E-12, -1.508E-12, -9.8000000000000012E-14, 2.0320000000000002E-12, 1.4254823744964371E-06, 4.1386688070610017E-13, 9.8000000000000012E-14
DataValue, 0.55, 3, 0, 2.026E-12, -1.3610000000000002E-12, -1.6700000000000002E-13, 2.026E-12, 1.4233762678926469E-06, 3.0795774185512597E-16, 1.6700000000000002E-13
DataValue, 0.6, 3, 0, 2.027E-12, -1.6050000000000001E-12, -1.54E-13, 2.027E-12, 1.4237275020171523E-06, 2.9991130986682341E-14, 1.54E-13
DataValue, 0.65, 3, 0, 1.977E-12, -1.926E-12, -1.81E-13, 1.977E-12, 1.4060583202698244E-06, 4.9819621496708937E-13, 1.81E-13
DataValue, 0.70000000000000007, 3, 0, 1.831E-12, -2.26E-12, -1.898E-12, 1.831E-12, 1.3531444860028808E-06, 7.56338509471228E-13, 1.898E-12
DataValue, 0.75, 3, 0, 1.74E-12, -1.8400000000000002E-12, -3.9000000000000005E-13, 1.74E-12, 1.3190905958272919E-06, 1.0787171660804476E-14, 3.9000000000000005E-13
DataValue, 0.8, 3, 0, 1.803E-12, -1.6800000000000001E-12, 1.6600000000000003E-13, 1.803E-12, 1.3427583550289307E-06, 2.4191323392517949E-15, 1.6600000000000003E-13
DataValue, 0.85000000000000009, 3, 0, 1.7530000000000001E-12, -1.224E-12, 2E-13, 1.7530000000000001E-12, 1.3240090634130871E-06, 1.0249188273223117E-13, 2E-13
DataValue, 0.9, 3, 0, 1.8900000000000002E-12, -9.0600000000000008E-13, -3.3500000000000004E-13, 1.8900000000000002E-12, 1.374772708486752E-06, 1.7954728899030997E-13, 3.3500000000000004E-13
DataValue, 0.95000000000000007, 3, 0, 1.867E-12, -1.2380000000000002E-12, -6.6000000000000009E-14, 1.867E-12, 1.3663820841916804E-06, 5.1642814181962966E-14, 6.6000000000000009E-14
DataValue, 1, 3, 0, 1.9530000000000003E-12, -1.061E-12, 3.7E-14, 1.9530000000000003E-12, 1.3974977638622539E-06, 9.2415584914005293E-14, 3.7E-14
DataValue, 1.05, 3, 0, 1.951E-12, -1.003E-12, 9.97E-13, 1.951E-12, 1.3967820159208809E-06, 8.3647408375493388E-14, 9.97E-13
DataValue, 1.1, 3, 0, 1.873E-12, -1.1080000000000001E-12, 4.2000000000000004E-14, 1.873E-12, 1.3685759021698432E-06, 1.2781206973319953E-15, 4.2000000000000004E-14
DataValue, 1.1500000000000001, 3, 0, 1.9610000000000002E-12, -1.2230000000000001E-12, 2.48E-13, 1.9610000000000002E-12, 1.4003570973148242E-06, 1.3351135084448043E-17, 2.48E-13
DataValue, 1.2, 3, 0, 1.872E-12, -1.186E-12, 1.9700000000000002E-13, 1.872E-12, 1.3682105101189657E-06, 1.6168478348098897E-13, 1.9700000000000002E-13
DataValue, 1.25, 3, 0, 1.85E-12, -9.84E-13, -1.356E-12, 1.85E-12, 1.3601470508735443E-06, 1.6652136676608284E-13, 1.356E-12
DataValue, 1.3, 3, 0, 1.7620000000000002E-12, -9.17E-13, 1.64E-13, 1.7620000000000002E-12, 1.3274034804836096E-06, 3.4350733251621191E-13, 1.64E-13
DataValue, 1.35, 3, 0, 1.694E-12, -1.1880000000000002E-12, 6.1E-14, 1.694E-12, 1.3015375522819157E-06, 4.857990511747197E-14, 6.1E-14
DataValue, 1.4000000000000001, 3, 0, 1.821E-12, -1.65E-12, 1.1300000000000001E-13, 1.821E-12, 1.3494443300855355E-06, 2.5500429754651625E-13, 1.1300000000000001E-13
DataValue, 1.4500000000000002, 3, 0, 1.8280000000000003E-12, -1.613E-12, -3.9000000000000005E-13, 1.8280000000000003E-12, 1.3520355024924457E-06, 6.05199011302685E-14, 3.9000000000000005E-13
DataValue, 1.5, 3, 0, 1.888E-12, -1.8410000000000003E-12, -3.78E-13, 1.888E-12, 1.3740451229854135E-06, 3.3877036744983221E-13, 3.78E-13
DataValue, 1.55, 3, 0, 1.6740000000000001E-12, -1.7310000000000002E-12, 1.5000000000000002E-14, 1.6740000000000001E-12, 1.2938315191708695E-06, 1.6448627521415434E-12, 1.5000000000000002E-14
DataValue, 1.6, 3, 0, 1.552E-12, -1.636E-12, 1.487E-12, 1.552E-12, 1.2457929201917949E-06, 3.2375908230864088E-13, 1.487E-12
DataValue, 1.6500000000000001, 3, 0, 1.5300000000000001E-12, -2.0360000000000002E-12, -5.2000000000000006E-14, 1.5300000000000001E-12, 1.2369316876852982E-06, 1.4358976037321306E-14, 5.2000000000000006E-14
DataValue, 1.7000000000000002, 3, 0, 1.5820000000000001E-12, -1.6930000000000002E-12, 3.5E-13, 1.5820000000000001E-12, 1.25777581468241E-06, 1.8681882696737386E-14, 3.5E-13
DataValue, 1.75, 3, 0, 1.5640000000000002E-12, -1.5740000000000002E-12, 1.9600000000000002E-13, 1.5640000000000002E-12, 1.2505998560690786E-06, 1.1400984676479905E-12, 1.9600000000000002E-13
DataValue, 1.8, 3, 0, 1.8620000000000003E-12, -1.423E-12, -1.2170000000000002E-12, 1.8620000000000003E-12, 1.364551208273255E-06, 2.4403742203957558E-13, 1.2170000000000002E-12
DataValue, 1.85, 3, 0, 1.69E-12, -1.4550000000000002E-12, 7.7E-14, 1.69E-12, 1.3E-06, 1.1064155384916109E-12, 7.7E-14
DataValue, 1.9000000000000001, 3, 0, 1.5860000000000001E-12, -1.833E-12, 2E-13, 1.5860000000000001E-12, 1.2593649193144933E-06, 4.7175429484276431E-14, 2E-13
DataValue, 1.9500000000000002, 3, 0, 1.6340000000000001E-12, -2.147E-12, 2.6000000000000003E-14, 1.6340000000000001E-12, 1.2782800945019836E-06, 2.2492999898823165E-14, 2.6000000000000003E-14
DataValue, 2, 3, 0, 1.6240000000000002E-12, -1.784E-12, -2.05E-13, 1.6240000000000002E-12, 1.2743625857659193E-06, 1.8575429082984776E-15, 2.05E-13
DataValue, 2.05, 3, 0, 1.623E-12, -1.926E-12, 7.4600000000000005E-13, 1.623E-12, 1.2739701723352868E-06, 2.6729479707679717E-11, 7.4600000000000005E-13
DataValue, 2.1, 3, 0, 3.209E-12, -1.2555E-11, -1.519E-12, 3.209E-12, 1.7913681921927719E-06, 6.76432814238876E-11, 1.519E-12
DataValue, 2.15, 3, 0, 4.3950000000000006E-12, -3.0550000000000002E-12, 8.21E-13, 4.3950000000000006E-12, 2.0964255293236628E-06, 1.3267287371417561E-10, 8.21E-13
DataValue, 2.2, 3, 0, 4.09E-13, -1.22E-13, -6.54E-13, 4.09E-13, 6.3953107821277928E-07, 3.7973058915422121E-11, 6.54E-13
DataValue, 2.25, 3, 0, 2.1910000000000003E-12, -3.2610000000000003E-12, 6.6900000000000008E-13, 2.1910000000000003E-12, 1.4802026888233923E-06, 2.8053619234700264E-11, 6.6900000000000008E-13
DataValue, 2.3000000000000003, 3, 0, 1.3670000000000001E-12, 3.8770000000000005E-12, 5.6E-14, 1.3670000000000001E-12, 1.1691877522451218E-06, 6.1431622211358431E-11, 5.6E-14
DataValue, 2.35, 3, 0, 4.8500000000000005E-13, -1.057E-12, -3.699E-12, 4.8500000000000005E-13, 6.96419413859206E-07, 1.0054146910080427E-11, 3.699E-12
DataValue, 2.4, 3, 0, 2.209E-12, -4.46E-13, 5.61E-13, 2.209E-12, 1.4862705002791382E-06, 9.46845363870324E-13, 5.61E-13
