
SetupTitle, Transfer stab
PrimitiveTest, I/V Sweep
TestParameter, Context.MainFrame, 4155C
TestParameter, Channel.UnitType, SMU, SMU, SMU
TestParameter, Channel.Unit, SMU1:MP, SMU4:MP, SMU3:MP
TestParameter, Channel.IName, ID, IS, IG
TestParameter, Channel.VName, VD, VS, VG
TestParameter, Channel.Mode, V, COMMON, V
TestParameter, Channel.Func, CONST, CONST, VAR1
TestParameter, Channel.Index, 
TestParameter, Channel.Time, 
TestParameter, Measurement.Port.Unit, SMU1:MP, SMU4:MP, SMU3:MP
TestParameter, Measurement.Port.SeriesResistor, NONE, NONE, NONE
TestParameter, Measurement.Port.Filter, ON, ON, ON
TestParameter, Measurement.Primary.Locus, Single
TestParameter, Measurement.Primary.Scale, LINEAR
TestParameter, Measurement.Primary.Start, -2
TestParameter, Measurement.Primary.Stop, 3
TestParameter, Measurement.Primary.Step, 0.05
TestParameter, Measurement.Primary.Compliance, 0.1
TestParameter, Measurement.Primary.PowerCompliance, 0
TestParameter, Measurement.Aborting.Condition, CONTINUE AT ANY
TestParameter, Measurement.PostOutput.Value, START
TestParameter, Measurement.PostOutput.Retention, OFF
TestParameter, Measurement.Bias.Source, 3, 0, -2
TestParameter, Measurement.Bias.Compliance, 0.1, 0.1, 0.1
TestParameter, Measurement.Monitor.Unit, SMU1:MP, SMU4:MP, SMU3:MP
TestParameter, Measurement.Monitor.Adc, HR ADC, HR ADC, HR ADC
TestParameter, Measurement.Monitor.RangingMode, AUTO, AUTO, AUTO
TestParameter, Measurement.Monitor.RangeBoundary, , , 
TestParameter, Measurement.Monitor.RangeRating, BY FULL RANGE, BY FULL RANGE, BY FULL RANGE
TestParameter, Measurement.Monitor.RangeRatingCoeff, 50, 50, 50
TestParameter, Measurement.Timing.Hold, 0.5
TestParameter, Measurement.Timing.Delay, 0.05
TestParameter, Measurement.Adc.HighResolution.AutoZero, OFF
TestParameter, Measurement.Adc.HighResolution.Mode, AUTO
TestParameter, Measurement.Adc.HighResolution.Coeff, 1
TestParameter, Measurement.Ag16440ASelector.SemiconductorRelay.Channel1, DEFAULT
TestParameter, Measurement.Ag16440ASelector.SemiconductorRelay.Channel3, DEFAULT
TestParameter, Function.User.Name, absID, sqrtID, gm2, absIG
TestParameter, Function.User.Unit, A, A, A/V, A
TestParameter, Function.User.Definition, abs(ID), sqrt(abs(ID)), (delta(sqrtID)/delta(VG))^2, abs(IG)
TestParameter, Output.Graph.Enabled, true
TestParameter, Output.Graph.XAxis.Data, VG
TestParameter, Output.Graph.XAxis.Scale, Linear
TestParameter, Output.Graph.XAxis.Left, -5
TestParameter, Output.Graph.XAxis.Right, 7
TestParameter, Output.Graph.YAxis.Data, ID, absIG, gm2
TestParameter, Output.Graph.YAxis.Scale, Log, Log, Linear
TestParameter, Output.Graph.YAxis.Bottom, 1E-14, 1E-14, 0
TestParameter, Output.Graph.YAxis.Top, 0.01, 0.01, 1E-05
TestParameter, Output.Graph.YAxis.Group, , , 
TestParameter, Output.List.Data, VG, IG, VD, ID, VS, IS, sqrtID, gm2, absIG
TestParameter, AutoAnalysis.Interpolation, false
TestParameter, AutoAnalysis.Line1.Enabled, false
TestParameter, AutoAnalysis.Line1.Type, 1
TestParameter, AutoAnalysis.Line1.Fix, True
TestParameter, AutoAnalysis.Line1.YAxis, 0
TestParameter, AutoAnalysis.Line1.Point1.Type, 0
TestParameter, AutoAnalysis.Line1.Point1.XY.X, 
TestParameter, AutoAnalysis.Line1.Point1.XY.Y, 
TestParameter, AutoAnalysis.Line1.Point1.Data.Var, 
TestParameter, AutoAnalysis.Line1.Point1.Data.Condition, 
TestParameter, AutoAnalysis.Line1.Point1.Data.Start, false
TestParameter, AutoAnalysis.Line1.Point1.Data.StartVar, 
TestParameter, AutoAnalysis.Line1.Point1.Data.StartCondition, 
TestParameter, AutoAnalysis.Line1.Point2.Type, 0
TestParameter, AutoAnalysis.Line1.Point2.XY.X, 
TestParameter, AutoAnalysis.Line1.Point2.XY.Y, 
TestParameter, AutoAnalysis.Line1.Point2.Data.Var, 
TestParameter, AutoAnalysis.Line1.Point2.Data.Condition, 
TestParameter, AutoAnalysis.Line1.Point2.Data.Start, false
TestParameter, AutoAnalysis.Line1.Point2.Data.StartVar, 
TestParameter, AutoAnalysis.Line1.Point2.Data.StartCondition, 
TestParameter, AutoAnalysis.Line1.GradientExpr, 0
TestParameter, AutoAnalysis.Line2.Enabled, false
TestParameter, AutoAnalysis.Line2.Type, 1
TestParameter, AutoAnalysis.Line2.Fix, True
TestParameter, AutoAnalysis.Line2.YAxis, 0
TestParameter, AutoAnalysis.Line2.Point1.Type, 0
TestParameter, AutoAnalysis.Line2.Point1.XY.X, 
TestParameter, AutoAnalysis.Line2.Point1.XY.Y, 
TestParameter, AutoAnalysis.Line2.Point1.Data.Var, 
TestParameter, AutoAnalysis.Line2.Point1.Data.Condition, 
TestParameter, AutoAnalysis.Line2.Point1.Data.Start, false
TestParameter, AutoAnalysis.Line2.Point1.Data.StartVar, 
TestParameter, AutoAnalysis.Line2.Point1.Data.StartCondition, 
TestParameter, AutoAnalysis.Line2.Point2.Type, 0
TestParameter, AutoAnalysis.Line2.Point2.XY.X, 
TestParameter, AutoAnalysis.Line2.Point2.XY.Y, 
TestParameter, AutoAnalysis.Line2.Point2.Data.Var, 
TestParameter, AutoAnalysis.Line2.Point2.Data.Condition, 
TestParameter, AutoAnalysis.Line2.Point2.Data.Start, false
TestParameter, AutoAnalysis.Line2.Point2.Data.StartVar, 
TestParameter, AutoAnalysis.Line2.Point2.Data.StartCondition, 
TestParameter, AutoAnalysis.Line2.GradientExpr, 0
TestParameter, AutoAnalysis.Marker.Enabled, false
TestParameter, AutoAnalysis.Marker.Data.Var, 
TestParameter, AutoAnalysis.Marker.Data.Condition, 
TestParameter, AutoAnalysis.Marker.Data.Start, false
TestParameter, AutoAnalysis.Marker.Data.StartVar, 
TestParameter, AutoAnalysis.Marker.Data.StartCondition, 
MetaData, TestRecord.EntryPoint, true
MetaData, TestRecord.RecordTime, 04/23/2019 16:24:03
MetaData, TestRecord.TestTarget, 41
MetaData, TestRecord.IterationIndex, 3
MetaData, TestRecord.Preservation, true
MetaData, TestRecord.Flag, 
MetaData, TestRecord.Remarks, 250-180-G41
MetaData, TestRecord.LinkKey, 97da80dd-2039-4076-886c-6206409fa795
Dimension1, 101, 101, 101, 101, 101, 101, 101, 101, 101, 101
Dimension2, 1, 1, 1, 1, 1, 1, 1, 1, 1, 1
DataName, VG, VD, VS, ID, IS, IG, absID, sqrtID, gm2, absIG
DataValue, -2, 3, 0, 1.406E-12, 1.0350000000000001E-12, -1.406E-12, 1.406E-12, 1.1857487086225311E-06, 1.2063525137811459E-11, 1.406E-12
DataValue, -1.9500000000000002, 3, 0, 1.8480000000000002E-12, 3.4410000000000004E-12, -4.5100000000000005E-13, 1.8480000000000002E-12, 1.3594116374373143E-06, 2.598256489077685E-11, 4.5100000000000005E-13
DataValue, -1.9000000000000001, 3, 0, 4.5700000000000007E-13, 2.094E-12, -5.7900000000000006E-13, 4.5700000000000007E-13, 6.7601775124622283E-07, 4.9837848712788479E-11, 5.7900000000000006E-13
DataValue, -1.85, 3, 0, 4.2700000000000005E-13, -4.24E-13, -5.59E-13, 4.2700000000000005E-13, 6.5345237010818166E-07, 6.340565550339559E-13, 5.59E-13
DataValue, -1.8, 3, 0, 5.7100000000000009E-13, 2.6500000000000003E-13, -1.4930000000000002E-12, 5.7100000000000009E-13, 7.5564541949250246E-07, 2.5827033350579182E-13, 1.4930000000000002E-12
DataValue, -1.75, 3, 0, 4.96E-13, 5.2800000000000007E-13, -6.6500000000000009E-13, 4.96E-13, 7.0427267446636041E-07, 1.0989055779823104E-13, 6.6500000000000009E-13
DataValue, -1.7000000000000002, 3, 0, 5.22E-13, 4.36E-13, -7.79E-13, 5.22E-13, 7.2249567472753772E-07, 1.1346739233165254E-11, 7.79E-13
DataValue, -1.6500000000000001, 3, 0, -1.35E-13, -1.4800000000000002E-12, 6.170000000000001E-13, 1.35E-13, 3.674234614174767E-07, 4.0000662251946009E-12, 6.170000000000001E-13
DataValue, -1.6, 3, 0, -2.73E-13, 2.7930000000000003E-12, -8.3200000000000009E-13, 2.73E-13, 5.2249401910452522E-07, 5.41333607456186E-11, 8.3200000000000009E-13
DataValue, -1.55, 3, 0, 1.2170000000000002E-12, 8.0800000000000009E-13, -9.1E-14, 1.2170000000000002E-12, 1.1031772296417291E-06, 1.044178448526602E-10, 9.1E-14
DataValue, -1.5, 3, 0, -2.385E-12, -1.5340000000000001E-12, -1.863E-12, 2.385E-12, 1.5443445211480502E-06, 2.2457355254230404E-11, 1.863E-12
DataValue, -1.4500000000000002, 3, 0, 3.9600000000000003E-13, -2.6770000000000004E-12, 5.4E-13, 3.9600000000000003E-13, 6.29285308902091E-07, 6.5199033393968389E-11, 5.4E-13
DataValue, -1.4000000000000001, 3, 0, 5.43E-13, -1.37E-12, 4.5800000000000007E-13, 5.43E-13, 7.3688533707762162E-07, 6.3734251711131796E-12, 4.5800000000000007E-13
DataValue, -1.35, 3, 0, 1.42E-13, -1E-13, -1.6510000000000001E-12, 1.42E-13, 3.7682887362833545E-07, 4.5530078866382739E-12, 1.6510000000000001E-12
DataValue, -1.3, 3, 0, 9.0300000000000009E-13, -2.0280000000000002E-12, -2.215E-12, 9.0300000000000009E-13, 9.502631214563681E-07, 1.6675990789984444E-12, 2.215E-12
DataValue, -1.25, 3, 0, 2.56E-13, 1.147E-12, 1.981E-12, 2.56E-13, 5.0596442562694067E-07, 4.0604117789547752E-11, 1.981E-12
DataValue, -1.2, 3, 0, -9.8000000000000012E-14, 2.04E-12, 2.0100000000000003E-13, 9.8000000000000012E-14, 3.1304951684997057E-07, 7.6267827426010456E-13, 2.0100000000000003E-13
DataValue, -1.1500000000000001, 3, 0, 3.52E-13, 9.0800000000000007E-13, -1.222E-12, 3.52E-13, 5.9329587896765306E-07, 1.4258353407854635E-11, 1.222E-12
DataValue, -1.1, 3, 0, 4.77E-13, 3.9300000000000004E-13, -1.8740000000000003E-12, 4.77E-13, 6.9065186599328028E-07, 1.2952390670058119E-13, 1.8740000000000003E-12
DataValue, -1.05, 3, 0, 3.9600000000000003E-13, -5.5500000000000006E-13, -6.0000000000000009E-14, 3.9600000000000003E-13, 6.29285308902091E-07, 1.5523909410486676E-11, 6.0000000000000009E-14
DataValue, -1, 3, 0, 8.8E-14, 5.022E-12, -2.38E-13, 8.8E-14, 2.9664793948382653E-07, 1.9155886217714174E-13, 2.38E-13
DataValue, -0.95000000000000007, 3, 0, -4.5300000000000004E-13, 5.0500000000000007E-13, -8.770000000000001E-13, 4.5300000000000004E-13, 6.7305274681855365E-07, 1.1161849528066889E-10, 8.770000000000001E-13
DataValue, -0.9, 3, 0, -1.831E-12, -5.377E-12, 1.5140000000000002E-12, 1.831E-12, 1.3531444860028808E-06, 1.1718911330060009E-11, 1.5140000000000002E-12
DataValue, -0.85000000000000009, 3, 0, 1.0310000000000002E-12, 3.9770000000000005E-12, -3.3200000000000005E-13, 1.0310000000000002E-12, 1.015381701627521E-06, 7.0448354918037788E-11, 3.3200000000000005E-13
DataValue, -0.8, 3, 0, 2.6400000000000004E-13, -7.52E-13, -1.228E-12, 2.6400000000000004E-13, 5.1380930314660524E-07, 3.2536733126784253E-11, 1.228E-12
DataValue, -0.75, 3, 0, -1.9800000000000002E-13, 2.75E-12, -2.1290000000000003E-12, 1.9800000000000002E-13, 4.4497190922573977E-07, 5.5366016043651342E-13, 2.1290000000000003E-12
DataValue, -0.70000000000000007, 3, 0, 3.4600000000000004E-13, -1.239E-12, -2.93E-13, 3.4600000000000004E-13, 5.8821764679410979E-07, 8.6655890300921412E-11, 2.93E-13
DataValue, -0.65, 3, 0, 1.893E-12, 5.2680000000000006E-12, 5.14E-13, 1.893E-12, 1.3758633653092155E-06, 1.4226763716093715E-11, 5.14E-13
DataValue, -0.6, 3, 0, 9.32E-13, 3.0650000000000004E-12, -2.38E-13, 9.32E-13, 9.6540147089177359E-07, 5.9012847597509166E-11, 2.38E-13
DataValue, -0.55, 3, 0, 4.5970000000000007E-12, -5.8670000000000007E-12, -1.9500000000000003E-13, 4.5970000000000007E-12, 2.1440615662802223E-06, 4.7270781925201327E-10, 1.9500000000000003E-13
DataValue, -0.5, 3, 0, 9.857E-12, -8.3830000000000009E-12, 2.67E-13, 9.857E-12, 3.139585959963511E-06, 5.538930830778397E-10, 2.67E-13
DataValue, -0.45, 3, 0, 2.0228000000000003E-11, -2.1981E-11, -1.2100000000000002E-13, 2.0228000000000003E-11, 4.497554891271479E-06, 1.5382086071665148E-09, 1.2100000000000002E-13
DataValue, -0.4, 3, 0, 4.9866E-11, -5.0462000000000004E-11, -2.95E-13, 4.9866E-11, 7.0615862240717558E-06, 3.7833229099079638E-09, 2.95E-13
DataValue, -0.35000000000000003, 3, 0, 1.1338900000000001E-10, -1.0764700000000001E-10, -6.55E-13, 1.1338900000000001E-10, 1.064842711389809E-05, 7.36766242456511E-09, 6.55E-13
DataValue, -0.3, 3, 0, 2.44769E-10, -2.3591300000000004E-10, 1.3200000000000002E-13, 2.44769E-10, 1.564509507801087E-05, 1.4530730683487218E-08, 1.3200000000000002E-13
DataValue, -0.25, 3, 0, 5.15416E-10, -4.9545000000000008E-10, -5.8E-14, 5.15416E-10, 2.2702775160759532E-05, 2.3282321029422731E-08, 5.8E-14
DataValue, -0.2, 3, 0, 9.550350000000001E-10, -9.0130400000000012E-10, -1.1120000000000001E-12, 9.550350000000001E-10, 3.0903640562237969E-05, 4.5182531448222666E-08, 1.1120000000000001E-12
DataValue, -0.15, 3, 0, 1.93239E-09, -1.83282E-09, 7.5700000000000011E-13, 1.93239E-09, 4.3958958131420722E-05, 1.0007572587858086E-07, 7.5700000000000011E-13
DataValue, -0.1, 3, 0, 3.91105E-09, -3.82845E-09, -1.153E-12, 3.91105E-09, 6.2538388210762192E-05, 1.7377620926604924E-07, 1.153E-12
DataValue, -0.05, 3, 0, 7.33514E-09, -7.19217E-09, -5.63E-13, 7.33514E-09, 8.5645431868839339E-05, 2.0571251159918199E-07, 5.63E-13
DataValue, 0, 3, 0, 1.1641099999999999E-08, -1.1242699999999999E-08, -2.7550000000000003E-12, 1.1641099999999999E-08, 0.00010789392939364105, 3.2126906762028288E-07, 2.7550000000000003E-12
DataValue, 0.05, 3, 0, 2.0256699999999998E-08, -1.99165E-08, -1.147E-12, 2.0256699999999998E-08, 0.00014232603416100654, 5.28272694797961E-07, 1.147E-12
DataValue, 0.1, 3, 0, 3.26078E-08, -3.20222E-08, -3.3E-13, 3.26078E-08, 0.00018057629966305102, 6.4173998680438741E-07, 3.3E-13
DataValue, 0.15, 3, 0, 4.94772E-08, -4.87854E-08, -3.78E-13, 4.94772E-08, 0.00022243470952169311, 7.5528215809067982E-07, 3.78E-13
DataValue, 0.2, 3, 0, 7.1547299999999988E-08, -7.04433E-08, 1.6100000000000002E-12, 7.1547299999999988E-08, 0.00026748327050490466, 8.5724767537363032E-07, 1.6100000000000002E-12
DataValue, 0.25, 3, 0, 9.9239099999999985E-08, -9.7888599999999989E-08, 1.1400000000000002E-13, 9.9239099999999985E-08, 0.00031502238015734688, 8.2018765639550849E-07, 1.1400000000000002E-13
DataValue, 0.3, 3, 0, 1.28198E-07, -1.24978E-07, 1.41E-12, 1.28198E-07, 0.00035804748288460286, 9.4364559132451945E-07, 1.41E-12
DataValue, 0.35000000000000003, 3, 0, 1.69879E-07, -1.67846E-07, -4.643E-12, 1.69879E-07, 0.00041216380238929282, 1.2395502329879738E-06, 4.643E-12
DataValue, 0.4, 3, 0, 2.2032E-07, -2.17655E-07, 1.4E-14, 2.2032E-07, 0.0004693825731745907, 1.3042973797019016E-06, 1.4E-14
DataValue, 0.45, 3, 0, 2.77065E-07, -2.7371E-07, 1.6890000000000002E-12, 2.77065E-07, 0.00052636964198175416, 1.3329069946199688E-06, 1.6890000000000002E-12
DataValue, 0.5, 3, 0, 3.42031E-07, -3.3864199999999997E-07, -3.2100000000000005E-13, 3.42031E-07, 0.00058483416452871488, 1.4192180618203225E-06, 3.2100000000000005E-13
DataValue, 0.55, 3, 0, 4.16671E-07, -4.1238099999999997E-07, 2.0950000000000003E-12, 4.16671E-07, 0.00064550058094474242, 1.5057788366758522E-06, 2.0950000000000003E-12
DataValue, 0.6, 3, 0, 5.00619E-07, -4.96321E-07, -1.6E-14, 5.00619E-07, 0.00070754434490002114, 1.5935306811568149E-06, 1.6E-14
DataValue, 0.65, 3, 0, 5.95576E-07, -5.90504E-07, 7.99E-13, 5.95576E-07, 0.00077173570605486438, 1.7183249382154447E-06, 7.99E-13
DataValue, 0.70000000000000007, 3, 0, 7.03299E-07, -6.96844E-07, 2.5500000000000002E-12, 7.03299E-07, 0.00083862923869848472, 1.8293595768935242E-06, 2.5500000000000002E-12
DataValue, 0.75, 3, 0, 8.2263E-07, -8.1565999999999993E-07, 1.1790000000000001E-12, 8.2263E-07, 0.00090698952584911357, 1.942463662545378E-06, 1.1790000000000001E-12
DataValue, 0.8, 3, 0, 9.56487E-07, -9.48175E-07, 2.59E-13, 9.56487E-07, 0.0009780015337411286, 2.0481151582823289E-06, 2.59E-13
DataValue, 0.85000000000000009, 3, 0, 1.102714E-06, -1.0938029999999999E-06, -7.7E-14, 1.102714E-06, 0.0010501018998173464, 1.6912039925577552E-06, 7.7E-14
DataValue, 0.9, 3, 0, 1.2277700000000002E-06, -1.2134E-06, -2.0960000000000004E-12, 1.2277700000000002E-06, 0.0011080478329025332, 1.9003815840003595E-06, 2.0960000000000004E-12
DataValue, 0.95000000000000007, 3, 0, 1.4112400000000002E-06, -1.4044200000000002E-06, 2.486E-12, 1.4112400000000002E-06, 0.0011879562281498423, 2.4864608522889273E-06, 2.486E-12
DataValue, 1, 3, 0, 1.6020800000000002E-06, -1.5923700000000002E-06, 2.12E-13, 1.6020800000000002E-06, 0.0012657329892200803, 2.3594893460574332E-06, 2.12E-13
DataValue, 1.05, 3, 0, 1.7997900000000003E-06, -1.7906300000000003E-06, -1.0960000000000002E-12, 1.7997900000000003E-06, 0.0013415625218378756, 2.34259022439507E-06, 1.0960000000000002E-12
DataValue, 1.1, 3, 0, 2.01296E-06, -2.0002000000000003E-06, 6.11E-13, 2.01296E-06, 0.0014187882153443481, 2.33714298702973E-06, 6.11E-13
DataValue, 1.1500000000000001, 3, 0, 2.2333500000000004E-06, -2.2211200000000003E-06, 3.3200000000000005E-13, 2.2333500000000004E-06, 0.0014944396943336322, 2.3525141737717639E-06, 3.3200000000000005E-13
DataValue, 1.2, 3, 0, 2.4717100000000003E-06, -2.45523E-06, -7.26E-13, 2.4717100000000003E-06, 0.0015721672938971859, 2.4028636321413157E-06, 7.26E-13
DataValue, 1.25, 3, 0, 2.72069E-06, -2.7064600000000004E-06, 6.1E-13, 2.72069E-06, 0.001649451423958887, 2.4227589033158772E-06, 6.1E-13
DataValue, 1.3, 3, 0, 2.9853600000000004E-06, -2.9698000000000003E-06, 7.350000000000001E-13, 2.9853600000000004E-06, 0.0017278194350104992, 2.5176775829815073E-06, 7.350000000000001E-13
DataValue, 1.35, 3, 0, 3.2693100000000005E-06, -3.2537700000000005E-06, 3.27E-13, 3.2693100000000005E-06, 0.001808123336501136, 2.6294813294521469E-06, 3.27E-13
DataValue, 1.4000000000000001, 3, 0, 3.5720100000000006E-06, -3.5544700000000005E-06, -2.1210000000000004E-12, 3.5720100000000006E-06, 0.0018899761903262168, 2.6549387676534608E-06, 2.1210000000000004E-12
DataValue, 1.4500000000000002, 3, 0, 3.8850900000000004E-06, -3.8699700000000007E-06, -1.2100000000000002E-13, 3.8850900000000004E-06, 0.001971063164893505, 2.6590342817388232E-06, 1.2100000000000002E-13
DataValue, 1.5, 3, 0, 4.2149800000000006E-06, -4.1984800000000008E-06, 5.2E-13, 4.2149800000000006E-06, 0.0020530416459487617, 2.7265502239029759E-06, 5.2E-13
DataValue, 1.55, 3, 0, 4.56329E-06, -4.5465300000000008E-06, 4.73E-13, 4.56329E-06, 0.0021361858533376727, 2.7948839373248132E-06, 4.73E-13
DataValue, 1.6, 3, 0, 4.9293800000000009E-06, -4.9075600000000008E-06, -1.48E-13, 4.9293800000000009E-06, 0.002220220709749371, 2.799168124809862E-06, 1.48E-13
DataValue, 1.6500000000000001, 3, 0, 5.30608E-06, -5.28832E-06, 1.2100000000000002E-13, 5.30608E-06, 0.0023034929997723026, 2.8089918494612138E-06, 1.2100000000000002E-13
DataValue, 1.7000000000000002, 3, 0, 5.701690000000001E-06, -5.68117E-06, -2.71E-13, 5.701690000000001E-06, 0.0023878211825846592, 2.8523989381080384E-06, 2.71E-13
DataValue, 1.75, 3, 0, 6.11268E-06, -6.0911700000000007E-06, 1.6200000000000002E-13, 6.11268E-06, 0.0024723834654033746, 2.8480112979265612E-06, 1.6200000000000002E-13
DataValue, 1.8, 3, 0, 6.5361100000000007E-06, -6.514840000000001E-06, 1.174E-12, 6.5361100000000007E-06, 0.0025565817021953358, 2.9384377855378306E-06, 1.174E-12
DataValue, 1.85, 3, 0, 6.98969E-06, -6.9667800000000011E-06, 1.9E-14, 6.98969E-06, 0.0026438021862461645, 2.9311761292172979E-06, 1.9E-14
DataValue, 1.9000000000000001, 3, 0, 7.44083E-06, -7.4176900000000011E-06, -1.036E-12, 7.44083E-06, 0.0027277884815359128, 2.8043144683931965E-06, 1.036E-12
DataValue, 1.9500000000000002, 3, 0, 7.9032E-06, -7.88094E-06, -1.546E-12, 7.9032E-06, 0.002811263061330263, 2.8340670125943875E-06, 1.546E-12
DataValue, 2, 3, 0, 8.3876E-06, -8.363750000000001E-06, -2.2E-14, 8.3876E-06, 0.0028961353559528256, 2.8965643226754955E-06, 2.2E-14
DataValue, 2.05, 3, 0, 8.8890800000000013E-06, -8.8643300000000012E-06, 9.0000000000000008E-14, 8.8890800000000013E-06, 0.0029814560201351288, 2.8251668182342188E-06, 9.0000000000000008E-14
DataValue, 2.1, 3, 0, 9.38943E-06, -9.36664E-06, 2.002E-12, 9.38943E-06, 0.0030642176815624572, 2.7632028371333421E-06, 2.002E-12
DataValue, 2.15, 3, 0, 9.90792E-06, -9.8858100000000018E-06, -1.1080000000000001E-12, 9.90792E-06, 0.0031476848635147705, 2.7863799163068869E-06, 1.1080000000000001E-12
DataValue, 2.2, 3, 0, 1.0440280000000001E-05, -1.041611E-05, 2.7700000000000003E-13, 1.0440280000000001E-05, 0.0032311422129024281, 2.7519573397741149E-06, 2.7700000000000003E-13
DataValue, 2.25, 3, 0, 1.0979780000000002E-05, -1.095284E-05, -4E-15, 1.0979780000000002E-05, 0.0033135751085496767, 2.5016009334389611E-06, 4E-15
DataValue, 2.3000000000000003, 3, 0, 1.1487400000000001E-05, -1.14607E-05, -9.7E-14, 1.1487400000000001E-05, 0.0033893067137690564, 2.5709553406568374E-06, 9.7E-14
DataValue, 2.35, 3, 0, 1.20681E-05, -1.20441E-05, 6.7E-14, 1.20681E-05, 0.0034739170974564144, 2.8288686043235024E-06, 6.7E-14
