
SetupTitle, Transfer stab
PrimitiveTest, I/V Sweep
TestParameter, Context.MainFrame, 4155C
TestParameter, Channel.UnitType, SMU, SMU, SMU
TestParameter, Channel.Unit, SMU3:MP, SMU4:MP, SMU1:MP
TestParameter, Channel.IName, ID, IS, IG
TestParameter, Channel.VName, VD, VS, VG
TestParameter, Channel.Mode, V, COMMON, V
TestParameter, Channel.Func, CONST, CONST, VAR1
TestParameter, Channel.Index, 
TestParameter, Channel.Time, 
TestParameter, Measurement.Port.Unit, SMU3:MP, SMU4:MP, SMU1:MP
TestParameter, Measurement.Port.SeriesResistor, NONE, NONE, NONE
TestParameter, Measurement.Port.Filter, ON, ON, ON
TestParameter, Measurement.Primary.Locus, Single
TestParameter, Measurement.Primary.Scale, LINEAR
TestParameter, Measurement.Primary.Start, -2
TestParameter, Measurement.Primary.Stop, 3
TestParameter, Measurement.Primary.Step, 0.05
TestParameter, Measurement.Primary.Compliance, 0.1
TestParameter, Measurement.Primary.PowerCompliance, 0
TestParameter, Measurement.Aborting.Condition, CONTINUE AT ANY
TestParameter, Measurement.PostOutput.Value, START
TestParameter, Measurement.PostOutput.Retention, OFF
TestParameter, Measurement.Bias.Source, 3, 0, -2
TestParameter, Measurement.Bias.Compliance, 0.1, 0.1, 0.1
TestParameter, Measurement.Monitor.Unit, SMU3:MP, SMU4:MP, SMU1:MP
TestParameter, Measurement.Monitor.Adc, HR ADC, HR ADC, HR ADC
TestParameter, Measurement.Monitor.RangingMode, AUTO, AUTO, AUTO
TestParameter, Measurement.Monitor.RangeBoundary, , , 
TestParameter, Measurement.Monitor.RangeRating, BY FULL RANGE, BY FULL RANGE, BY FULL RANGE
TestParameter, Measurement.Monitor.RangeRatingCoeff, 50, 50, 50
TestParameter, Measurement.Timing.Hold, 0.5
TestParameter, Measurement.Timing.Delay, 0.05
TestParameter, Measurement.Adc.HighResolution.AutoZero, OFF
TestParameter, Measurement.Adc.HighResolution.Mode, AUTO
TestParameter, Measurement.Adc.HighResolution.Coeff, 1
TestParameter, Measurement.Ag16440ASelector.SemiconductorRelay.Channel1, DEFAULT
TestParameter, Measurement.Ag16440ASelector.SemiconductorRelay.Channel3, DEFAULT
TestParameter, Function.User.Name, absID, sqrtID, gm2, absIG
TestParameter, Function.User.Unit, A, A, A/V, A
TestParameter, Function.User.Definition, abs(ID), sqrt(abs(ID)), (delta(sqrtID)/delta(VG))^2, abs(IG)
TestParameter, Output.Graph.Enabled, true
TestParameter, Output.Graph.XAxis.Data, VG
TestParameter, Output.Graph.XAxis.Scale, Linear
TestParameter, Output.Graph.XAxis.Left, -5
TestParameter, Output.Graph.XAxis.Right, 7
TestParameter, Output.Graph.YAxis.Data, ID, absIG, gm2
TestParameter, Output.Graph.YAxis.Scale, Log, Log, Linear
TestParameter, Output.Graph.YAxis.Bottom, 1E-14, 1E-14, 0
TestParameter, Output.Graph.YAxis.Top, 0.01, 0.01, 1E-05
TestParameter, Output.Graph.YAxis.Group, , , 
TestParameter, Output.List.Data, VG, IG, VD, ID, VS, IS, sqrtID, gm2, absIG
TestParameter, AutoAnalysis.Interpolation, false
TestParameter, AutoAnalysis.Line1.Enabled, false
TestParameter, AutoAnalysis.Line1.Type, 1
TestParameter, AutoAnalysis.Line1.Fix, True
TestParameter, AutoAnalysis.Line1.YAxis, 0
TestParameter, AutoAnalysis.Line1.Point1.Type, 0
TestParameter, AutoAnalysis.Line1.Point1.XY.X, 
TestParameter, AutoAnalysis.Line1.Point1.XY.Y, 
TestParameter, AutoAnalysis.Line1.Point1.Data.Var, 
TestParameter, AutoAnalysis.Line1.Point1.Data.Condition, 
TestParameter, AutoAnalysis.Line1.Point1.Data.Start, false
TestParameter, AutoAnalysis.Line1.Point1.Data.StartVar, 
TestParameter, AutoAnalysis.Line1.Point1.Data.StartCondition, 
TestParameter, AutoAnalysis.Line1.Point2.Type, 0
TestParameter, AutoAnalysis.Line1.Point2.XY.X, 
TestParameter, AutoAnalysis.Line1.Point2.XY.Y, 
TestParameter, AutoAnalysis.Line1.Point2.Data.Var, 
TestParameter, AutoAnalysis.Line1.Point2.Data.Condition, 
TestParameter, AutoAnalysis.Line1.Point2.Data.Start, false
TestParameter, AutoAnalysis.Line1.Point2.Data.StartVar, 
TestParameter, AutoAnalysis.Line1.Point2.Data.StartCondition, 
TestParameter, AutoAnalysis.Line1.GradientExpr, 0
TestParameter, AutoAnalysis.Line2.Enabled, false
TestParameter, AutoAnalysis.Line2.Type, 1
TestParameter, AutoAnalysis.Line2.Fix, True
TestParameter, AutoAnalysis.Line2.YAxis, 0
TestParameter, AutoAnalysis.Line2.Point1.Type, 0
TestParameter, AutoAnalysis.Line2.Point1.XY.X, 
TestParameter, AutoAnalysis.Line2.Point1.XY.Y, 
TestParameter, AutoAnalysis.Line2.Point1.Data.Var, 
TestParameter, AutoAnalysis.Line2.Point1.Data.Condition, 
TestParameter, AutoAnalysis.Line2.Point1.Data.Start, false
TestParameter, AutoAnalysis.Line2.Point1.Data.StartVar, 
TestParameter, AutoAnalysis.Line2.Point1.Data.StartCondition, 
TestParameter, AutoAnalysis.Line2.Point2.Type, 0
TestParameter, AutoAnalysis.Line2.Point2.XY.X, 
TestParameter, AutoAnalysis.Line2.Point2.XY.Y, 
TestParameter, AutoAnalysis.Line2.Point2.Data.Var, 
TestParameter, AutoAnalysis.Line2.Point2.Data.Condition, 
TestParameter, AutoAnalysis.Line2.Point2.Data.Start, false
TestParameter, AutoAnalysis.Line2.Point2.Data.StartVar, 
TestParameter, AutoAnalysis.Line2.Point2.Data.StartCondition, 
TestParameter, AutoAnalysis.Line2.GradientExpr, 0
TestParameter, AutoAnalysis.Marker.Enabled, false
TestParameter, AutoAnalysis.Marker.Data.Var, 
TestParameter, AutoAnalysis.Marker.Data.Condition, 
TestParameter, AutoAnalysis.Marker.Data.Start, false
TestParameter, AutoAnalysis.Marker.Data.StartVar, 
TestParameter, AutoAnalysis.Marker.Data.StartCondition, 
MetaData, TestRecord.EntryPoint, true
MetaData, TestRecord.RecordTime, 05/27/2019 09:55:52
MetaData, TestRecord.TestTarget, 250-300-G21-2
MetaData, TestRecord.IterationIndex, 1
MetaData, TestRecord.Preservation, true
MetaData, TestRecord.Flag, 
MetaData, TestRecord.Remarks, BAD
MetaData, TestRecord.LinkKey, 44168232-01fc-40c8-8119-c0708fdd5d68
Dimension1, 101, 101, 101, 101, 101, 101, 101, 101, 101, 101
Dimension2, 1, 1, 1, 1, 1, 1, 1, 1, 1, 1
DataName, VG, VD, VS, ID, IS, IG, absID, sqrtID, gm2, absIG
DataValue, -2, 3, 0, 5.887E-12, 9.882E-12, -1.5472E-11, 5.887E-12, 2.426314076948819E-06, 4.0207977146162496E-11, 1.5472E-11
DataValue, -1.9500000000000002, 3, 0, 4.449E-12, -1.6155E-11, -1.0391000000000001E-11, 4.449E-12, 2.1092652749239485E-06, 3.1870149469983067E-10, 1.0391000000000001E-11
DataValue, -1.9000000000000001, 3, 0, 4.11E-13, -6.2610000000000009E-12, 4.456E-12, 4.11E-13, 6.4109281699298422E-07, 6.0483986403945848E-12, 4.456E-12
DataValue, -1.85, 3, 0, 3.472E-12, 7.8860000000000009E-12, -4.412E-12, 3.472E-12, 1.8633303518163387E-06, 5.1533199976424343E-10, 4.412E-12
DataValue, -1.8, 3, 0, 8.475E-12, 6.4200000000000009E-13, -1.3175E-11, 8.475E-12, 2.9111853256019272E-06, 2.8964723819774055E-11, 1.3175E-11
DataValue, -1.75, 3, 0, 1.7560000000000002E-12, -1.5381E-11, 8.665E-12, 1.7560000000000002E-12, 1.3251415018781956E-06, 2.2977584969426278E-10, 8.665E-12
DataValue, -1.7000000000000002, 3, 0, 1.947E-12, 1.2475000000000001E-11, -1.4590000000000001E-12, 1.947E-12, 1.39534941860453E-06, 2.5712026508069361E-11, 1.4590000000000001E-12
DataValue, -1.6500000000000001, 3, 0, 3.3570000000000003E-12, 4.636E-12, -8.32E-12, 3.3570000000000003E-12, 1.8322117781522965E-06, 1.4250730167289656E-11, 8.32E-12
DataValue, -1.6, 3, 0, 3.1430000000000002E-12, -7.663E-12, 2.042E-12, 3.1430000000000002E-12, 1.7728508115461944E-06, 3.4491224947553277E-11, 2.042E-12
DataValue, -1.55, 3, 0, -5.8540000000000007E-12, 6.4780000000000005E-12, -2.2800000000000004E-13, 5.8540000000000007E-12, 2.4195040814183392E-06, 1.1800186567187366E-11, 2.2800000000000004E-13
DataValue, -1.5, 3, 0, 4.4790000000000006E-12, 3.53E-12, -8.267000000000001E-12, 4.4790000000000006E-12, 2.1163648078722158E-06, 1.9198306045067853E-10, 8.267000000000001E-12
DataValue, -1.4500000000000002, 3, 0, 1.069E-12, -4.602E-12, 6.4600000000000007E-13, 1.069E-12, 1.0339245620450265E-06, 1.1938754922111956E-10, 6.4600000000000007E-13
DataValue, -1.4000000000000001, 3, 0, 1.0480000000000002E-12, 1.873E-12, -9.65E-13, 1.0480000000000002E-12, 1.0237187113655782E-06, 3.4370150583563633E-11, 9.65E-13
DataValue, -1.35, 3, 0, 2.6250000000000002E-12, -2.825E-12, -4.899E-12, 2.6250000000000002E-12, 1.6201851746019651E-06, 6.9037206033463995E-12, 4.899E-12
DataValue, -1.3, 3, 0, 1.6550000000000001E-12, -7.5000000000000009E-14, -1.904E-12, 1.6550000000000001E-12, 1.2864680330268608E-06, 4.6236174186837548E-12, 1.904E-12
DataValue, -1.25, 3, 0, 3.368E-12, 1.52E-13, -4.12E-12, 3.368E-12, 1.8352111595127141E-06, 1.6616228408676309E-14, 4.12E-12
DataValue, -1.2, 3, 0, 1.6220000000000002E-12, -2.114E-12, -3.665E-12, 1.6220000000000002E-12, 1.2735776379946376E-06, 2.4653845600741206E-11, 3.665E-12
DataValue, -1.1500000000000001, 3, 0, -5.437E-12, -4.6110000000000004E-12, 3.868E-12, 5.437E-12, 2.33173754955398E-06, 8.4141729862836555E-12, 3.868E-12
DataValue, -1.1, 3, 0, -2.445E-12, 3.63E-13, 3.3990000000000004E-12, 2.445E-12, 1.5636495771111891E-06, 1.5731191058891729E-10, 3.3990000000000004E-12
DataValue, -1.05, 3, 0, 1.161E-12, 2.7130000000000003E-12, -1.393E-12, 1.161E-12, 1.0774970997640782E-06, 3.0924179049238718E-13, 1.393E-12
DataValue, -1, 3, 0, -2.6220000000000003E-12, -1.567E-12, -1.7890000000000002E-12, 2.6220000000000003E-12, 1.6192590898309017E-06, 1.794329536244399E-10, 1.7890000000000002E-12
DataValue, -0.95000000000000007, 3, 0, 5.842E-12, -9.8500000000000014E-13, -1.7250000000000002E-12, 5.842E-12, 2.4170229622409465E-06, 9.4958078398189E-12, 1.7250000000000002E-12
DataValue, -0.9, 3, 0, 1.719E-12, -2.407E-12, -5.15E-13, 1.719E-12, 1.3111064030047295E-06, 1.2537685419847567E-10, 5.15E-13
DataValue, -0.85000000000000009, 3, 0, 1.6830000000000002E-12, -2.67E-12, 1.5380000000000001E-12, 1.6830000000000002E-12, 1.2973048986263792E-06, 6.1852325404374893E-12, 1.5380000000000001E-12
DataValue, -0.8, 3, 0, -2.4330000000000002E-12, -1.354E-12, 4.2600000000000005E-13, 2.4330000000000002E-12, 1.5598076804529462E-06, 1.2153702038807797E-11, 4.2600000000000005E-13
DataValue, -0.75, 3, 0, 9.000000000000001E-13, -1.839E-12, -1.2060000000000001E-12, 9.000000000000001E-13, 9.4868329805051386E-07, 6.128481694195054E-12, 1.2060000000000001E-12
DataValue, -0.70000000000000007, 3, 0, 1.7220000000000001E-12, -2.5430000000000004E-12, -5.1000000000000004E-14, 1.7220000000000001E-12, 1.31224997618594E-06, 1.9054010866206681E-14, 5.1000000000000004E-14
DataValue, -0.65, 3, 0, 8.7400000000000011E-13, -2.428E-12, 1.019E-12, 8.7400000000000011E-13, 9.348796714016195E-07, 4.6212048630028486E-11, 1.019E-12
DataValue, -0.6, 3, 0, 4E-13, -1.114E-12, -1.88E-13, 4E-13, 6.3245553203367584E-07, 2.1465775772722279E-10, 1.88E-13
DataValue, -0.55, 3, 0, 5.7600000000000005E-12, -2.001E-12, -5.45E-13, 5.7600000000000005E-12, 2.4000000000000003E-06, 1.7097316731670196E-11, 5.45E-13
DataValue, -0.5, 3, 0, 1.0940000000000002E-12, -2.152E-12, 3.53E-13, 1.0940000000000002E-12, 1.0459445491994307E-06, 3.4520689901190831E-11, 3.53E-13
DataValue, -0.45, 3, 0, -3.2850000000000002E-12, -1.4860000000000001E-12, 7.9200000000000006E-13, 3.2850000000000002E-12, 1.8124568960391858E-06, 9.9800405251088242E-13, 7.9200000000000006E-13
DataValue, -0.4, 3, 0, 8.95E-13, -3.246E-12, 4.2700000000000005E-13, 8.95E-13, 9.4604439642122507E-07, 9.6155973363755714E-11, 4.2700000000000005E-13
DataValue, -0.35000000000000003, 3, 0, 6.9200000000000008E-13, -1.057E-12, 9.2000000000000012E-14, 6.9200000000000008E-13, 8.31865373723417E-07, 1.861328869635469E-14, 9.2000000000000012E-14
DataValue, -0.3, 3, 0, 9.21E-13, -2.11E-12, 1.7E-13, 9.21E-13, 9.5968744912080617E-07, 7.7261000563872088E-11, 1.7E-13
DataValue, -0.25, 3, 0, -2.9270000000000004E-12, -1.955E-12, 9.67E-13, 2.9270000000000004E-12, 1.7108477430794361E-06, 3.1971853427575904E-14, 9.67E-13
DataValue, -0.2, 3, 0, 8.8700000000000006E-13, 1.2000000000000001E-14, 1.81E-13, 8.8700000000000006E-13, 9.4180677423768839E-07, 1.6565491135240694E-11, 1.81E-13
DataValue, -0.15, 3, 0, 1.7000000000000002E-12, -2.602E-12, -1.6070000000000001E-12, 1.7000000000000002E-12, 1.3038404810405298E-06, 6.8393726294749676E-12, 1.6070000000000001E-12
DataValue, -0.1, 3, 0, 1.448E-12, -3.5070000000000003E-12, 8.1000000000000008E-14, 1.448E-12, 1.2033287165193059E-06, 1.8519403811474762E-11, 8.1000000000000008E-14
DataValue, -0.05, 3, 0, -7.6300000000000008E-13, -1.985E-12, 1.7540000000000002E-12, 7.6300000000000008E-13, 8.7349871207689828E-07, 9.4936595980087767E-13, 1.7540000000000002E-12
DataValue, 0, 3, 0, 1.2230000000000001E-12, -2.595E-12, 1.809E-12, 1.2230000000000001E-12, 1.1058933040759402E-06, 2.9608633945872798E-12, 1.809E-12
DataValue, 0.05, 3, 0, 4.92E-13, -3.6800000000000005E-13, 3.7E-14, 4.92E-13, 7.0142711667000727E-07, 6.1436700175721162E-11, 3.7E-14
DataValue, 0.1, 3, 0, -3.5710000000000004E-12, -2.1000000000000003E-12, 4.5100000000000005E-13, 3.5710000000000004E-12, 1.8897089723023491E-06, 1.1313736911753937E-11, 4.5100000000000005E-13
DataValue, 0.15, 3, 0, 1.0770000000000002E-12, -1.964E-12, 2.6400000000000004E-13, 1.0770000000000002E-12, 1.0377861051295687E-06, 1.0085606982943799E-10, 2.6400000000000004E-13
DataValue, 0.2, 3, 0, 7.8400000000000009E-13, -1.571E-12, 1.241E-12, 7.8400000000000009E-13, 8.8543774484714628E-07, 7.9977345409454539E-12, 1.241E-12
DataValue, 0.25, 3, 0, 5.7E-13, -1.0330000000000001E-12, 1.145E-12, 5.7E-13, 7.54983443527075E-07, 9.9911175011171338E-13, 1.145E-12
DataValue, 0.3, 3, 0, -9.71E-13, -1.6030000000000001E-12, 5.7600000000000007E-13, 9.71E-13, 9.85393322486001E-07, 1.1054296526028881E-10, 5.7600000000000007E-13
DataValue, 0.35000000000000003, 3, 0, 3.263E-12, -2.4960000000000003E-12, 7.07E-13, 3.263E-12, 1.8063775906493084E-06, 2.8457207776071559E-12, 7.07E-13
DataValue, 0.4, 3, 0, 6.6700000000000009E-13, -1.013E-12, 9.1200000000000015E-13, 6.6700000000000009E-13, 8.1670067956381676E-07, 6.8661329512251232E-12, 9.1200000000000015E-13
DataValue, 0.45, 3, 0, -2.385E-12, -2.612E-12, 8.060000000000001E-13, 2.385E-12, 1.5443445211480502E-06, 5.0668742019337895E-11, 8.060000000000001E-13
DataValue, 0.5, 3, 0, -1.1E-14, -1.6700000000000002E-12, 7.120000000000001E-13, 1.1E-14, 1.0488088481701516E-07, 4.7360592951806808E-11, 7.120000000000001E-13
DataValue, 0.55, 3, 0, 7.33E-13, -2.1990000000000002E-12, 6.8E-13, 7.33E-13, 8.561541917201597E-07, 1.0918195696164387E-10, 6.8E-13
DataValue, 0.6, 3, 0, 1.322E-12, -2.1830000000000003E-12, -3.2E-14, 1.322E-12, 1.1497825881443847E-06, 2.8601485582381445E-10, 3.2E-14
DataValue, 0.65, 3, 0, -6.489E-12, -1.519E-12, 1.368E-12, 6.489E-12, 2.5473515658424538E-06, 3.2335932807650095E-11, 1.368E-12
DataValue, 0.70000000000000007, 3, 0, 2.953E-12, -2.365E-12, 1.0750000000000002E-12, 2.953E-12, 1.7184295155751953E-06, 3.2533765032666568E-10, 1.0750000000000002E-12
DataValue, 0.75, 3, 0, 5.5300000000000007E-13, -2.666E-12, 1.1060000000000001E-12, 5.5300000000000007E-13, 7.4363969770312837E-07, 7.5365915745613309E-11, 1.1060000000000001E-12
DataValue, 0.8, 3, 0, 7.23E-13, -1.815E-12, 1.212E-12, 7.23E-13, 8.5029406677925263E-07, 3.2872544541545383E-11, 1.212E-12
DataValue, 0.85000000000000009, 3, 0, 2.9E-14, -1.8610000000000002E-12, 1.168E-12, 2.9E-14, 1.7029386365926402E-07, 1.3665551937998634E-11, 1.168E-12
DataValue, 0.9, 3, 0, 2.3100000000000003E-13, -1.954E-12, 7.53E-13, 2.3100000000000003E-13, 4.806245936279167E-07, 3.3181109386914645E-11, 7.53E-13
DataValue, 0.95000000000000007, 3, 0, 5.57E-13, -1.31E-12, 9.11E-13, 5.57E-13, 7.4632432628181167E-07, 1.9378700046941064E-10, 9.11E-13
DataValue, 1, 3, 0, -3.5070000000000003E-12, -2.491E-12, 5.3200000000000006E-13, 3.5070000000000003E-12, 1.8726985876002577E-06, 1.5426900792164964E-11, 5.3200000000000006E-13
DataValue, 1.05, 3, 0, -1.25E-13, -2.4550000000000003E-12, 5.5600000000000005E-13, 1.25E-13, 3.5355339059327374E-07, 1.2732568267503528E-10, 5.5600000000000005E-13
DataValue, 1.1, 3, 0, 5.5400000000000006E-13, -2.6130000000000003E-12, 1.8820000000000003E-12, 5.5400000000000006E-13, 7.4431176263713587E-07, 2.4787318678997843E-10, 1.8820000000000003E-12
DataValue, 1.1500000000000001, 3, 0, -3.7170000000000004E-12, -2.244E-12, 1.074E-12, 3.7170000000000004E-12, 1.9279522815671555E-06, 3.2543032669333422E-12, 1.074E-12
DataValue, 1.2, 3, 0, 3.18E-13, -1.8490000000000003E-12, 8.8600000000000006E-13, 3.18E-13, 5.6391488719486736E-07, 2.4184145242803893E-10, 8.8600000000000006E-13
DataValue, 1.25, 3, 0, 1.3900000000000001E-13, -1.6680000000000002E-12, 6.9100000000000008E-13, 1.3900000000000001E-13, 3.72827037646145E-07, 1.6984662817207714E-12, 6.9100000000000008E-13
DataValue, 1.3, 3, 0, 1.88E-13, -1.1770000000000001E-12, -5.5100000000000008E-13, 1.88E-13, 4.33589667773576E-07, 3.3647343469789906E-11, 5.5100000000000008E-13
DataValue, 1.35, 3, 0, -9.0800000000000007E-13, -5.364E-12, 1.4470000000000002E-12, 9.0800000000000007E-13, 9.5289033996572769E-07, 4.0197220289540867E-13, 1.4470000000000002E-12
DataValue, 1.4000000000000001, 3, 0, -2.47E-13, 3.2300000000000004E-13, 4.2450000000000006E-12, 2.47E-13, 4.9699094559156711E-07, 8.4873392330672113E-11, 4.2450000000000006E-12
DataValue, 1.4500000000000002, 3, 0, 1E-15, 9.54E-13, -1.2790000000000001E-12, 1E-15, 3.1622776601683792E-08, 5.6310968227024372E-11, 1.2790000000000001E-12
DataValue, 1.5, 3, 0, 1.556E-12, -4.08E-12, -1.6200000000000002E-13, 1.556E-12, 1.2473972903610142E-06, 1.535625874810364E-10, 1.6200000000000002E-13
DataValue, 1.55, 3, 0, -1.615E-12, -2.4680000000000004E-12, 2.971E-12, 1.615E-12, 1.2708265027138836E-06, 1.6099234136380404E-11, 2.971E-12
DataValue, 1.6, 3, 0, -2.7180000000000003E-12, -1.8360000000000003E-12, 2.8760000000000003E-12, 2.7180000000000003E-12, 1.6486357996840904E-06, 2.118495200592746E-11, 2.8760000000000003E-12
DataValue, 1.6500000000000001, 3, 0, 6.57E-13, -6.33E-13, 6.4E-14, 6.57E-13, 8.1055536516637781E-07, 4.4282569006447864E-11, 6.4E-14
DataValue, 1.7000000000000002, 3, 0, -5.3550000000000005E-12, -3.3390000000000002E-12, 4.21E-12, 5.3550000000000005E-12, 2.314087293081227E-06, 8.8058225324242929E-12, 4.21E-12
DataValue, 1.75, 3, 0, 2.6400000000000004E-13, 4.1400000000000005E-13, -4.4100000000000004E-13, 2.6400000000000004E-13, 5.1380930314660524E-07, 4.2729251992979758E-10, 4.4100000000000004E-13
DataValue, 1.8, 3, 0, 6.1E-14, -2.0950000000000003E-12, -5.89E-13, 6.1E-14, 2.4698178070456937E-07, 4.5295239067005718E-12, 5.89E-13
DataValue, 1.85, 3, 0, 5.2800000000000007E-13, -3.046E-12, 2.56E-13, 5.2800000000000007E-13, 7.26636084983398E-07, 1.7690083440754939E-10, 2.56E-13
DataValue, 1.9000000000000001, 3, 0, -2.4870000000000002E-12, -2.7380000000000002E-12, 1.3000000000000001E-12, 2.4870000000000002E-12, 1.5770225109363532E-06, 4.4484678985223217E-12, 1.3000000000000001E-12
DataValue, 1.9500000000000002, 3, 0, 8.7900000000000009E-13, -3.004E-12, 1.565E-12, 8.7900000000000009E-13, 9.3754999866673777E-07, 2.7951364738942332E-11, 1.565E-12
DataValue, 2, 3, 0, -1.099E-12, -6.9500000000000007E-13, 1.356E-12, 1.099E-12, 1.0483320084782302E-06, 6.7113517628971034E-11, 1.356E-12
DataValue, 2.05, 3, 0, 1.4E-14, 4.5470000000000007E-12, -2E-12, 1.4E-14, 1.1832159566199232E-07, 8.2560034565996839E-12, 2E-12
DataValue, 2.1, 3, 0, 1.784E-12, -4.113E-12, 6.2600000000000006E-13, 1.784E-12, 1.33566462856512E-06, 1.0971304656182548E-10, 6.2600000000000006E-13
DataValue, 2.15, 3, 0, 1.3590000000000002E-12, -2.09E-12, -2.8060000000000004E-12, 1.3590000000000002E-12, 1.165761553663527E-06, 9.1682773746256362E-11, 2.8060000000000004E-12
DataValue, 2.2, 3, 0, 1.4300000000000002E-13, -1.387E-12, 1.565E-12, 1.4300000000000002E-13, 3.7815340802378078E-07, 4.0560541175279905E-12, 1.565E-12
DataValue, 2.25, 3, 0, -9.3E-13, -5.708E-12, 8.651000000000001E-12, 9.3E-13, 9.6436507609929553E-07, 6.3182921599051652E-11, 8.651000000000001E-12
DataValue, 2.3000000000000003, 3, 0, -1.3760000000000002E-12, 5.779E-12, 2.444E-12, 1.3760000000000002E-12, 1.1730302638892146E-06, 3.8514259265381875E-12, 2.444E-12
DataValue, 2.35, 3, 0, -5.9E-13, -4.9870000000000005E-12, 4.685E-12, 5.9E-13, 7.6811457478686082E-07, 7.6998334127267431E-12, 4.685E-12
