
SetupTitle, Transfer stab
PrimitiveTest, I/V Sweep
TestParameter, Context.MainFrame, 4155C
TestParameter, Channel.UnitType, SMU, SMU, SMU
TestParameter, Channel.Unit, SMU3:MP, SMU4:MP, SMU1:MP
TestParameter, Channel.IName, ID, IS, IG
TestParameter, Channel.VName, VD, VS, VG
TestParameter, Channel.Mode, V, COMMON, V
TestParameter, Channel.Func, CONST, CONST, VAR1
TestParameter, Channel.Index, 
TestParameter, Channel.Time, 
TestParameter, Measurement.Port.Unit, SMU3:MP, SMU4:MP, SMU1:MP
TestParameter, Measurement.Port.SeriesResistor, NONE, NONE, NONE
TestParameter, Measurement.Port.Filter, ON, ON, ON
TestParameter, Measurement.Primary.Locus, Single
TestParameter, Measurement.Primary.Scale, LINEAR
TestParameter, Measurement.Primary.Start, -2
TestParameter, Measurement.Primary.Stop, 3
TestParameter, Measurement.Primary.Step, 0.05
TestParameter, Measurement.Primary.Compliance, 0.1
TestParameter, Measurement.Primary.PowerCompliance, 0
TestParameter, Measurement.Aborting.Condition, CONTINUE AT ANY
TestParameter, Measurement.PostOutput.Value, START
TestParameter, Measurement.PostOutput.Retention, OFF
TestParameter, Measurement.Bias.Source, 3, 0, -2
TestParameter, Measurement.Bias.Compliance, 0.1, 0.1, 0.1
TestParameter, Measurement.Monitor.Unit, SMU3:MP, SMU4:MP, SMU1:MP
TestParameter, Measurement.Monitor.Adc, HR ADC, HR ADC, HR ADC
TestParameter, Measurement.Monitor.RangingMode, AUTO, AUTO, AUTO
TestParameter, Measurement.Monitor.RangeBoundary, , , 
TestParameter, Measurement.Monitor.RangeRating, BY FULL RANGE, BY FULL RANGE, BY FULL RANGE
TestParameter, Measurement.Monitor.RangeRatingCoeff, 50, 50, 50
TestParameter, Measurement.Timing.Hold, 0.5
TestParameter, Measurement.Timing.Delay, 0.05
TestParameter, Measurement.Adc.HighResolution.AutoZero, OFF
TestParameter, Measurement.Adc.HighResolution.Mode, AUTO
TestParameter, Measurement.Adc.HighResolution.Coeff, 1
TestParameter, Measurement.Ag16440ASelector.SemiconductorRelay.Channel1, DEFAULT
TestParameter, Measurement.Ag16440ASelector.SemiconductorRelay.Channel3, DEFAULT
TestParameter, Function.User.Name, absID, sqrtID, gm2, absIG
TestParameter, Function.User.Unit, A, A, A/V, A
TestParameter, Function.User.Definition, abs(ID), sqrt(abs(ID)), (delta(sqrtID)/delta(VG))^2, abs(IG)
TestParameter, Output.Graph.Enabled, true
TestParameter, Output.Graph.XAxis.Data, VG
TestParameter, Output.Graph.XAxis.Scale, Linear
TestParameter, Output.Graph.XAxis.Left, -5
TestParameter, Output.Graph.XAxis.Right, 7
TestParameter, Output.Graph.YAxis.Data, ID, absIG, gm2
TestParameter, Output.Graph.YAxis.Scale, Log, Log, Linear
TestParameter, Output.Graph.YAxis.Bottom, 1E-14, 1E-14, 0
TestParameter, Output.Graph.YAxis.Top, 0.01, 0.01, 1E-05
TestParameter, Output.Graph.YAxis.Group, , , 
TestParameter, Output.List.Data, VG, IG, VD, ID, VS, IS, sqrtID, gm2, absIG
TestParameter, AutoAnalysis.Interpolation, false
TestParameter, AutoAnalysis.Line1.Enabled, false
TestParameter, AutoAnalysis.Line1.Type, 1
TestParameter, AutoAnalysis.Line1.Fix, True
TestParameter, AutoAnalysis.Line1.YAxis, 0
TestParameter, AutoAnalysis.Line1.Point1.Type, 0
TestParameter, AutoAnalysis.Line1.Point1.XY.X, 
TestParameter, AutoAnalysis.Line1.Point1.XY.Y, 
TestParameter, AutoAnalysis.Line1.Point1.Data.Var, 
TestParameter, AutoAnalysis.Line1.Point1.Data.Condition, 
TestParameter, AutoAnalysis.Line1.Point1.Data.Start, false
TestParameter, AutoAnalysis.Line1.Point1.Data.StartVar, 
TestParameter, AutoAnalysis.Line1.Point1.Data.StartCondition, 
TestParameter, AutoAnalysis.Line1.Point2.Type, 0
TestParameter, AutoAnalysis.Line1.Point2.XY.X, 
TestParameter, AutoAnalysis.Line1.Point2.XY.Y, 
TestParameter, AutoAnalysis.Line1.Point2.Data.Var, 
TestParameter, AutoAnalysis.Line1.Point2.Data.Condition, 
TestParameter, AutoAnalysis.Line1.Point2.Data.Start, false
TestParameter, AutoAnalysis.Line1.Point2.Data.StartVar, 
TestParameter, AutoAnalysis.Line1.Point2.Data.StartCondition, 
TestParameter, AutoAnalysis.Line1.GradientExpr, 0
TestParameter, AutoAnalysis.Line2.Enabled, false
TestParameter, AutoAnalysis.Line2.Type, 1
TestParameter, AutoAnalysis.Line2.Fix, True
TestParameter, AutoAnalysis.Line2.YAxis, 0
TestParameter, AutoAnalysis.Line2.Point1.Type, 0
TestParameter, AutoAnalysis.Line2.Point1.XY.X, 
TestParameter, AutoAnalysis.Line2.Point1.XY.Y, 
TestParameter, AutoAnalysis.Line2.Point1.Data.Var, 
TestParameter, AutoAnalysis.Line2.Point1.Data.Condition, 
TestParameter, AutoAnalysis.Line2.Point1.Data.Start, false
TestParameter, AutoAnalysis.Line2.Point1.Data.StartVar, 
TestParameter, AutoAnalysis.Line2.Point1.Data.StartCondition, 
TestParameter, AutoAnalysis.Line2.Point2.Type, 0
TestParameter, AutoAnalysis.Line2.Point2.XY.X, 
TestParameter, AutoAnalysis.Line2.Point2.XY.Y, 
TestParameter, AutoAnalysis.Line2.Point2.Data.Var, 
TestParameter, AutoAnalysis.Line2.Point2.Data.Condition, 
TestParameter, AutoAnalysis.Line2.Point2.Data.Start, false
TestParameter, AutoAnalysis.Line2.Point2.Data.StartVar, 
TestParameter, AutoAnalysis.Line2.Point2.Data.StartCondition, 
TestParameter, AutoAnalysis.Line2.GradientExpr, 0
TestParameter, AutoAnalysis.Marker.Enabled, false
TestParameter, AutoAnalysis.Marker.Data.Var, 
TestParameter, AutoAnalysis.Marker.Data.Condition, 
TestParameter, AutoAnalysis.Marker.Data.Start, false
TestParameter, AutoAnalysis.Marker.Data.StartVar, 
TestParameter, AutoAnalysis.Marker.Data.StartCondition, 
MetaData, TestRecord.EntryPoint, true
MetaData, TestRecord.RecordTime, 05/27/2019 10:03:18
MetaData, TestRecord.TestTarget, 250-300-G42-2
MetaData, TestRecord.IterationIndex, 1
MetaData, TestRecord.Preservation, true
MetaData, TestRecord.Flag, 
MetaData, TestRecord.Remarks, BAD
MetaData, TestRecord.LinkKey, 49e63078-40d9-4f33-b5b9-2f1ff0bedddf
Dimension1, 101, 101, 101, 101, 101, 101, 101, 101, 101, 101
Dimension2, 1, 1, 1, 1, 1, 1, 1, 1, 1, 1
DataName, VG, VD, VS, ID, IS, IG, absID, sqrtID, gm2, absIG
DataValue, -2, 3, 0, 3.3240000000000004E-12, 1.4259E-11, -5.1130000000000005E-12, 3.3240000000000004E-12, 1.8231840280125319E-06, 2.9048733651427615E-12, 5.1130000000000005E-12
DataValue, -1.9500000000000002, 3, 0, 3.642E-12, 4.272E-12, -5.9490000000000006E-12, 3.642E-12, 1.90840247327444E-06, 2.6144316433890462E-11, 5.9490000000000006E-12
DataValue, -1.9000000000000001, 3, 0, 1.721E-12, -2.385E-12, 8.8000000000000009E-13, 1.721E-12, 1.3118688958886098E-06, 4.0727593382503357E-12, 8.8000000000000009E-13
DataValue, -1.85, 3, 0, 4.4530000000000005E-12, -4.527E-12, 1.3340000000000002E-12, 4.4530000000000005E-12, 2.110213259365034E-06, 1.0009571385167307E-11, 1.3340000000000002E-12
DataValue, -1.8, 3, 0, 9.9100000000000012E-13, 7.1720000000000005E-12, -7.42E-12, 9.9100000000000012E-13, 9.9548982917958548E-07, 2.51163092387591E-13, 7.42E-12
DataValue, -1.75, 3, 0, 4.244E-12, -4.801E-12, -1.877E-12, 4.244E-12, 2.0600970850908946E-06, 5.9030468292022946E-11, 1.877E-12
DataValue, -1.7000000000000002, 3, 0, 3.1110000000000004E-12, -1.642E-12, -2.265E-12, 3.1110000000000004E-12, 1.7638027100557477E-06, 2.7409674690885916E-11, 2.265E-12
DataValue, -1.6500000000000001, 3, 0, 2.361E-12, 9.5600000000000017E-13, -7.6800000000000006E-13, 2.361E-12, 1.536554587380481E-06, 3.7862541845363243E-11, 7.6800000000000006E-13
DataValue, -1.6, 3, 0, 1.3190000000000001E-12, 4.4740000000000005E-12, -2.9150000000000004E-12, 1.3190000000000001E-12, 1.1484772527133482E-06, 9.17446190564015E-14, 2.9150000000000004E-12
DataValue, -1.55, 3, 0, 2.4550000000000003E-12, 9.16E-12, -1.0021E-11, 2.4550000000000003E-12, 1.56684396159924E-06, 5.6201972481525918E-11, 1.0021E-11
DataValue, -1.5, 3, 0, 3.6030000000000003E-12, -8.4900000000000012E-12, -5.803E-12, 3.6030000000000003E-12, 1.8981570008826983E-06, 4.3586642341476793E-11, 5.803E-12
DataValue, -1.4500000000000002, 3, 0, -8.22E-13, -1.0227000000000002E-11, -2.666E-12, 8.22E-13, 9.06642156531451E-07, 1.0581710132150164E-10, 2.666E-12
DataValue, -1.4000000000000001, 3, 0, 7.56E-13, -1.7578E-11, 6.9830000000000004E-12, 7.56E-13, 8.6948260477136633E-07, 9.2759471449208416E-11, 6.9830000000000004E-12
DataValue, -1.35, 3, 0, 3.4960000000000005E-12, -2.1580000000000003E-12, 6.05E-12, 3.4960000000000005E-12, 1.869759342803239E-06, 1.46165601153822E-11, 6.05E-12
DataValue, -1.3, 3, 0, -1.567E-12, 1.1029E-11, 2.733E-12, 1.567E-12, 1.2517987058628876E-06, 2.7304803516349463E-11, 2.733E-12
DataValue, -1.25, 3, 0, -1.815E-12, 5.1230000000000007E-12, 1.408E-12, 1.815E-12, 1.347219358530748E-06, 9.5166177496378732E-11, 1.408E-12
DataValue, -1.2, 3, 0, 4.961E-12, -9.4300000000000012E-13, -5.68E-13, 4.961E-12, 2.2273302404448247E-06, 5.6460285287409482E-11, 5.68E-13
DataValue, -1.1500000000000001, 3, 0, -3.5500000000000005E-13, 4.56E-12, -6.976E-12, 3.5500000000000005E-13, 5.9581876439064933E-07, 1.8592229379659982E-12, 6.976E-12
DataValue, -1.1, 3, 0, 5.587E-12, -8.9380000000000009E-12, -6.989E-12, 5.587E-12, 2.3636835659622463E-06, 1.6680107540540299E-13, 6.989E-12
DataValue, -1.05, 3, 0, -3.08E-13, -6.1310000000000004E-12, -1.9450000000000003E-12, 3.08E-13, 5.5497747702046433E-07, 4.74297438962921E-11, 1.9450000000000003E-12
DataValue, -1, 3, 0, 9.317E-12, -7.727E-12, 3.0900000000000005E-13, 9.317E-12, 3.0523761236125536E-06, 2.1027065581987206E-13, 3.0900000000000005E-13
DataValue, -0.95000000000000007, 3, 0, -3.6100000000000003E-13, -6.4990000000000005E-12, 1.782E-12, 3.6100000000000003E-13, 6.00832755431992E-07, 1.5075453495558907E-10, 1.782E-12
DataValue, -0.9, 3, 0, -3.3290000000000005E-12, -1.7270000000000002E-12, 1.548E-12, 3.3290000000000005E-12, 1.8245547402037574E-06, 3.8676463818194695E-12, 1.548E-12
DataValue, -0.85000000000000009, 3, 0, 6.36E-13, 3.3160000000000004E-12, -2.4580000000000002E-12, 6.36E-13, 7.9749608149507547E-07, 2.9970000965603105E-11, 2.4580000000000002E-12
DataValue, -0.8, 3, 0, 1.6310000000000002E-12, -1.5550000000000001E-12, -8.69E-13, 1.6310000000000002E-12, 1.2771061036577971E-06, 6.8315913866057186E-13, 8.69E-13
DataValue, -0.75, 3, 0, -5.11E-13, 6.7480000000000007E-12, -3.3640000000000002E-12, 5.11E-13, 7.1484264002646068E-07, 5.7692810507198016E-11, 3.3640000000000002E-12
DataValue, -0.70000000000000007, 3, 0, 4.1480000000000005E-12, 2.307E-12, -1.0802E-11, 4.1480000000000005E-12, 2.0366639388961547E-06, 7.3025937327863174E-11, 1.0802E-11
DataValue, -0.65, 3, 0, 2.4630000000000003E-12, -9.8710000000000011E-12, -6.8E-13, 2.4630000000000003E-12, 1.5693947878083449E-06, 4.2289242177909191E-11, 6.8E-13
DataValue, -0.6, 3, 0, 1.922E-12, -8.4610000000000012E-12, 9.27E-13, 1.922E-12, 1.3863621460498696E-06, 6.1052228633448184E-11, 9.27E-13
DataValue, -0.55, 3, 0, -6.2100000000000008E-13, 2.1950000000000002E-12, 3.6280000000000003E-12, 6.2100000000000008E-13, 7.8803553219382184E-07, 1.7506375182657371E-10, 3.6280000000000003E-12
DataValue, -0.5, 3, 0, -4E-15, 5.535E-12, 6.5100000000000005E-13, 4E-15, 6.3245553203367584E-08, 1.3784483417526905E-11, 6.5100000000000005E-13
DataValue, -0.45, 3, 0, 1.3440000000000001E-12, 2.3960000000000003E-12, -4.651E-12, 1.3440000000000001E-12, 1.1593101396951552E-06, 8.1295082958086181E-11, 4.651E-12
DataValue, -0.4, 3, 0, 9.3100000000000017E-13, -1.935E-12, -2.1500000000000002E-13, 9.3100000000000017E-13, 9.6488341264631561E-07, 1.8956571528523965E-10, 2.1500000000000002E-13
DataValue, -0.35000000000000003, 3, 0, -6.4320000000000009E-12, -5.325E-12, 1.473E-12, 6.4320000000000009E-12, 2.5361387974635775E-06, 8.7187507228404723E-12, 1.473E-12
DataValue, -0.3, 3, 0, -1.588E-12, -1.0500000000000001E-13, 2.4040000000000003E-12, 1.588E-12, 1.2601587201618693E-06, 1.6020111731940433E-10, 2.4040000000000003E-12
DataValue, -0.25, 3, 0, 1.6140000000000002E-12, 7.2260000000000009E-12, 3.539E-12, 1.6140000000000002E-12, 1.2704329970525799E-06, 2.2470345480541468E-11, 3.539E-12
DataValue, -0.2, 3, 0, 6.1800000000000009E-13, -5.062E-12, 1.1655E-11, 6.1800000000000009E-13, 7.8612976028134193E-07, 3.4518312153500264E-11, 1.1655E-11
DataValue, -0.15, 3, 0, -3.4520000000000002E-12, -1.7430000000000002E-12, 5.758E-12, 3.4520000000000002E-12, 1.8579558659989747E-06, 8.843667567066944E-12, 5.758E-12
DataValue, -0.1, 3, 0, -1.174E-12, -8.3800000000000006E-13, 5.0920000000000005E-12, 1.174E-12, 1.0835128056465232E-06, 1.6165615402127088E-10, 5.0920000000000005E-12
DataValue, -0.05, 3, 0, 3.4400000000000005E-13, -3.912E-12, 3.652E-12, 3.4400000000000005E-13, 5.8651513194460728E-07, 3.6177694105164034E-12, 3.652E-12
DataValue, 0, 3, 0, 7.98E-13, 3.97E-13, 1.573E-12, 7.98E-13, 8.933084573650918E-07, 2.4987427352842512E-10, 1.573E-12
DataValue, 0.05, 3, 0, 4.6970000000000007E-12, -6.4900000000000006E-13, 5.9E-13, 4.6970000000000007E-12, 2.1672563300172873E-06, 6.5111114119480372E-12, 5.9E-13
DataValue, 0.1, 3, 0, 1.3190000000000001E-12, -2.002E-12, 1.232E-12, 1.3190000000000001E-12, 1.1484772527133482E-06, 5.5702508529219634E-11, 1.232E-12
DataValue, 0.15, 3, 0, 2.019E-12, -6.36E-13, 1.5660000000000002E-12, 2.019E-12, 1.420915198032592E-06, 2.8905951504544827E-11, 1.5660000000000002E-12
DataValue, 0.2, 3, 0, -2.8430000000000003E-12, -1.024E-12, 5.2900000000000007E-13, 2.8430000000000003E-12, 1.6861198059449989E-06, 2.3669103453054677E-10, 5.2900000000000007E-13
DataValue, 0.25, 3, 0, 8.7580000000000013E-12, -1.7710000000000002E-12, -9.53E-13, 8.7580000000000013E-12, 2.9593918294136044E-06, 5.9313159878896792E-11, 9.53E-13
DataValue, 0.3, 3, 0, 8.3900000000000006E-13, -7.0320000000000007E-12, -2.1250000000000003E-12, 8.3900000000000006E-13, 9.1596943180435886E-07, 4.4408628811026741E-10, 2.1250000000000003E-12
DataValue, 0.35000000000000003, 3, 0, -7.26E-13, -7.2080000000000008E-12, 3.1200000000000003E-13, 7.26E-13, 8.5205633616563175E-07, 4.0738176738298068E-13, 3.1200000000000003E-13
DataValue, 0.4, 3, 0, 9.6000000000000015E-13, -6.815E-12, 8.7300000000000012E-13, 9.6000000000000015E-13, 9.7979589711327135E-07, 1.8300622409318084E-11, 8.7300000000000012E-13
DataValue, 0.45, 3, 0, -1.8000000000000002E-13, -3.0400000000000004E-12, 2.432E-12, 1.8000000000000002E-13, 4.2426406871192855E-07, 9.0968339506648133E-12, 2.432E-12
DataValue, 0.5, 3, 0, 1.642E-12, -4.1900000000000003E-13, 1.95E-12, 1.642E-12, 1.2814054783713078E-06, 3.0975003754881431E-11, 1.95E-12
DataValue, 0.55, 3, 0, 9.6200000000000014E-13, -3.6700000000000005E-13, 5.5500000000000006E-13, 9.6200000000000014E-13, 9.8081598681913842E-07, 4.9602336251035663E-15, 5.5500000000000006E-13
DataValue, 0.6, 3, 0, 1.6240000000000002E-12, -1.0660000000000001E-12, 1.117E-12, 1.6240000000000002E-12, 1.2743625857659193E-06, 1.442226349686592E-12, 1.117E-12
DataValue, 0.65, 3, 0, 1.212E-12, -4.2580000000000006E-12, 3.3750000000000005E-12, 1.212E-12, 1.1009087155618309E-06, 5.0994475168235646E-11, 3.3750000000000005E-12
DataValue, 0.70000000000000007, 3, 0, -3.954E-12, -6.878E-12, 3.8740000000000007E-12, 3.954E-12, 1.9884667460131184E-06, 1.3802323941336094E-10, 3.8740000000000007E-12
DataValue, 0.75, 3, 0, -5.1790000000000004E-12, -2.8090000000000002E-12, 4.031E-12, 5.1790000000000004E-12, 2.2757416373569298E-06, 8.8385332471979355E-11, 4.031E-12
DataValue, 0.8, 3, 0, -1.099E-12, 9.98E-13, -1.6100000000000002E-13, 1.099E-12, 1.0483320084782302E-06, 2.8081100351716787E-10, 1.6100000000000002E-13
DataValue, 0.85000000000000009, 3, 0, 3.6000000000000003E-13, -1.742E-12, 6.410000000000001E-13, 3.6000000000000003E-13, 6.0000000000000008E-07, 1.7627653199139741E-12, 6.410000000000001E-13
DataValue, 0.9, 3, 0, 1.395E-12, -5.84E-13, 3.066E-12, 1.395E-12, 1.1811011811017716E-06, 3.670169316816454E-11, 3.066E-12
DataValue, 0.95000000000000007, 3, 0, -1.454E-12, -6.976E-12, 1.5000000000000002E-14, 1.454E-12, 1.2058192235986288E-06, 1.4333927858768584E-13, 1.5000000000000002E-14
DataValue, 1, 3, 0, -1.3070000000000002E-12, -7.0000000000000009E-12, 7.4090000000000012E-12, 1.3070000000000002E-12, 1.1432410069622241E-06, 2.6914997661224642E-11, 7.4090000000000012E-12
DataValue, 1.05, 3, 0, -4.72E-13, -4.47E-13, 1.5970000000000002E-12, 4.72E-13, 6.8702256149270672E-07, 8.98037342407164E-12, 1.5970000000000002E-12
DataValue, 1.1, 3, 0, 2.0820000000000002E-12, 3.5060000000000002E-12, -1.063E-12, 2.0820000000000002E-12, 1.4429137188342205E-06, 1.0524087015796456E-10, 1.063E-12
DataValue, 1.1500000000000001, 3, 0, -2.9340000000000002E-12, -1.6924E-11, -1.2800000000000002E-12, 2.9340000000000002E-12, 1.7128922908344237E-06, 1.2041751095722437E-11, 1.2800000000000002E-12
DataValue, 1.2, 3, 0, 1.201E-12, -1.0206E-11, 6.8410000000000004E-12, 1.201E-12, 1.0959014554237986E-06, 9.0857304184240243E-11, 6.8410000000000004E-12
DataValue, 1.25, 3, 0, -7.1080000000000008E-12, -1.3845000000000002E-11, 7.401E-12, 7.1080000000000008E-12, 2.6660832695172898E-06, 1.8543349834985993E-10, 7.401E-12
DataValue, 1.3, 3, 0, -6.04E-12, -2.808E-12, 6.5030000000000009E-12, 6.04E-12, 2.4576411454889015E-06, 3.3932171196109338E-10, 6.5030000000000009E-12
DataValue, 1.35, 3, 0, -6.79E-13, -9.51E-13, 6.308E-12, 6.79E-13, 8.2401456297810659E-07, 3.7642105342826807E-12, 6.308E-12
DataValue, 1.4000000000000001, 3, 0, 5.124E-12, 3.154E-12, -2.8340000000000002E-12, 5.124E-12, 2.2636254107073461E-06, 1.753734622649523E-14, 2.8340000000000002E-12
DataValue, 1.4500000000000002, 3, 0, -7.01E-13, -8.6300000000000006E-13, -4.75E-13, 7.01E-13, 8.3725742755737918E-07, 2.7593548617901276E-10, 4.75E-13
DataValue, 1.5, 3, 0, -3.63E-13, -1.946E-12, 1.3000000000000001E-14, 3.63E-13, 6.024948132556827E-07, 1.8893304683057958E-10, 1.3000000000000001E-14
DataValue, 1.55, 3, 0, 4.8920000000000006E-12, -7.128E-12, 1.2800000000000002E-12, 4.8920000000000006E-12, 2.2117866081518805E-06, 2.9473071725142976E-10, 1.2800000000000002E-12
DataValue, 1.6, 3, 0, 5.3790000000000004E-12, 9.256E-12, -2.7430000000000003E-12, 5.3790000000000004E-12, 2.3192671256239546E-06, 5.603584990361149E-11, 2.7430000000000003E-12
DataValue, 1.6500000000000001, 3, 0, -2.1410000000000003E-12, -6.652E-12, -1.5620000000000002E-12, 2.1410000000000003E-12, 1.4632156368765338E-06, 8.7098483436226309E-11, 1.5620000000000002E-12
DataValue, 1.7000000000000002, 3, 0, -1.921E-12, -1.9715000000000003E-11, 3.723E-12, 1.921E-12, 1.3860014430006918E-06, 3.1196323500922107E-14, 3.723E-12
DataValue, 1.75, 3, 0, -2.193E-12, -6.3800000000000007E-12, 1.8084000000000003E-11, 2.193E-12, 1.4808781178746615E-06, 1.5400164790079391E-10, 1.8084000000000003E-11
DataValue, 1.8, 3, 0, -6.9010000000000006E-12, 1.1310000000000001E-12, 1.5600000000000002E-13, 6.9010000000000006E-12, 2.6269754471635248E-06, 4.1610877791435677E-14, 1.5600000000000002E-13
DataValue, 1.85, 3, 0, 2.1330000000000003E-12, -3.1680000000000002E-12, 9.614E-12, 2.1330000000000003E-12, 1.4604793733565702E-06, 4.4450273395866812E-10, 9.614E-12
DataValue, 1.9000000000000001, 3, 0, -2.69E-13, 7.81E-12, -3.058E-12, 2.69E-13, 5.1865209919559758E-07, 2.7513240993642807E-11, 3.058E-12
DataValue, 1.9500000000000002, 3, 0, 8.760000000000001E-13, -2.2240000000000002E-12, -1.592E-12, 8.760000000000001E-13, 9.3594871654380724E-07, 2.516446721445587E-11, 1.592E-12
DataValue, 2, 3, 0, -1.0410000000000001E-12, -1.5820000000000001E-12, 1.2170000000000002E-12, 1.0410000000000001E-12, 1.0202940752547767E-06, 6.01374553728234E-11, 1.2170000000000002E-12
DataValue, 2.05, 3, 0, 2.929E-12, -4.102E-12, -3.376E-12, 2.929E-12, 1.7114321488157221E-06, 4.2302176520913218E-12, 3.376E-12
DataValue, 2.1, 3, 0, 1.5030000000000002E-12, -8.443E-12, 1.975E-12, 1.5030000000000002E-12, 1.2259690045021531E-06, 7.0117380183941716E-11, 1.975E-12
DataValue, 2.15, 3, 0, 7.6400000000000008E-13, -1.126E-12, 3.564E-12, 7.6400000000000008E-13, 8.7407093533648632E-07, 1.1925708098762415E-11, 3.564E-12
DataValue, 2.2, 3, 0, -2.469E-12, -1.441E-12, 1.8490000000000003E-12, 2.469E-12, 1.5713051899615173E-06, 1.5844213668039622E-13, 1.8490000000000003E-12
DataValue, 2.25, 3, 0, 6.9600000000000006E-13, -3.0530000000000004E-12, 2.7270000000000004E-12, 6.9600000000000006E-13, 8.3426614458456847E-07, 1.3848729602778142E-11, 2.7270000000000004E-12
