
SetupTitle, Transfer stab
PrimitiveTest, I/V Sweep
TestParameter, Context.MainFrame, 4155C
TestParameter, Channel.UnitType, SMU, SMU, SMU
TestParameter, Channel.Unit, SMU1:MP, SMU4:MP, SMU3:MP
TestParameter, Channel.IName, ID, IS, IG
TestParameter, Channel.VName, VD, VS, VG
TestParameter, Channel.Mode, V, COMMON, V
TestParameter, Channel.Func, CONST, CONST, VAR1
TestParameter, Channel.Index, 
TestParameter, Channel.Time, 
TestParameter, Measurement.Port.Unit, SMU1:MP, SMU4:MP, SMU3:MP
TestParameter, Measurement.Port.SeriesResistor, NONE, NONE, NONE
TestParameter, Measurement.Port.Filter, ON, ON, ON
TestParameter, Measurement.Primary.Locus, Single
TestParameter, Measurement.Primary.Scale, LINEAR
TestParameter, Measurement.Primary.Start, -2
TestParameter, Measurement.Primary.Stop, 3
TestParameter, Measurement.Primary.Step, 0.05
TestParameter, Measurement.Primary.Compliance, 0.1
TestParameter, Measurement.Primary.PowerCompliance, 0
TestParameter, Measurement.Aborting.Condition, CONTINUE AT ANY
TestParameter, Measurement.PostOutput.Value, START
TestParameter, Measurement.PostOutput.Retention, OFF
TestParameter, Measurement.Bias.Source, 3, 0, -2
TestParameter, Measurement.Bias.Compliance, 0.1, 0.1, 0.1
TestParameter, Measurement.Monitor.Unit, SMU1:MP, SMU4:MP, SMU3:MP
TestParameter, Measurement.Monitor.Adc, HR ADC, HR ADC, HR ADC
TestParameter, Measurement.Monitor.RangingMode, AUTO, AUTO, AUTO
TestParameter, Measurement.Monitor.RangeBoundary, , , 
TestParameter, Measurement.Monitor.RangeRating, BY FULL RANGE, BY FULL RANGE, BY FULL RANGE
TestParameter, Measurement.Monitor.RangeRatingCoeff, 50, 50, 50
TestParameter, Measurement.Timing.Hold, 0.5
TestParameter, Measurement.Timing.Delay, 0.05
TestParameter, Measurement.Adc.HighResolution.AutoZero, OFF
TestParameter, Measurement.Adc.HighResolution.Mode, AUTO
TestParameter, Measurement.Adc.HighResolution.Coeff, 1
TestParameter, Measurement.Ag16440ASelector.SemiconductorRelay.Channel1, DEFAULT
TestParameter, Measurement.Ag16440ASelector.SemiconductorRelay.Channel3, DEFAULT
TestParameter, Function.User.Name, absID, sqrtID, gm2, absIG
TestParameter, Function.User.Unit, A, A, A/V, A
TestParameter, Function.User.Definition, abs(ID), sqrt(abs(ID)), (delta(sqrtID)/delta(VG))^2, abs(IG)
TestParameter, Output.Graph.Enabled, true
TestParameter, Output.Graph.XAxis.Data, VG
TestParameter, Output.Graph.XAxis.Scale, Linear
TestParameter, Output.Graph.XAxis.Left, -5
TestParameter, Output.Graph.XAxis.Right, 7
TestParameter, Output.Graph.YAxis.Data, ID, absIG, gm2
TestParameter, Output.Graph.YAxis.Scale, Log, Log, Linear
TestParameter, Output.Graph.YAxis.Bottom, 1E-14, 1E-14, 0
TestParameter, Output.Graph.YAxis.Top, 0.01, 0.01, 1E-05
TestParameter, Output.Graph.YAxis.Group, , , 
TestParameter, Output.List.Data, VG, IG, VD, ID, VS, IS, sqrtID, gm2, absIG
TestParameter, AutoAnalysis.Interpolation, false
TestParameter, AutoAnalysis.Line1.Enabled, false
TestParameter, AutoAnalysis.Line1.Type, 1
TestParameter, AutoAnalysis.Line1.Fix, True
TestParameter, AutoAnalysis.Line1.YAxis, 0
TestParameter, AutoAnalysis.Line1.Point1.Type, 0
TestParameter, AutoAnalysis.Line1.Point1.XY.X, 
TestParameter, AutoAnalysis.Line1.Point1.XY.Y, 
TestParameter, AutoAnalysis.Line1.Point1.Data.Var, 
TestParameter, AutoAnalysis.Line1.Point1.Data.Condition, 
TestParameter, AutoAnalysis.Line1.Point1.Data.Start, false
TestParameter, AutoAnalysis.Line1.Point1.Data.StartVar, 
TestParameter, AutoAnalysis.Line1.Point1.Data.StartCondition, 
TestParameter, AutoAnalysis.Line1.Point2.Type, 0
TestParameter, AutoAnalysis.Line1.Point2.XY.X, 
TestParameter, AutoAnalysis.Line1.Point2.XY.Y, 
TestParameter, AutoAnalysis.Line1.Point2.Data.Var, 
TestParameter, AutoAnalysis.Line1.Point2.Data.Condition, 
TestParameter, AutoAnalysis.Line1.Point2.Data.Start, false
TestParameter, AutoAnalysis.Line1.Point2.Data.StartVar, 
TestParameter, AutoAnalysis.Line1.Point2.Data.StartCondition, 
TestParameter, AutoAnalysis.Line1.GradientExpr, 0
TestParameter, AutoAnalysis.Line2.Enabled, false
TestParameter, AutoAnalysis.Line2.Type, 1
TestParameter, AutoAnalysis.Line2.Fix, True
TestParameter, AutoAnalysis.Line2.YAxis, 0
TestParameter, AutoAnalysis.Line2.Point1.Type, 0
TestParameter, AutoAnalysis.Line2.Point1.XY.X, 
TestParameter, AutoAnalysis.Line2.Point1.XY.Y, 
TestParameter, AutoAnalysis.Line2.Point1.Data.Var, 
TestParameter, AutoAnalysis.Line2.Point1.Data.Condition, 
TestParameter, AutoAnalysis.Line2.Point1.Data.Start, false
TestParameter, AutoAnalysis.Line2.Point1.Data.StartVar, 
TestParameter, AutoAnalysis.Line2.Point1.Data.StartCondition, 
TestParameter, AutoAnalysis.Line2.Point2.Type, 0
TestParameter, AutoAnalysis.Line2.Point2.XY.X, 
TestParameter, AutoAnalysis.Line2.Point2.XY.Y, 
TestParameter, AutoAnalysis.Line2.Point2.Data.Var, 
TestParameter, AutoAnalysis.Line2.Point2.Data.Condition, 
TestParameter, AutoAnalysis.Line2.Point2.Data.Start, false
TestParameter, AutoAnalysis.Line2.Point2.Data.StartVar, 
TestParameter, AutoAnalysis.Line2.Point2.Data.StartCondition, 
TestParameter, AutoAnalysis.Line2.GradientExpr, 0
TestParameter, AutoAnalysis.Marker.Enabled, false
TestParameter, AutoAnalysis.Marker.Data.Var, 
TestParameter, AutoAnalysis.Marker.Data.Condition, 
TestParameter, AutoAnalysis.Marker.Data.Start, false
TestParameter, AutoAnalysis.Marker.Data.StartVar, 
TestParameter, AutoAnalysis.Marker.Data.StartCondition, 
MetaData, TestRecord.EntryPoint, true
MetaData, TestRecord.RecordTime, 04/23/2019 16:14:16
MetaData, TestRecord.TestTarget, 35
MetaData, TestRecord.IterationIndex, 5
MetaData, TestRecord.Preservation, true
MetaData, TestRecord.Flag, 
MetaData, TestRecord.Remarks, 250-180-G35
MetaData, TestRecord.LinkKey, 32690cf7-512b-4167-88bb-fc12170a05f9
Dimension1, 101, 101, 101, 101, 101, 101, 101, 101, 101, 101
Dimension2, 1, 1, 1, 1, 1, 1, 1, 1, 1, 1
DataName, VG, VD, VS, ID, IS, IG, absID, sqrtID, gm2, absIG
DataValue, -2, 3, 0, 1.594E-12, 1.7140000000000002E-12, -1.9110000000000002E-12, 1.594E-12, 1.2625371281669305E-06, 5.6541592255676436E-11, 1.9110000000000002E-12
DataValue, -1.9500000000000002, 3, 0, 7.8600000000000008E-13, -8.68E-13, -1.0500000000000002E-12, 7.8600000000000008E-13, 8.865664103720601E-07, 7.965436756803627E-12, 1.0500000000000002E-12
DataValue, -1.9000000000000001, 3, 0, 9.61E-13, -4.3000000000000006E-14, -7.1700000000000008E-13, 9.61E-13, 9.8030607465219755E-07, 2.0045799431335284E-12, 7.1700000000000008E-13
DataValue, -1.85, 3, 0, 5.5500000000000006E-13, 2.18E-13, 1.249E-12, 5.5500000000000006E-13, 7.44983221287567E-07, 9.7639850919541486E-12, 1.249E-12
DataValue, -1.8, 3, 0, 4.46E-13, -9.11E-13, -6.2500000000000006E-13, 4.46E-13, 6.6783231428256E-07, 5.1433938216056132E-13, 6.2500000000000006E-13
DataValue, -1.75, 3, 0, 6.6700000000000009E-13, -2.8E-14, -4.2870000000000006E-12, 6.6700000000000009E-13, 8.1670067956381676E-07, 2.1932461803074235E-14, 4.2870000000000006E-12
DataValue, -1.7000000000000002, 3, 0, 4.66E-13, 2.3100000000000003E-13, -8.0300000000000011E-13, 4.66E-13, 6.8264192663504048E-07, 6.7094955552446384E-12, 8.0300000000000011E-13
DataValue, -1.6500000000000001, 3, 0, 3.1100000000000004E-13, -6.6600000000000009E-13, -2.812E-12, 3.1100000000000004E-13, 5.5767373974394745E-07, 3.2659700397231092E-14, 2.812E-12
DataValue, -1.6, 3, 0, 4.91E-13, -2.96E-13, 3.03E-13, 4.91E-13, 7.0071392165419405E-07, 1.4180816354009182E-12, 3.03E-13
DataValue, -1.55, 3, 0, 4.5800000000000007E-13, -2.2000000000000002E-13, -4.94E-13, 4.5800000000000007E-13, 6.7675697262754533E-07, 7.6607189241259674E-13, 4.94E-13
DataValue, -1.5, 3, 0, 3.76E-13, -1.4900000000000002E-13, -9.0800000000000007E-13, 3.76E-13, 6.1318838867023571E-07, 9.2621302240804215E-13, 9.0800000000000007E-13
DataValue, -1.4500000000000002, 3, 0, 3.3700000000000003E-13, 4.2800000000000004E-13, -2.3900000000000004E-13, 3.3700000000000003E-13, 5.8051701094799977E-07, 1.2586458482562452E-12, 2.3900000000000004E-13
DataValue, -1.4000000000000001, 3, 0, 2.5100000000000004E-13, 3.1300000000000003E-13, -3.9200000000000005E-13, 2.5100000000000004E-13, 5.00999001995014E-07, 3.2586391241600197E-12, 3.9200000000000005E-13
DataValue, -1.35, 3, 0, 1.6000000000000003E-13, -2.7800000000000003E-13, -1.3300000000000001E-13, 1.6000000000000003E-13, 4.0000000000000003E-07, 6.350450905878067E-12, 1.3300000000000001E-13
DataValue, -1.3, 3, 0, 6.2E-14, -1.47E-13, -4.69E-13, 6.2E-14, 2.4899799195977466E-07, 3.1044470691586089E-12, 4.69E-13
DataValue, -1.25, 3, 0, 3.3200000000000005E-13, -5.0000000000000008E-15, -9.0000000000000008E-14, 3.3200000000000005E-13, 5.7619441163551742E-07, 2.0938785069560444E-12, 9.0000000000000008E-14
DataValue, -1.2, 3, 0, 1.5500000000000002E-13, 6.05E-13, -6.83E-13, 1.5500000000000002E-13, 3.9370039370059057E-07, 4.0278380480013608E-12, 6.83E-13
DataValue, -1.1500000000000001, 3, 0, 1.41E-13, 1.28E-13, -2.005E-12, 1.41E-13, 3.7549966711037173E-07, 2.6301473614543776E-12, 2.005E-12
DataValue, -1.1, 3, 0, 3.0900000000000005E-13, 3.26E-13, -4.0400000000000005E-13, 3.0900000000000005E-13, 5.5587768438749194E-07, 2.9090935939432011E-12, 4.0400000000000005E-13
DataValue, -1.05, 3, 0, -4.2000000000000004E-14, 3.1300000000000003E-13, -1.36E-13, 4.2000000000000004E-14, 2.0493901531919199E-07, 1.1190245836254264E-11, 1.36E-13
DataValue, -1, 3, 0, 4.9000000000000006E-14, 4.36E-13, 1E-15, 4.9000000000000006E-14, 2.2135943621178657E-07, 8.1783698473508381E-12, 1E-15
DataValue, -0.95000000000000007, 3, 0, 2.4100000000000003E-13, 6.4900000000000006E-13, 8.050000000000001E-13, 2.4100000000000003E-13, 4.9091750834534308E-07, 5.416693256756589E-13, 8.050000000000001E-13
DataValue, -0.9, 3, 0, 8.7000000000000008E-14, 9.8000000000000012E-14, 8E-15, 8.7000000000000008E-14, 2.9495762407505252E-07, 1.6118200639959942E-11, 8E-15
DataValue, -0.85000000000000009, 3, 0, 8E-15, 2.6E-13, 1.8500000000000002E-13, 8E-15, 8.9442719099991593E-08, 9.0086958165591923E-13, 1.8500000000000002E-13
DataValue, -0.8, 3, 0, 1.52E-13, 2.9900000000000004E-13, 3.97E-13, 1.52E-13, 3.8987177379235857E-07, 1.652757079487243E-11, 3.97E-13
DataValue, -0.75, 3, 0, 2.46E-13, 5.44E-13, 5.2000000000000006E-14, 2.46E-13, 4.9598387070548975E-07, 1.0358062686416453E-12, 5.2000000000000006E-14
DataValue, -0.70000000000000007, 3, 0, -8.3000000000000012E-14, 5.66E-13, 7.6300000000000008E-13, 8.3000000000000012E-14, 2.8809720581775871E-07, 4.6510869579138429E-13, 7.6300000000000008E-13
DataValue, -0.65, 3, 0, 1.83E-13, 3.8000000000000005E-13, -1.12E-13, 1.83E-13, 4.2778499272414873E-07, 1.5566553672478653E-11, 1.12E-13
DataValue, -0.6, 3, 0, 4.66E-13, -5.37E-13, -3.6800000000000005E-12, 4.66E-13, 6.8264192663504048E-07, 6.6848040843915084E-11, 3.6800000000000005E-12
DataValue, -0.55, 3, 0, 1.5510000000000002E-12, -1.2900000000000002E-12, -6.32E-13, 1.5510000000000002E-12, 1.2453915047084593E-06, 2.7322510290084E-10, 6.32E-13
DataValue, -0.5, 3, 0, 5.4550000000000005E-12, -4.6030000000000005E-12, 1.1400000000000002E-13, 5.4550000000000005E-12, 2.3355941428253327E-06, 8.0375065061269355E-10, 1.1400000000000002E-13
DataValue, -0.45, 3, 0, 1.6650000000000002E-11, -1.5424000000000002E-11, 1.057E-12, 1.6650000000000002E-11, 4.080441152620633E-06, 2.1390046380054E-09, 1.057E-12
DataValue, -0.4, 3, 0, 4.8449E-11, -4.5399000000000004E-11, 2.72E-13, 4.8449E-11, 6.96053158889463E-06, 5.6263201007471969E-09, 2.72E-13
DataValue, -0.35000000000000003, 3, 0, 1.34127E-10, -1.27887E-10, 1.76E-13, 1.34127E-10, 1.1581321168156939E-05, 1.3730616498609198E-08, 1.76E-13
DataValue, -0.3, 3, 0, 3.4887900000000003E-10, -3.3146400000000005E-10, -1.7E-14, 3.4887900000000003E-10, 1.8678302920768794E-05, 3.1253592691656015E-08, 1.7E-14
DataValue, -0.25, 3, 0, 8.5614800000000007E-10, -8.1381700000000007E-10, 9.0000000000000008E-14, 8.5614800000000007E-10, 2.9260006835269195E-05, 6.0984108561617433E-08, 9.0000000000000008E-14
DataValue, -0.2, 3, 0, 1.88124E-09, -1.76608E-09, 2.4330000000000002E-12, 1.88124E-09, 4.3373263654006945E-05, 1.3087300707177067E-07, 2.4330000000000002E-12
DataValue, -0.15, 3, 0, 4.28192E-09, -4.1856E-09, -1.2600000000000002E-13, 4.28192E-09, 6.54363813180405E-05, 2.5989342694762379E-07, 1.2600000000000002E-13
DataValue, -0.1, 3, 0, 8.90249E-09, -8.69071E-09, 2.2200000000000001E-13, 8.90249E-09, 9.4353007371254468E-05, 3.7838271623084881E-07, 2.2200000000000001E-13
DataValue, -0.05, 3, 0, 1.61161E-08, -1.53973E-08, -1.107E-12, 1.61161E-08, 0.00012694920243940094, 5.7503421807192107E-07, 1.107E-12
DataValue, 0, 3, 0, 2.8962599999999998E-08, -2.8456099999999996E-08, 2.18E-13, 2.8962599999999998E-08, 0.00017018401805104965, 8.6000551158526705E-07, 2.18E-13
DataValue, 0.05, 3, 0, 4.8261799999999995E-08, -4.74736E-08, -6.09E-13, 4.8261799999999995E-08, 0.00021968568455864391, 1.0819461064724271E-06, 6.09E-13
DataValue, 0.1, 3, 0, 7.5186E-08, -7.4091599999999991E-08, 1.913E-12, 7.5186E-08, 0.00027420065645435642, 1.1400057268977758E-06, 1.913E-12
DataValue, 0.15, 3, 0, 1.06574E-07, -1.055565E-07, -3.9200000000000005E-13, 1.06574E-07, 0.00032645673526518026, 1.4212859025033188E-06, 3.9200000000000005E-13
DataValue, 0.2, 3, 0, 1.5477799999999999E-07, -1.49686E-07, 6.2E-14, 1.5477799999999999E-07, 0.00039341835239347945, 1.6998144527028751E-06, 6.2E-14
DataValue, 0.25, 3, 0, 2.08697E-07, -2.06394E-07, 1.7000000000000002E-12, 2.08697E-07, 0.00045683366776103535, 1.7506615485210054E-06, 1.7000000000000002E-12
DataValue, 0.3, 3, 0, 2.76393E-07, -2.73317E-07, 2.1000000000000001E-13, 2.76393E-07, 0.000525730919767898, 1.9477132378811672E-06, 2.1000000000000001E-13
DataValue, 0.35000000000000003, 3, 0, 3.5568599999999997E-07, -3.5225299999999997E-07, -3.9000000000000004E-14, 3.5568599999999997E-07, 0.00059639416496139533, 2.0771595369306033E-06, 3.9000000000000004E-14
DataValue, 0.4, 3, 0, 4.4870499999999997E-07, -4.4413099999999997E-07, 1.1E-14, 4.4870499999999997E-07, 0.00066985446180495051, 2.1785101850303055E-06, 1.1E-14
DataValue, 0.45, 3, 0, 5.53524E-07, -5.48513E-07, 5.43E-13, 5.53524E-07, 0.00074399193544016321, 2.2503780335751908E-06, 5.43E-13
DataValue, 0.5, 3, 0, 6.72182E-07, -6.65898E-07, -1.9620000000000003E-12, 6.72182E-07, 0.00081986706239487394, 2.3292700518268907E-06, 1.9620000000000003E-12
DataValue, 0.55, 3, 0, 8.03912E-07, -7.96995E-07, 1.6800000000000002E-13, 8.03912E-07, 0.00089661139854454227, 2.4628550991044328E-06, 1.6800000000000002E-13
DataValue, 0.6, 3, 0, 9.54142E-07, -9.45027E-07, -7.1E-14, 9.54142E-07, 0.00097680192465002843, 2.3000332422618857E-06, 7.1E-14
DataValue, 0.65, 3, 0, 1.0988700000000002E-06, -1.09257E-06, -2.4080000000000002E-12, 1.0988700000000002E-06, 0.0010482700033865322, 2.607781340107017E-06, 2.4080000000000002E-12
DataValue, 0.70000000000000007, 3, 0, 1.2957000000000002E-06, -1.27375E-06, 4.4E-14, 1.2957000000000002E-06, 0.0011382881884654695, 3.0359476637171881E-06, 4.4E-14
DataValue, 0.75, 3, 0, 1.4945300000000002E-06, -1.4823600000000002E-06, -1.226E-12, 1.4945300000000002E-06, 0.0012225097136628405, 2.9741028833860912E-06, 1.226E-12
DataValue, 0.8, 3, 0, 1.7180500000000002E-06, -1.7066800000000002E-06, 6.15E-13, 1.7180500000000002E-06, 0.0013107440634998124, 3.1928759541373635E-06, 6.15E-13
DataValue, 0.85000000000000009, 3, 0, 1.96335E-06, -1.951E-06, -2.015E-12, 1.96335E-06, 0.0014011959177788094, 3.4027318512424594E-06, 2.015E-12
DataValue, 0.9, 3, 0, 2.2356500000000004E-06, -2.2176700000000004E-06, -2.4000000000000002E-14, 2.2356500000000004E-06, 0.001495209015489139, 3.5531881110173958E-06, 2.4000000000000002E-14
DataValue, 0.95000000000000007, 3, 0, 2.5271300000000003E-06, -2.5094400000000003E-06, 1.9700000000000002E-13, 2.5271300000000003E-06, 0.0015896949392886675, 3.6717982721563041E-06, 1.9700000000000002E-13
DataValue, 1, 3, 0, 2.8453900000000005E-06, -2.8246600000000004E-06, -1.7960000000000002E-12, 2.8453900000000005E-06, 0.0016868283848690715, 3.8808029051901708E-06, 1.7960000000000002E-12
DataValue, 1.05, 3, 0, 3.1922700000000004E-06, -3.1722000000000003E-06, 1.3800000000000002E-13, 3.1922700000000004E-06, 0.0017866924749379788, 4.102214139174471E-06, 1.3800000000000002E-13
DataValue, 1.1, 3, 0, 3.56971E-06, -3.5492200000000004E-06, 6.0000000000000009E-14, 3.56971E-06, 0.0018893676190725828, 4.2738001880034761E-06, 6.0000000000000009E-14
DataValue, 1.1500000000000001, 3, 0, 3.97374E-06, -3.95011E-06, 4.5200000000000004E-13, 3.97374E-06, 0.0019934241896796575, 4.4424191709136554E-06, 4.5200000000000004E-13
DataValue, 1.2, 3, 0, 4.41058E-06, -4.3904300000000008E-06, -3.05E-13, 4.41058E-06, 0.0021001380906978473, 4.6033643762795922E-06, 3.05E-13
DataValue, 1.25, 3, 0, 4.8751700000000008E-06, -4.8539200000000008E-06, 6.0000000000000005E-15, 4.8751700000000008E-06, 0.00220797871366551, 4.7791019576228029E-06, 6.0000000000000005E-15
DataValue, 1.3, 3, 0, 5.3766E-06, -5.3533700000000007E-06, 2.59E-13, 5.3766E-06, 0.0023187496630727518, 5.0026846240559039E-06, 2.59E-13
DataValue, 1.35, 3, 0, 5.9129000000000006E-06, -5.8814600000000009E-06, -1.7E-14, 5.9129000000000006E-06, 0.0024316455333785805, 5.161451367900883E-06, 1.7E-14
DataValue, 1.4000000000000001, 3, 0, 6.4818E-06, -6.4528E-06, 2.49E-13, 6.4818E-06, 0.0025459379411132549, 5.3657973941546589E-06, 2.49E-13
DataValue, 1.4500000000000002, 3, 0, 7.0931000000000007E-06, -7.0596900000000005E-06, 3.2200000000000004E-13, 7.0931000000000007E-06, 0.0026632874422412617, 5.5408019120796022E-06, 3.2200000000000004E-13
DataValue, 1.5, 3, 0, 7.73578E-06, -7.70421E-06, -6.7E-14, 7.73578E-06, 0.0027813270214054296, 5.7237792656304972E-06, 6.7E-14
DataValue, 1.55, 3, 0, 8.42469E-06, -8.39447E-06, -8.25E-13, 8.42469E-06, 0.002902531653574169, 6.0176051109626181E-06, 8.25E-13
DataValue, 1.6, 3, 0, 9.1605200000000012E-06, -9.12416E-06, 6.7E-14, 9.1605200000000012E-06, 0.0030266350952832094, 6.0651114272024339E-06, 6.7E-14
DataValue, 1.6500000000000001, 3, 0, 9.9149800000000011E-06, -9.88134E-06, -1.0500000000000001E-13, 9.9149800000000011E-06, 0.0031488061229615265, 6.1400663198468705E-06, 1.0500000000000001E-13
DataValue, 1.7000000000000002, 3, 0, 1.0721870000000001E-05, -1.068636E-05, 3.1180000000000002E-12, 1.0721870000000001E-05, 0.0032744266673724732, 5.9095664373818181E-06, 3.1180000000000002E-12
DataValue, 1.75, 3, 0, 1.1505E-05, -1.1463300000000001E-05, -3.18E-13, 1.1505E-05, 0.0033919021212293261, 6.2948809286021582E-06, 3.18E-13
DataValue, 1.8, 3, 0, 1.24279E-05, -1.2391200000000001E-05, 1.9700000000000002E-13, 1.24279E-05, 0.0035253226802663042, 7.1664190793568905E-06, 1.9700000000000002E-13
DataValue, 1.85, 3, 0, 1.33927E-05, -1.33568E-05, 2E-15, 1.33927E-05, 0.003659603803692416, 7.1400893050822927E-06, 2E-15
DataValue, 1.9000000000000001, 3, 0, 1.43833E-05, -1.4341E-05, 9.4E-14, 1.43833E-05, 0.0037925321356581804, 7.0968561920368418E-06, 9.4E-14
DataValue, 1.9500000000000002, 3, 0, 1.54135E-05, -1.53666E-05, 4.8300000000000006E-13, 1.54135E-05, 0.0039260030565449128, 7.178300388795788E-06, 4.8300000000000006E-13
DataValue, 2, 3, 0, 1.64873E-05, -1.64443E-05, 1.5500000000000002E-13, 1.64873E-05, 0.0040604556394572269, 7.2582344339085386E-06, 1.5500000000000002E-13
DataValue, 2.05, 3, 0, 1.76015E-05, -1.75593E-05, 1.82E-13, 1.76015E-05, 0.0041954141631071421, 7.3609519756588818E-06, 1.82E-13
DataValue, 2.1, 3, 0, 1.87642E-05, -1.87194E-05, -1.6300000000000001E-12, 1.87642E-05, 0.0043317663833591022, 7.3710904297351004E-06, 1.6300000000000001E-12
DataValue, 2.15, 3, 0, 1.99533E-05, -1.9914E-05, -1.3530000000000002E-12, 1.99533E-05, 0.0044669116848220763, 7.429952381430158E-06, 1.3530000000000002E-12
DataValue, 2.2, 3, 0, 2.12E-05, -2.11568E-05, -7.2000000000000009E-14, 2.12E-05, 0.0046043457732885349, 7.6536537197603658E-06, 7.2000000000000009E-14
DataValue, 2.25, 3, 0, 2.25014E-05, -2.24562E-05, 2.79E-13, 2.25014E-05, 0.004743564060914536, 7.758034033642379E-06, 2.79E-13
DataValue, 2.3000000000000003, 3, 0, 2.38425E-05, -2.3798200000000002E-05, -1.5100000000000001E-13, 2.38425E-05, 0.0048828782495573247, 7.7816018810943456E-06, 1.5100000000000001E-13
