
SetupTitle, Transfer stab
PrimitiveTest, I/V Sweep
TestParameter, Context.MainFrame, 4155C
TestParameter, Channel.UnitType, SMU, SMU, SMU
TestParameter, Channel.Unit, SMU3:MP, SMU4:MP, SMU1:MP
TestParameter, Channel.IName, ID, IS, IG
TestParameter, Channel.VName, VD, VS, VG
TestParameter, Channel.Mode, V, COMMON, V
TestParameter, Channel.Func, CONST, CONST, VAR1
TestParameter, Channel.Index, 
TestParameter, Channel.Time, 
TestParameter, Measurement.Port.Unit, SMU3:MP, SMU4:MP, SMU1:MP
TestParameter, Measurement.Port.SeriesResistor, NONE, NONE, NONE
TestParameter, Measurement.Port.Filter, ON, ON, ON
TestParameter, Measurement.Primary.Locus, Single
TestParameter, Measurement.Primary.Scale, LINEAR
TestParameter, Measurement.Primary.Start, -2
TestParameter, Measurement.Primary.Stop, 3
TestParameter, Measurement.Primary.Step, 0.05
TestParameter, Measurement.Primary.Compliance, 0.1
TestParameter, Measurement.Primary.PowerCompliance, 0
TestParameter, Measurement.Aborting.Condition, CONTINUE AT ANY
TestParameter, Measurement.PostOutput.Value, START
TestParameter, Measurement.PostOutput.Retention, OFF
TestParameter, Measurement.Bias.Source, 3, 0, -2
TestParameter, Measurement.Bias.Compliance, 0.1, 0.1, 0.1
TestParameter, Measurement.Monitor.Unit, SMU3:MP, SMU4:MP, SMU1:MP
TestParameter, Measurement.Monitor.Adc, HR ADC, HR ADC, HR ADC
TestParameter, Measurement.Monitor.RangingMode, AUTO, AUTO, AUTO
TestParameter, Measurement.Monitor.RangeBoundary, , , 
TestParameter, Measurement.Monitor.RangeRating, BY FULL RANGE, BY FULL RANGE, BY FULL RANGE
TestParameter, Measurement.Monitor.RangeRatingCoeff, 50, 50, 50
TestParameter, Measurement.Timing.Hold, 0.5
TestParameter, Measurement.Timing.Delay, 0.05
TestParameter, Measurement.Adc.HighResolution.AutoZero, OFF
TestParameter, Measurement.Adc.HighResolution.Mode, AUTO
TestParameter, Measurement.Adc.HighResolution.Coeff, 1
TestParameter, Measurement.Ag16440ASelector.SemiconductorRelay.Channel1, DEFAULT
TestParameter, Measurement.Ag16440ASelector.SemiconductorRelay.Channel3, DEFAULT
TestParameter, Function.User.Name, absID, sqrtID, gm2, absIG
TestParameter, Function.User.Unit, A, A, A/V, A
TestParameter, Function.User.Definition, abs(ID), sqrt(abs(ID)), (delta(sqrtID)/delta(VG))^2, abs(IG)
TestParameter, Output.Graph.Enabled, true
TestParameter, Output.Graph.XAxis.Data, VG
TestParameter, Output.Graph.XAxis.Scale, Linear
TestParameter, Output.Graph.XAxis.Left, -5
TestParameter, Output.Graph.XAxis.Right, 7
TestParameter, Output.Graph.YAxis.Data, ID, absIG, gm2
TestParameter, Output.Graph.YAxis.Scale, Log, Log, Linear
TestParameter, Output.Graph.YAxis.Bottom, 1E-14, 1E-14, 0
TestParameter, Output.Graph.YAxis.Top, 0.01, 0.01, 1E-05
TestParameter, Output.Graph.YAxis.Group, , , 
TestParameter, Output.List.Data, VG, IG, VD, ID, VS, IS, sqrtID, gm2, absIG
TestParameter, AutoAnalysis.Interpolation, false
TestParameter, AutoAnalysis.Line1.Enabled, false
TestParameter, AutoAnalysis.Line1.Type, 1
TestParameter, AutoAnalysis.Line1.Fix, True
TestParameter, AutoAnalysis.Line1.YAxis, 0
TestParameter, AutoAnalysis.Line1.Point1.Type, 0
TestParameter, AutoAnalysis.Line1.Point1.XY.X, 
TestParameter, AutoAnalysis.Line1.Point1.XY.Y, 
TestParameter, AutoAnalysis.Line1.Point1.Data.Var, 
TestParameter, AutoAnalysis.Line1.Point1.Data.Condition, 
TestParameter, AutoAnalysis.Line1.Point1.Data.Start, false
TestParameter, AutoAnalysis.Line1.Point1.Data.StartVar, 
TestParameter, AutoAnalysis.Line1.Point1.Data.StartCondition, 
TestParameter, AutoAnalysis.Line1.Point2.Type, 0
TestParameter, AutoAnalysis.Line1.Point2.XY.X, 
TestParameter, AutoAnalysis.Line1.Point2.XY.Y, 
TestParameter, AutoAnalysis.Line1.Point2.Data.Var, 
TestParameter, AutoAnalysis.Line1.Point2.Data.Condition, 
TestParameter, AutoAnalysis.Line1.Point2.Data.Start, false
TestParameter, AutoAnalysis.Line1.Point2.Data.StartVar, 
TestParameter, AutoAnalysis.Line1.Point2.Data.StartCondition, 
TestParameter, AutoAnalysis.Line1.GradientExpr, 0
TestParameter, AutoAnalysis.Line2.Enabled, false
TestParameter, AutoAnalysis.Line2.Type, 1
TestParameter, AutoAnalysis.Line2.Fix, True
TestParameter, AutoAnalysis.Line2.YAxis, 0
TestParameter, AutoAnalysis.Line2.Point1.Type, 0
TestParameter, AutoAnalysis.Line2.Point1.XY.X, 
TestParameter, AutoAnalysis.Line2.Point1.XY.Y, 
TestParameter, AutoAnalysis.Line2.Point1.Data.Var, 
TestParameter, AutoAnalysis.Line2.Point1.Data.Condition, 
TestParameter, AutoAnalysis.Line2.Point1.Data.Start, false
TestParameter, AutoAnalysis.Line2.Point1.Data.StartVar, 
TestParameter, AutoAnalysis.Line2.Point1.Data.StartCondition, 
TestParameter, AutoAnalysis.Line2.Point2.Type, 0
TestParameter, AutoAnalysis.Line2.Point2.XY.X, 
TestParameter, AutoAnalysis.Line2.Point2.XY.Y, 
TestParameter, AutoAnalysis.Line2.Point2.Data.Var, 
TestParameter, AutoAnalysis.Line2.Point2.Data.Condition, 
TestParameter, AutoAnalysis.Line2.Point2.Data.Start, false
TestParameter, AutoAnalysis.Line2.Point2.Data.StartVar, 
TestParameter, AutoAnalysis.Line2.Point2.Data.StartCondition, 
TestParameter, AutoAnalysis.Line2.GradientExpr, 0
TestParameter, AutoAnalysis.Marker.Enabled, false
TestParameter, AutoAnalysis.Marker.Data.Var, 
TestParameter, AutoAnalysis.Marker.Data.Condition, 
TestParameter, AutoAnalysis.Marker.Data.Start, false
TestParameter, AutoAnalysis.Marker.Data.StartVar, 
TestParameter, AutoAnalysis.Marker.Data.StartCondition, 
MetaData, TestRecord.EntryPoint, true
MetaData, TestRecord.RecordTime, 05/27/2019 11:28:26
MetaData, TestRecord.TestTarget, 250-180-G15-2
MetaData, TestRecord.IterationIndex, 1
MetaData, TestRecord.Preservation, true
MetaData, TestRecord.Flag, 
MetaData, TestRecord.Remarks, MEH
MetaData, TestRecord.LinkKey, 40f1b4ad-89d5-4c5b-ab12-64dc63d16bdd
Dimension1, 101, 101, 101, 101, 101, 101, 101, 101, 101, 101
Dimension2, 1, 1, 1, 1, 1, 1, 1, 1, 1, 1
DataName, VG, VD, VS, ID, IS, IG, absID, sqrtID, gm2, absIG
DataValue, -2, 3, 0, 1.2561E-11, 0.000148018, -0.000148776, 1.2561E-11, 3.5441501096877938E-06, 1.5731735828293428E-10, 0.000148776
DataValue, -1.9500000000000002, 3, 0, 8.509000000000001E-12, 0.000136401, -0.000136172, 8.509000000000001E-12, 2.9170190263349329E-06, 4.72801636591257E-12, 0.000136172
DataValue, -1.9000000000000001, 3, 0, 1.1067E-11, 0.00012644700000000002, -0.00012592700000000002, 1.1067E-11, 3.3267100865569875E-06, 3.8331872797599741E-10, 0.00012592700000000002
DataValue, -1.85, 3, 0, 9.2000000000000012E-13, 0.000120316, -0.000119507, 9.2000000000000012E-13, 9.59166304662544E-07, 3.1191964400198317E-11, 0.000119507
DataValue, -1.8, 3, 0, 7.663E-12, 0.000113306, -0.00011277900000000001, 7.663E-12, 2.7682124195949994E-06, 3.013102515523151E-10, 0.00011277900000000001
DataValue, -1.75, 3, 0, 7.2630000000000009E-12, 0.000106267, -0.000106136, 7.2630000000000009E-12, 2.694995361777085E-06, 7.6020997447801359E-11, 0.000106136
DataValue, -1.7000000000000002, 3, 0, 3.5960000000000004E-12, 0.00010115200000000001, -0.000100612, 3.5960000000000004E-12, 1.8963122105813695E-06, 1.3949029417536989E-10, 0.000100612
DataValue, -1.6500000000000001, 3, 0, 2.2920000000000003E-12, 9.7000300000000007E-05, -9.6614200000000007E-05, 2.2920000000000003E-12, 1.5139352694220451E-06, 3.330985507788215E-11, 9.6614200000000007E-05
DataValue, -1.6, 3, 0, 6.118E-12, 9.1673300000000009E-05, -9.18001E-05, 6.118E-12, 2.4734591162984686E-06, 8.20054873260378E-11, 9.18001E-05
DataValue, -1.55, 3, 0, 5.8540000000000007E-12, 8.77254E-05, -8.81157E-05, 5.8540000000000007E-12, 2.4195040814183392E-06, 2.5537318220813886E-12, 8.81157E-05
DataValue, -1.5, 3, 0, 5.353E-12, 8.4117600000000009E-05, -8.42618E-05, 5.353E-12, 2.3136551169091732E-06, 1.3598094836188408E-10, 8.42618E-05
DataValue, -1.4500000000000002, 3, 0, 1.571E-12, 8.0640700000000009E-05, -8.03574E-05, 1.571E-12, 1.2533953885346795E-06, 1.4069922466364586E-11, 8.03574E-05
DataValue, -1.4000000000000001, 3, 0, 3.758E-12, 7.69023E-05, -7.67977E-05, 3.758E-12, 1.9385561637466171E-06, 1.0681717276722804E-10, 7.67977E-05
DataValue, -1.35, 3, 0, 5.23E-12, 7.32126E-05, -7.30495E-05, 5.23E-12, 2.2869193252058542E-06, 2.8774099218957337E-11, 7.30495E-05
DataValue, -1.3, 3, 0, 1.9660000000000003E-12, 6.94883E-05, -6.94929E-05, 1.9660000000000003E-12, 1.4021412197064888E-06, 1.417437207492559E-10, 6.94929E-05
DataValue, -1.25, 3, 0, 1.2020000000000001E-12, 6.63823E-05, -6.63275E-05, 1.2020000000000001E-12, 1.0963576058932596E-06, 4.7147219383467145E-11, 6.63275E-05
DataValue, -1.2, 3, 0, 4.3630000000000007E-12, 6.31508E-05, -6.30481E-05, 4.3630000000000007E-12, 2.0887795479657495E-06, 2.1270524815025331E-10, 6.30481E-05
DataValue, -1.1500000000000001, 3, 0, 6.5270000000000008E-12, 6.0105E-05, -6.01973E-05, 6.5270000000000008E-12, 2.5547994050414215E-06, 2.6984152823120786E-10, 6.01973E-05
DataValue, -1.1, 3, 0, 1.99E-13, 5.7099900000000005E-05, -5.7111500000000004E-05, 1.99E-13, 4.4609416046390925E-07, 6.2792098868643939E-11, 5.7111500000000004E-05
DataValue, -1.05, 3, 0, 3.1060000000000003E-12, 5.39984E-05, -5.39926E-05, 3.1060000000000003E-12, 1.7623847480048164E-06, 2.3409401598357437E-10, 5.39926E-05
DataValue, -1, 3, 0, 3.905E-12, 5.10594E-05, -5.1054600000000004E-05, 3.905E-12, 1.9761072845369505E-06, 8.7673384933959168E-12, 5.1054600000000004E-05
DataValue, -0.95000000000000007, 3, 0, 2.1500000000000003E-12, 4.80931E-05, -4.80652E-05, 2.1500000000000003E-12, 1.4662878298615181E-06, 1.4503420889826923E-10, 4.80652E-05
DataValue, -0.9, 3, 0, 1.0115E-11, 4.51943E-05, -4.51855E-05, 1.0115E-11, 3.18040877875785E-06, 9.6427855693551335E-11, 4.51855E-05
DataValue, -0.85000000000000009, 3, 0, 5.9940000000000005E-12, 4.23824E-05, -4.23538E-05, 5.9940000000000005E-12, 2.44826469157238E-06, 3.6751951243201551E-10, 4.23538E-05
DataValue, -0.8, 3, 0, 1.596E-12, 3.96749E-05, -3.9626600000000004E-05, 1.596E-12, 1.2633289357883006E-06, 2.8471248440881107E-11, 3.9626600000000004E-05
DataValue, -0.75, 3, 0, 3.666E-12, 3.68649E-05, -3.68552E-05, 3.666E-12, 1.9146801299433803E-06, 1.6310824553613543E-12, 3.68552E-05
DataValue, -0.70000000000000007, 3, 0, -1.935E-12, 3.4178100000000004E-05, -3.41746E-05, 1.935E-12, 1.3910427743243557E-06, 9.9535910133390184E-13, 3.41746E-05
DataValue, -0.65, 3, 0, -4.0580000000000007E-12, 3.1545000000000004E-05, -3.1535700000000004E-05, 4.0580000000000007E-12, 2.0144478151592808E-06, 7.9633441774242181E-11, 3.1535700000000004E-05
DataValue, -0.6, 3, 0, 5.214E-12, 2.89597E-05, -2.8939300000000003E-05, 5.214E-12, 2.2834184898962346E-06, 2.9697848541175026E-12, 2.8939300000000003E-05
DataValue, -0.55, 3, 0, 4.7820000000000004E-12, 2.6387E-05, -2.6372500000000002E-05, 4.7820000000000004E-12, 2.1867784524272228E-06, 3.678623673898367E-11, 2.6372500000000002E-05
DataValue, -0.5, 3, 0, 2.812E-12, 2.38743E-05, -2.38703E-05, 2.812E-12, 1.6769019053003668E-06, 8.5601168461286367E-12, 2.38703E-05
DataValue, -0.45, 3, 0, 3.5880000000000005E-12, 2.13668E-05, -2.13624E-05, 3.5880000000000005E-12, 1.8942016788082521E-06, 3.0992050502732984E-11, 2.13624E-05
DataValue, -0.4, 3, 0, 4.9890000000000007E-12, 1.89197E-05, -1.8904800000000002E-05, 4.9890000000000007E-12, 2.2336069484132613E-06, 1.1754078325104123E-15, 1.8904800000000002E-05
DataValue, -0.35000000000000003, 3, 0, -3.601E-12, 1.64662E-05, -1.64588E-05, 3.601E-12, 1.8976301009416984E-06, 7.6937624930392222E-11, 1.64588E-05
DataValue, -0.3, 3, 0, 1.8400000000000002E-12, 1.40565E-05, -1.4050100000000001E-05, 1.8400000000000002E-12, 1.3564659966250537E-06, 5.6541967534164454E-12, 1.4050100000000001E-05
DataValue, -0.25, 3, 0, 4.56E-12, 1.1673E-05, -1.1663400000000001E-05, 4.56E-12, 2.1354156504062621E-06, 4.9303800992189412E-15, 1.1663400000000001E-05
DataValue, -0.2, 3, 0, -1.821E-12, 9.29283E-06, -9.29263E-06, 1.821E-12, 1.3494443300855355E-06, 5.8201064567709024E-13, 9.29263E-06
DataValue, -0.15, 3, 0, 4.2400000000000005E-12, 6.95075E-06, -6.9503700000000008E-06, 4.2400000000000005E-12, 2.0591260281974E-06, 2.2991045462098628E-11, 6.9503700000000008E-06
DataValue, -0.1, 3, 0, 3.3450000000000004E-12, 4.61612E-06, -4.61382E-06, 3.3450000000000004E-12, 1.8289341158171883E-06, 3.6151693449120924E-13, 4.61382E-06
DataValue, -0.05, 3, 0, 3.996E-12, 2.2831500000000003E-06, -2.28305E-06, 3.996E-12, 1.998999749874922E-06, 1.8799568965699249E-11, 2.28305E-06
DataValue, 0, 3, 0, -1.947E-12, -1.1963899999999998E-08, 1.1832999999999999E-08, 1.947E-12, 1.39534941860453E-06, 1.9775780352726755E-12, 1.1832999999999999E-08
DataValue, 0.05, 3, 0, 4.578E-12, -2.33922E-06, 2.33968E-06, 4.578E-12, 2.1396261355666789E-06, 1.1746634061837517E-11, 2.33968E-06
DataValue, 0.1, 3, 0, 1.1080000000000001E-12, -4.6796E-06, 4.6783100000000004E-06, 1.1080000000000001E-12, 1.0526157893552614E-06, 1.100879750533034E-12, 4.6783100000000004E-06
DataValue, 0.15, 3, 0, 5.038E-12, -7.0275300000000005E-06, 7.0285400000000008E-06, 5.038E-12, 2.2445489524623872E-06, 5.5244995996270517E-13, 7.0285400000000008E-06
DataValue, 0.2, 3, 0, 1.27E-12, -9.38788E-06, 9.3920100000000016E-06, 1.27E-12, 1.1269427669584645E-06, 5.7408544068698746E-12, 9.3920100000000016E-06
DataValue, 0.25, 3, 0, 6.171E-12, -1.17712E-05, 1.1765E-05, 6.171E-12, 2.4841497539399673E-06, 1.520116658545706E-10, 1.1765E-05
DataValue, 0.3, 3, 0, 5.569E-12, -1.41673E-05, 1.4171E-05, 5.569E-12, 2.359872877932199E-06, 7.3104520801819691E-11, 1.4171E-05
DataValue, 0.35000000000000003, 3, 0, 1.1150000000000002E-11, -1.66051E-05, 1.66139E-05, 1.1150000000000002E-11, 3.3391615714128004E-06, 2.0539104012967246E-10, 1.66139E-05
DataValue, 0.4, 3, 0, 1.4387000000000002E-11, -1.90456E-05, 1.9052E-05, 1.4387000000000002E-11, 3.7930199050360917E-06, 1.3651324821188073E-11, 1.9052E-05
DataValue, 0.45, 3, 0, 1.3754000000000001E-11, -2.1511E-05, 2.15157E-05, 1.3754000000000001E-11, 3.7086385642173331E-06, 1.6524540241418732E-11, 2.15157E-05
DataValue, 0.5, 3, 0, 1.7636E-11, -2.4040700000000002E-05, 2.4022300000000002E-05, 1.7636E-11, 4.1995237825258239E-06, 1.6720071295729106E-10, 2.4022300000000002E-05
DataValue, 0.55, 3, 0, 2.5017E-11, -2.6499E-05, 2.64938E-05, 2.5017E-11, 5.0016997110982188E-06, 1.1396495786743878E-10, 2.64938E-05
DataValue, 0.6, 3, 0, 2.7742000000000004E-11, -2.90604E-05, 2.90635E-05, 2.7742000000000004E-11, 5.2670674952956512E-06, 3.1657626549127653E-11, 2.90635E-05
DataValue, 0.65, 3, 0, 3.0962E-11, -3.17041E-05, 3.1706000000000004E-05, 3.0962E-11, 5.5643508156837127E-06, 7.2548814898528687E-11, 3.1706000000000004E-05
DataValue, 0.70000000000000007, 3, 0, 3.744E-11, -3.43801E-05, 3.43861E-05, 3.744E-11, 6.1188234163113422E-06, 7.2026247438588771E-11, 3.43861E-05
DataValue, 0.75, 3, 0, 4.1127000000000004E-11, -3.70666E-05, 3.70967E-05, 4.1127000000000004E-11, 6.4130336035296119E-06, 1.3623338573385035E-10, 3.70967E-05
DataValue, 0.8, 3, 0, 5.3086000000000005E-11, -3.98379E-05, 3.98224E-05, 5.3086000000000005E-11, 7.2860139994375525E-06, 1.993716771353365E-10, 3.98224E-05
DataValue, 0.85000000000000009, 3, 0, 6.1231E-11, -4.2664200000000004E-05, 4.27089E-05, 6.1231E-11, 7.8250239616246551E-06, 1.4987027081806569E-10, 4.27089E-05
DataValue, 0.9, 3, 0, 7.2424E-11, -4.5638E-05, 4.56548E-05, 7.2424E-11, 8.51022913910078E-06, 1.885928449383554E-10, 4.56548E-05
DataValue, 0.95000000000000007, 3, 0, 8.460900000000001E-11, -4.8441E-05, 4.85782E-05, 8.460900000000001E-11, 9.1983150630971553E-06, 1.859197553312671E-10, 4.85782E-05
DataValue, 1, 3, 0, 9.7491000000000013E-11, -5.15112E-05, 5.13954E-05, 9.7491000000000013E-11, 9.8737530858331689E-06, 1.3151052702390283E-10, 5.13954E-05
DataValue, 1.05, 3, 0, 1.07021E-10, -5.45246E-05, 5.44721E-05, 1.07021E-10, 1.0345095456301987E-05, 1.6492942800238691E-10, 5.44721E-05
DataValue, 1.1, 3, 0, 1.2450100000000002E-10, -5.7369E-05, 5.72989E-05, 1.2450100000000002E-10, 1.1158001613192213E-05, 2.1764166404438632E-10, 5.72989E-05
DataValue, 1.1500000000000001, 3, 0, 1.3972100000000002E-10, -6.01692E-05, 6.00745E-05, 1.3972100000000002E-10, 1.182036378458802E-05, 1.5665820165431909E-10, 6.00745E-05
DataValue, 1.2, 3, 0, 1.53999E-10, -6.34384E-05, 6.34245E-05, 1.53999E-10, 1.2409633354777247E-05, 1.7695000293512668E-10, 6.34245E-05
DataValue, 1.25, 3, 0, 1.72938E-10, -6.71953E-05, 6.7120200000000008E-05, 1.72938E-10, 1.3150589340406003E-05, 2.0321620498432632E-10, 6.7120200000000008E-05
DataValue, 1.3, 3, 0, 1.91412E-10, -7.0268E-05, 7.03273E-05, 1.91412E-10, 1.383517256849368E-05, 2.244600259758866E-10, 7.03273E-05
DataValue, 1.35, 3, 0, 2.14587E-10, -7.34748E-05, 7.32686E-05, 2.14587E-10, 1.4648788345798434E-05, 1.9983516520401678E-10, 7.32686E-05
DataValue, 1.4000000000000001, 3, 0, 2.3252600000000002E-10, -7.69892E-05, 7.65413E-05, 2.3252600000000002E-10, 1.5248803231729368E-05, 1.8176739060137177E-10, 7.65413E-05
DataValue, 1.4500000000000002, 3, 0, 2.55904E-10, -8.0743000000000009E-05, 8.0090500000000008E-05, 2.55904E-10, 1.5996999718697254E-05, 2.8434362783291657E-10, 8.0090500000000008E-05
DataValue, 1.5, 3, 0, 2.86796E-10, -8.40842E-05, 8.38956E-05, 2.86796E-10, 1.6935052406178138E-05, 2.4805197637399637E-10, 8.38956E-05
DataValue, 1.55, 3, 0, 3.0877400000000004E-10, -8.95202E-05, 8.9296800000000009E-05, 3.0877400000000004E-10, 1.7571966310006402E-05, 1.8399521326497282E-10, 8.9296800000000009E-05
DataValue, 1.6, 3, 0, 3.3457900000000004E-10, -9.45129E-05, 9.48425E-05, 3.3457900000000004E-10, 1.8291500758549039E-05, 2.0920534067467955E-10, 9.48425E-05
DataValue, 1.6500000000000001, 3, 0, 3.6169800000000004E-10, -9.98986E-05, 0.00010060200000000001, 3.6169800000000004E-10, 1.9018359550707837E-05, 1.6753055796182408E-10, 0.00010060200000000001
DataValue, 1.7000000000000002, 3, 0, 3.8360500000000004E-10, -0.00011002700000000001, 0.00011130700000000001, 3.8360500000000004E-10, 1.9585836719425597E-05, 1.0120874745015854E-10, 0.00011130700000000001
DataValue, 1.75, 3, 0, 4.00976E-10, -0.00011958900000000001, 0.00012002200000000001, 4.00976E-10, 2.0024385134130835E-05, 1.4036740495896995E-10, 0.00012002200000000001
DataValue, 1.8, 3, 0, 4.3141800000000003E-10, -0.00013169, 0.00013152900000000002, 4.3141800000000003E-10, 2.07706042280912E-05, 1.7517638644563557E-10, 0.00013152900000000002
DataValue, 1.85, 3, 0, 4.55734E-10, -0.000138769, 0.00013864000000000001, 4.55734E-10, 2.1347927299857473E-05, 2.7159175600490109E-10, 0.00013864000000000001
DataValue, 1.9000000000000001, 3, 0, 5.0259400000000005E-10, -0.00014505800000000002, 0.000147324, 5.0259400000000005E-10, 2.2418608342178604E-05, 4.4305045350593727E-10, 0.000147324
DataValue, 1.9500000000000002, 3, 0, 5.50034E-10, -0.00013390600000000002, 0.00012824600000000002, 5.50034E-10, 2.3452803670350377E-05, 5.9830391622819018E-10, 0.00012824600000000002
DataValue, 2, 3, 0, 6.1825E-10, -0.00012925, 0.000129779, 6.1825E-10, 2.4864633518312711E-05, 6.7406937524527967E-10, 0.000129779
DataValue, 2.05, 3, 0, 6.78555E-10, -0.000125095, 0.00012116700000000001, 6.78555E-10, 2.604908827579192E-05, 4.3084095193509265E-10, 0.00012116700000000001
DataValue, 2.1, 3, 0, 7.2578000000000005E-10, -0.00012385800000000002, 0.000124638, 7.2578000000000005E-10, 2.6940304378384445E-05, 1.7000614162151862E-10, 0.000124638
DataValue, 2.15, 3, 0, 7.48184E-10, -0.000135806, 0.00013390100000000002, 7.48184E-10, 2.7352952308663135E-05, 2.810389045744384E-10, 0.00013390100000000002
DataValue, 2.2, 3, 0, 8.1891700000000008E-10, -0.00013090400000000002, 0.00012831800000000001, 8.1891700000000008E-10, 2.8616725878408943E-05, 5.231466810305167E-10, 0.00012831800000000001
DataValue, 2.25, 3, 0, 8.7854100000000006E-10, -0.00013092300000000002, 0.000127465, 8.7854100000000006E-10, 2.9640192307068457E-05, 3.4450391728748187E-10, 0.000127465
DataValue, 2.3000000000000003, 3, 0, 9.2859200000000012E-10, -0.000135425, 0.00013194000000000001, 9.2859200000000012E-10, 3.0472807550339041E-05, 1.1091311045368112E-08, 0.00013194000000000001
DataValue, 2.35, 3, 0, 3.6514100000000005E-10, -0.00044837500000000004, 0.00043532000000000005, 3.6514100000000005E-10, 1.9108662956889476E-05, 3.5022380278162289E-09, 0.00043532000000000005
