
SetupTitle, Transfer lin
PrimitiveTest, I/V Sweep
TestParameter, Context.MainFrame, 4155C
TestParameter, Channel.UnitType, SMU, SMU, SMU
TestParameter, Channel.Unit, SMU1:MP, SMU4:MP, SMU3:MP
TestParameter, Channel.IName, ID, IS, IG
TestParameter, Channel.VName, VD, VS, VG
TestParameter, Channel.Mode, V, COMMON, V
TestParameter, Channel.Func, CONST, CONST, VAR1
TestParameter, Channel.Index, 
TestParameter, Channel.Time, 
TestParameter, Measurement.Port.Unit, SMU1:MP, SMU4:MP, SMU3:MP
TestParameter, Measurement.Port.SeriesResistor, NONE, NONE, NONE
TestParameter, Measurement.Port.Filter, ON, ON, ON
TestParameter, Measurement.Primary.Locus, Double
TestParameter, Measurement.Primary.Scale, LINEAR
TestParameter, Measurement.Primary.Start, -2
TestParameter, Measurement.Primary.Stop, 3
TestParameter, Measurement.Primary.Step, 0.05
TestParameter, Measurement.Primary.Compliance, 0.001
TestParameter, Measurement.Primary.PowerCompliance, 0
TestParameter, Measurement.Aborting.Condition, CONTINUE AT ANY
TestParameter, Measurement.PostOutput.Value, START
TestParameter, Measurement.PostOutput.Retention, OFF
TestParameter, Measurement.Bias.Source, 0.1, 0, -2
TestParameter, Measurement.Bias.Compliance, 0.001, 0.1, 0.001
TestParameter, Measurement.Monitor.Unit, SMU1:MP, SMU4:MP, SMU3:MP
TestParameter, Measurement.Monitor.Adc, HR ADC, HR ADC, HR ADC
TestParameter, Measurement.Monitor.RangingMode, AUTO, AUTO, AUTO
TestParameter, Measurement.Monitor.RangeBoundary, , , 
TestParameter, Measurement.Monitor.RangeRating, BY FULL RANGE, BY FULL RANGE, BY FULL RANGE
TestParameter, Measurement.Monitor.RangeRatingCoeff, 50, 50, 50
TestParameter, Measurement.Timing.Hold, 0.5
TestParameter, Measurement.Timing.Delay, 0.05
TestParameter, Measurement.Adc.HighResolution.AutoZero, OFF
TestParameter, Measurement.Adc.HighResolution.Mode, AUTO
TestParameter, Measurement.Adc.HighResolution.Coeff, 1
TestParameter, Measurement.Ag16440ASelector.SemiconductorRelay.Channel1, DEFAULT
TestParameter, Measurement.Ag16440ASelector.SemiconductorRelay.Channel3, DEFAULT
TestParameter, Function.User.Name, absID, sqrtID, gm2, absIG
TestParameter, Function.User.Unit, A, A, A/V, A
TestParameter, Function.User.Definition, abs(ID), sqrt(abs(ID)), (delta(sqrtID)/delta(VG))^2, abs(IG)
TestParameter, Output.Graph.Enabled, true
TestParameter, Output.Graph.XAxis.Data, VG
TestParameter, Output.Graph.XAxis.Scale, Linear
TestParameter, Output.Graph.XAxis.Left, -5
TestParameter, Output.Graph.XAxis.Right, 7
TestParameter, Output.Graph.YAxis.Data, ID, absIG, gm2
TestParameter, Output.Graph.YAxis.Scale, Log, Log, Linear
TestParameter, Output.Graph.YAxis.Bottom, 1E-14, 1E-14, 0
TestParameter, Output.Graph.YAxis.Top, 0.01, 0.01, 1E-05
TestParameter, Output.Graph.YAxis.Group, , , 
TestParameter, Output.List.Data, VG, IG, VD, ID, VS, IS, sqrtID, gm2, absIG
TestParameter, AutoAnalysis.Interpolation, false
TestParameter, AutoAnalysis.Line1.Enabled, false
TestParameter, AutoAnalysis.Line1.Type, 1
TestParameter, AutoAnalysis.Line1.Fix, True
TestParameter, AutoAnalysis.Line1.YAxis, 0
TestParameter, AutoAnalysis.Line1.Point1.Type, 0
TestParameter, AutoAnalysis.Line1.Point1.XY.X, 
TestParameter, AutoAnalysis.Line1.Point1.XY.Y, 
TestParameter, AutoAnalysis.Line1.Point1.Data.Var, 
TestParameter, AutoAnalysis.Line1.Point1.Data.Condition, 
TestParameter, AutoAnalysis.Line1.Point1.Data.Start, false
TestParameter, AutoAnalysis.Line1.Point1.Data.StartVar, 
TestParameter, AutoAnalysis.Line1.Point1.Data.StartCondition, 
TestParameter, AutoAnalysis.Line1.Point2.Type, 0
TestParameter, AutoAnalysis.Line1.Point2.XY.X, 
TestParameter, AutoAnalysis.Line1.Point2.XY.Y, 
TestParameter, AutoAnalysis.Line1.Point2.Data.Var, 
TestParameter, AutoAnalysis.Line1.Point2.Data.Condition, 
TestParameter, AutoAnalysis.Line1.Point2.Data.Start, false
TestParameter, AutoAnalysis.Line1.Point2.Data.StartVar, 
TestParameter, AutoAnalysis.Line1.Point2.Data.StartCondition, 
TestParameter, AutoAnalysis.Line1.GradientExpr, 0
TestParameter, AutoAnalysis.Line2.Enabled, false
TestParameter, AutoAnalysis.Line2.Type, 1
TestParameter, AutoAnalysis.Line2.Fix, True
TestParameter, AutoAnalysis.Line2.YAxis, 0
TestParameter, AutoAnalysis.Line2.Point1.Type, 0
TestParameter, AutoAnalysis.Line2.Point1.XY.X, 
TestParameter, AutoAnalysis.Line2.Point1.XY.Y, 
TestParameter, AutoAnalysis.Line2.Point1.Data.Var, 
TestParameter, AutoAnalysis.Line2.Point1.Data.Condition, 
TestParameter, AutoAnalysis.Line2.Point1.Data.Start, false
TestParameter, AutoAnalysis.Line2.Point1.Data.StartVar, 
TestParameter, AutoAnalysis.Line2.Point1.Data.StartCondition, 
TestParameter, AutoAnalysis.Line2.Point2.Type, 0
TestParameter, AutoAnalysis.Line2.Point2.XY.X, 
TestParameter, AutoAnalysis.Line2.Point2.XY.Y, 
TestParameter, AutoAnalysis.Line2.Point2.Data.Var, 
TestParameter, AutoAnalysis.Line2.Point2.Data.Condition, 
TestParameter, AutoAnalysis.Line2.Point2.Data.Start, false
TestParameter, AutoAnalysis.Line2.Point2.Data.StartVar, 
TestParameter, AutoAnalysis.Line2.Point2.Data.StartCondition, 
TestParameter, AutoAnalysis.Line2.GradientExpr, 0
TestParameter, AutoAnalysis.Marker.Enabled, false
TestParameter, AutoAnalysis.Marker.Data.Var, 
TestParameter, AutoAnalysis.Marker.Data.Condition, 
TestParameter, AutoAnalysis.Marker.Data.Start, false
TestParameter, AutoAnalysis.Marker.Data.StartVar, 
TestParameter, AutoAnalysis.Marker.Data.StartCondition, 
MetaData, TestRecord.EntryPoint, true
MetaData, TestRecord.RecordTime, 04/24/2019 15:40:33
MetaData, TestRecord.TestTarget, 45
MetaData, TestRecord.IterationIndex, 1
MetaData, TestRecord.Preservation, true
MetaData, TestRecord.Flag, 
MetaData, TestRecord.Remarks, 350-300-G45
MetaData, TestRecord.LinkKey, 40605cfe-2f9e-4542-bfaa-f077df06f3bc
Dimension1, 202, 202, 202, 202, 202, 202, 202, 202, 202, 202
Dimension2, 1, 1, 1, 1, 1, 1, 1, 1, 1, 1
DataName, VG, VD, VS, ID, IS, IG, absID, sqrtID, gm2, absIG
DataValue, -2, 0.1, 0, 1.93E-12, 4.2000000000000004E-14, -2.661E-12, 1.93E-12, 1.3892443989449805E-06, 1.5021928066625119E-11, 2.661E-12
DataValue, -1.9500000000000002, 0.1, 0, 2.506E-12, -1.63E-13, -1.377E-12, 2.506E-12, 1.5830350596243913E-06, 1.2210360284967435E-11, 1.377E-12
DataValue, -1.9000000000000001, 0.1, 0, 3.0230000000000003E-12, 4.541E-12, -9.76E-13, 3.0230000000000003E-12, 1.7386776584519628E-06, 2.0127615931133076E-10, 9.76E-13
DataValue, -1.85, 0.1, 0, 2.7000000000000002E-14, -9.147E-12, -2.6920000000000002E-12, 2.7000000000000002E-14, 1.6431676725154984E-07, 8.2244113645421943E-12, 2.6920000000000002E-12
DataValue, -1.8, 0.1, 0, 2.1080000000000003E-12, 6.134E-12, -9.0400000000000009E-13, 2.1080000000000003E-12, 1.4518953130305229E-06, 2.8695652584782985E-11, 9.0400000000000009E-13
DataValue, -1.75, 0.1, 0, -4.9E-13, 1.0640000000000001E-12, 2.55E-13, 4.9E-13, 7.0000000000000007E-07, 4.0503040560061348E-11, 2.55E-13
DataValue, -1.7000000000000002, 0.1, 0, 6.6500000000000009E-13, -4.515E-12, -1.9900000000000002E-12, 6.6500000000000009E-13, 8.1547532151500462E-07, 2.4875091240900781E-11, 1.9900000000000002E-12
DataValue, -1.6500000000000001, 0.1, 0, -1.437E-12, 3.6488000000000004E-11, -1.734E-12, 1.437E-12, 1.1987493482792807E-06, 4.1691376572311085E-11, 1.734E-12
DataValue, -1.6, 0.1, 0, 2.135E-12, 1.1020000000000001E-11, -1.7930000000000001E-12, 2.135E-12, 1.4611639196202458E-06, 5.4769579308754687E-11, 1.7930000000000001E-12
DataValue, -1.55, 0.1, 0, 3.7590000000000004E-12, -6.9300000000000008E-13, 1.9600000000000002E-13, 3.7590000000000004E-12, 1.9388140705080516E-06, 4.4264207353585993E-13, 1.9600000000000002E-13
DataValue, -1.5, 0.1, 0, -1.9450000000000003E-12, -1.3085000000000001E-11, -3.0390000000000003E-12, 1.9450000000000003E-12, 1.3946325680981355E-06, 1.1658488476203934E-10, 3.0390000000000003E-12
DataValue, -1.4500000000000002, 0.1, 0, -7.3800000000000009E-13, 1.2360000000000002E-12, 1.918E-12, 7.3800000000000009E-13, 8.5906926379658128E-07, 1.6789243020954908E-11, 1.918E-12
DataValue, -1.4000000000000001, 0.1, 0, 9.7000000000000011E-13, 1.3977000000000002E-11, -3.8010000000000005E-12, 9.7000000000000011E-13, 9.8488578017961055E-07, 2.2880766878381591E-10, 3.8010000000000005E-12
DataValue, -1.35, 0.1, 0, 5.6250000000000008E-12, 4.326E-12, -5.4000000000000003E-14, 5.6250000000000008E-12, 2.3717082451262848E-06, 2.5918502110649105E-11, 5.4000000000000003E-14
DataValue, -1.3, 0.1, 0, -2.232E-12, -4.254E-12, -7.1800000000000007E-13, 2.232E-12, 1.4939879517586478E-06, 3.3571916836151979E-10, 7.1800000000000007E-13
DataValue, -1.25, 0.1, 0, 2.91E-13, -3.8500000000000003E-13, -3.4900000000000003E-13, 2.91E-13, 5.3944415837044707E-07, 2.3449024951585414E-12, 3.4900000000000003E-13
DataValue, -1.2, 0.1, 0, -2.7130000000000003E-12, 2.5080000000000002E-12, 8.7400000000000011E-13, 2.7130000000000003E-12, 1.647118696390761E-06, 7.288952132336237E-11, 8.7400000000000011E-13
DataValue, -1.1500000000000001, 0.1, 0, -1.9410000000000003E-12, 4.5950000000000005E-12, -5.2600000000000008E-13, 1.9410000000000003E-12, 1.3931977605494491E-06, 8.9074299676647931E-13, 5.2600000000000008E-13
DataValue, -1.1, 0.1, 0, 2.411E-12, -2.4380000000000003E-12, -7.72E-13, 2.411E-12, 1.5527395145355194E-06, 8.6490209897186678E-15, 7.72E-13
DataValue, -1.05, 0.1, 0, 1.967E-12, 3.0440000000000004E-12, -4.4790000000000006E-12, 1.967E-12, 1.4024977718342372E-06, 4.9342960707350121E-11, 4.4790000000000006E-12
DataValue, -1, 0.1, 0, 7.23E-13, 8.194E-12, -9.97E-13, 7.23E-13, 8.5029406677925263E-07, 2.2320334253510675E-11, 9.97E-13
DataValue, -0.95000000000000007, 0.1, 0, 8.65E-13, -7.897E-12, -3.8500000000000003E-13, 8.65E-13, 9.3005376188691378E-07, 1.8803763701216462E-12, 3.8500000000000003E-13
DataValue, -0.9, 0.1, 0, -9.75E-13, 2.6882000000000003E-11, -1.3530000000000002E-12, 9.75E-13, 9.87420882906575E-07, 2.9179658026178624E-11, 1.3530000000000002E-12
DataValue, -0.85000000000000009, 0.1, 0, -1.52E-13, -2.2130000000000004E-12, -1.7260000000000001E-12, 1.52E-13, 3.8987177379235857E-07, 2.3984385059695533E-11, 1.7260000000000001E-12
DataValue, -0.8, 0.1, 0, -2.182E-12, 9.02E-12, -2.84E-13, 2.182E-12, 1.477159436215333E-06, 1.3670277731530745E-11, 2.84E-13
DataValue, -0.75, 0.1, 0, -5.7700000000000007E-13, -9.15E-13, -5.39E-13, 5.7700000000000007E-13, 7.5960516059331776E-07, 3.248646094001132E-12, 5.39E-13
DataValue, -0.70000000000000007, 0.1, 0, 1.6820000000000001E-12, 6.2590000000000007E-12, 3.0000000000000003E-13, 1.6820000000000001E-12, 1.296919426949878E-06, 4.0707454056404586E-13, 3.0000000000000003E-13
DataValue, -0.65, 0.1, 0, 6.78E-13, -1.3420000000000001E-12, -2.616E-12, 6.78E-13, 8.2340755400955613E-07, 1.1513687977779231E-11, 2.616E-12
DataValue, -0.6, 0.1, 0, 9.17E-13, 1.5510000000000002E-12, -4.9000000000000006E-14, 9.17E-13, 9.57601169589929E-07, 7.6002217297625549E-12, 4.9000000000000006E-14
DataValue, -0.55, 0.1, 0, 3.0000000000000003E-13, -4.95E-13, -5.0000000000000008E-15, 3.0000000000000003E-13, 5.4772255750516616E-07, 4.8260990713115844E-12, 5.0000000000000008E-15
DataValue, -0.5, 0.1, 0, 1.3860000000000002E-12, -6.2520000000000004E-12, -2.92E-12, 1.3860000000000002E-12, 1.1772850122209151E-06, 2.4442214457357279E-11, 2.92E-12
DataValue, -0.45, 0.1, 0, -1.086E-12, 4.5470000000000007E-12, 2.94E-13, 1.086E-12, 1.0421132376090421E-06, 6.24417135117819E-11, 2.94E-13
DataValue, -0.4, 0.1, 0, 3.871E-12, -2.3450000000000002E-12, -4.9E-13, 3.871E-12, 1.9674857051577276E-06, 1.1413438415807053E-10, 4.9E-13
DataValue, -0.35000000000000003, 0.1, 0, 4.454E-12, -6.2560000000000008E-12, 7.4100000000000007E-13, 4.454E-12, 2.110450188940739E-06, 1.5831607756258162E-11, 7.4100000000000007E-13
DataValue, -0.3, 0.1, 0, 5.595E-12, -1.0965000000000001E-11, 6.4600000000000007E-13, 5.595E-12, 2.3653752345029741E-06, 1.0501646952196989E-09, 6.4600000000000007E-13
DataValue, -0.25, 0.1, 0, 2.8634E-11, -2.7607000000000002E-11, 5.34E-13, 2.8634E-11, 5.3510746584214282E-06, 6.3421446589577874E-09, 5.34E-13
DataValue, -0.2, 0.1, 0, 1.06691E-10, -1.0545800000000001E-10, 1.719E-12, 1.06691E-10, 1.0329133555143916E-05, 1.9399010895276424E-08, 1.719E-12
DataValue, -0.15, 0.1, 0, 3.7168400000000004E-10, -3.53934E-10, 3.6000000000000003E-13, 3.7168400000000004E-10, 1.9279107863176659E-05, 5.1367279038953449E-08, 3.6000000000000003E-13
DataValue, -0.1, 0.1, 0, 1.08857E-09, -1.0325E-09, 2.83E-13, 1.08857E-09, 3.2993484205218463E-05, 1.4262811293913871E-07, 2.83E-13
DataValue, -0.05, 0.1, 0, 3.25416E-09, -3.1805E-09, 2.278E-12, 3.25416E-09, 5.7045245200629996E-05, 3.07317286684697E-07, 2.278E-12
DataValue, 0, 0.1, 0, 7.81981E-09, -7.63633E-09, 3.14E-13, 7.81981E-09, 8.8429689584437651E-05, 4.1053338181224127E-07, 3.14E-13
DataValue, 0.05, 0.1, 0, 1.4669599999999998E-08, -1.4022699999999998E-08, -1.0660000000000001E-12, 1.4669599999999998E-08, 0.00012111812415984652, 4.7269759253712518E-07, 1.0660000000000001E-12
DataValue, 0.1, 0.1, 0, 2.4706399999999998E-08, -2.4215699999999997E-08, 2.3870000000000002E-12, 2.4706399999999998E-08, 0.00015718269624866472, 4.4714777985354088E-07, 2.3870000000000002E-12
DataValue, 0.15, 0.1, 0, 3.5339199999999994E-08, -3.4664899999999994E-08, 3.4600000000000004E-13, 3.5339199999999994E-08, 0.00018798723360909377, 3.1962978353280873E-07, 3.4600000000000004E-13
DataValue, 0.2, 0.1, 0, 4.5675599999999996E-08, -4.4891599999999994E-08, 1.1E-14, 4.5675599999999996E-08, 0.00021371850645182788, 2.2968499181625357E-07, 1.1E-14
DataValue, 0.25, 0.1, 0, 5.5654799999999994E-08, -5.47057E-08, -1.5000000000000002E-13, 5.5654799999999994E-08, 0.00023591269571602118, 1.81145774844393E-07, 1.5000000000000002E-13
DataValue, 0.3, 0.1, 0, 6.5679299999999992E-08, -6.4573899999999988E-08, 7E-15, 6.5679299999999992E-08, 0.00025627972998268903, 1.5303055984958832E-07, 7E-15
DataValue, 0.35000000000000003, 0.1, 0, 7.56425E-08, -7.42278E-08, 3.0100000000000003E-13, 7.56425E-08, 0.00027503181634130983, 1.3887807060768772E-07, 3.0100000000000003E-13
DataValue, 0.4, 0.1, 0, 8.6169299999999985E-08, -8.459509999999999E-08, 5.7100000000000009E-13, 8.6169299999999985E-08, 0.00029354607815469105, 1.3598528663717682E-07, 5.7100000000000009E-13
DataValue, 0.45, 0.1, 0, 9.72866E-08, -9.5578899999999993E-08, 6.9600000000000006E-13, 9.72866E-08, 0.00031190799925619092, 1.0274184654865748E-07, 6.9600000000000006E-13
DataValue, 0.5, 0.1, 0, 1.06015E-07, -1.0456099999999999E-07, 9.78E-13, 1.06015E-07, 0.00032559944717397784, 1.2830969717889643E-07, 9.78E-13
DataValue, 0.55, 0.1, 0, 1.20915E-07, -1.1642999999999999E-07, 7.24E-13, 1.20915E-07, 0.00034772834224434452, 1.8729182888587522E-07, 7.24E-13
DataValue, 0.6, 0.1, 0, 1.3607E-07, -1.33794E-07, 7.3700000000000009E-13, 1.3607E-07, 0.00036887667315784552, 1.8998603106078655E-07, 7.3700000000000009E-13
DataValue, 0.65, 0.1, 0, 1.53128E-07, -1.5078599999999998E-07, 1.83E-13, 1.53128E-07, 0.0003913157293030782, 2.0579652888687537E-07, 1.83E-13
DataValue, 0.70000000000000007, 0.1, 0, 1.71596E-07, -1.68727E-07, 6.7000000000000007E-13, 1.71596E-07, 0.00041424147547052795, 2.1969323859411926E-07, 6.7000000000000007E-13
DataValue, 0.75, 0.1, 0, 1.92008E-07, -1.8905E-07, -5.2700000000000008E-13, 1.92008E-07, 0.00043818717461833589, 2.3199975789421557E-07, 5.2700000000000008E-13
DataValue, 0.8, 0.1, 0, 2.13821E-07, -2.1101199999999998E-07, 5.4E-13, 2.13821E-07, 0.00046240782865345176, 2.514386223451635E-07, 5.4E-13
DataValue, 0.85000000000000009, 0.1, 0, 2.38467E-07, -2.35239E-07, 3.74E-13, 2.38467E-07, 0.00048833083048277839, 2.8149433920937159E-07, 3.74E-13
DataValue, 0.9, 0.1, 0, 2.65703E-07, -2.62759E-07, 8.780000000000001E-13, 2.65703E-07, 0.0005154638687628843, 3.0823963040724724E-07, 8.780000000000001E-13
DataValue, 0.95000000000000007, 0.1, 0, 2.95773E-07, -2.9217E-07, 3.2500000000000003E-13, 2.95773E-07, 0.00054385016318835467, 3.2988680670225183E-07, 3.2500000000000003E-13
DataValue, 1, 0.1, 0, 3.28214E-07, -3.24754E-07, 5.62E-13, 3.28214E-07, 0.00057289964217129691, 3.6127265532450261E-07, 5.62E-13
DataValue, 1.05, 0.1, 0, 3.6476299999999997E-07, -3.61049E-07, 1.9600000000000002E-13, 3.6476299999999997E-07, 0.0006039561242342029, 3.9604487796082764E-07, 1.9600000000000002E-13
DataValue, 1.1, 0.1, 0, 4.0428199999999997E-07, -4.00559E-07, -1.124E-12, 4.0428199999999997E-07, 0.00063583173874854661, 4.1930582196338308E-07, 1.124E-12
DataValue, 1.1500000000000001, 0.1, 0, 4.47173E-07, -4.42914E-07, 3.1200000000000003E-13, 4.47173E-07, 0.00066870995207189785, 4.4748582686926067E-07, 3.1200000000000003E-13
DataValue, 1.2, 0.1, 0, 4.93824E-07, -4.8923E-07, 8.530000000000001E-13, 4.93824E-07, 0.0007027261201919279, 4.7148989920755939E-07, 8.530000000000001E-13
DataValue, 1.25, 0.1, 0, 5.43722E-07, -5.39933E-07, 6.13E-13, 5.43722E-07, 0.00073737507416510892, 4.9168937436930487E-07, 6.13E-13
DataValue, 1.3, 0.1, 0, 5.97292E-07, -5.92909E-07, -1.9700000000000003E-12, 5.97292E-07, 0.00077284668596041737, 5.1067809951644383E-07, 1.9700000000000003E-12
DataValue, 1.35, 0.1, 0, 6.54217E-07, -6.50531E-07, 6.34E-13, 6.54217E-07, 0.00080883681914215553, 5.39802034632183E-07, 6.34E-13
DataValue, 1.4000000000000001, 0.1, 0, 7.16254E-07, -7.12091E-07, 6.86E-13, 7.16254E-07, 0.00084631790717200361, 5.5450274827946366E-07, 6.86E-13
DataValue, 1.4500000000000002, 0.1, 0, 7.80222E-07, -7.76391E-07, 1.76E-13, 7.80222E-07, 0.000883301760442036, 5.6749468916393377E-07, 1.76E-13
DataValue, 1.5, 0.1, 0, 8.49439E-07, -8.44927E-07, 1.0940000000000002E-12, 8.49439E-07, 0.00092165015054520552, 5.94227945629652E-07, 1.0940000000000002E-12
DataValue, 1.55, 0.1, 0, 9.22345E-07, -9.17692E-07, 7.100000000000001E-13, 9.22345E-07, 0.0009603879424482588, 5.9509839368304644E-07, 7.100000000000001E-13
DataValue, 1.6, 0.1, 0, 9.97587E-07, -9.93483E-07, 7.25E-13, 9.97587E-07, 0.00099879277129943239, 5.9952495909184585E-07, 7.25E-13
DataValue, 1.6500000000000001, 0.1, 0, 1.0770639999999999E-06, -1.072667E-06, 5.89E-13, 1.0770639999999999E-06, 0.0010378169395418443, 5.6648134915499983E-07, 5.89E-13
DataValue, 1.7000000000000002, 0.1, 0, 1.1536E-06, -1.14974E-06, 4.12E-13, 1.1536E-06, 0.0010740577265678042, 5.7713490440450528E-07, 4.12E-13
DataValue, 1.75, 0.1, 0, 1.2405200000000002E-06, -1.2372200000000001E-06, 4.5400000000000003E-13, 1.2405200000000002E-06, 0.0011137863349853058, 6.1691095028904786E-07, 4.5400000000000003E-13
DataValue, 1.8, 0.1, 0, 1.3284900000000002E-06, -1.32576E-06, 6.9000000000000009E-13, 1.3284900000000002E-06, 0.0011526014055171026, 6.0457908888639907E-07, 6.9000000000000009E-13
DataValue, 1.85, 0.1, 0, 1.4197700000000002E-06, -1.4165000000000001E-06, -1.592E-12, 1.4197700000000002E-06, 0.0011915410190169705, 5.9553526125709754E-07, 1.592E-12
DataValue, 1.9000000000000001, 0.1, 0, 1.5123400000000002E-06, -1.5097700000000002E-06, -1.3740000000000002E-12, 1.5123400000000002E-06, 0.0012297723366542282, 5.8258522483068766E-07, 1.3740000000000002E-12
DataValue, 1.9500000000000002, 0.1, 0, 1.6074900000000002E-06, -1.6044600000000002E-06, 9.21E-13, 1.6074900000000002E-06, 0.00126786828968943, 5.6854587696795337E-07, 9.21E-13
DataValue, 2, 0.1, 0, 1.7034800000000002E-06, -1.7012100000000002E-06, 1.049E-12, 1.7034800000000002E-06, 0.0013051743178594958, 5.5323582901527233E-07, 1.049E-12
DataValue, 2.05, 0.1, 0, 1.8016300000000002E-06, -1.7991100000000001E-06, -1.4200000000000002E-12, 1.8016300000000002E-06, 0.0013422481141726369, 5.4667857434987266E-07, 1.4200000000000002E-12
DataValue, 2.1, 0.1, 0, 1.9019500000000003E-06, -1.8994300000000002E-06, 9.5600000000000017E-13, 1.9019500000000003E-06, 0.0013791120331575677, 5.4005512901198E-07, 9.5600000000000017E-13
DataValue, 2.15, 0.1, 0, 2.0043100000000003E-06, -2.0024700000000003E-06, 3.0180000000000003E-12, 2.0043100000000003E-06, 0.0014157365574145495, 5.238409516417944E-07, 3.0180000000000003E-12
DataValue, 2.2, 0.1, 0, 2.10682E-06, -2.10452E-06, 5.700000000000001E-14, 2.10682E-06, 0.0014514888907601049, 4.9997438836999451E-07, 5.700000000000001E-14
