
SetupTitle, Transfer lin
PrimitiveTest, I/V Sweep
TestParameter, Context.MainFrame, 4155C
TestParameter, Channel.UnitType, SMU, SMU, SMU
TestParameter, Channel.Unit, SMU1:MP, SMU4:MP, SMU3:MP
TestParameter, Channel.IName, ID, IS, IG
TestParameter, Channel.VName, VD, VS, VG
TestParameter, Channel.Mode, V, COMMON, V
TestParameter, Channel.Func, CONST, CONST, VAR1
TestParameter, Channel.Index, 
TestParameter, Channel.Time, 
TestParameter, Measurement.Port.Unit, SMU1:MP, SMU4:MP, SMU3:MP
TestParameter, Measurement.Port.SeriesResistor, NONE, NONE, NONE
TestParameter, Measurement.Port.Filter, ON, ON, ON
TestParameter, Measurement.Primary.Locus, Double
TestParameter, Measurement.Primary.Scale, LINEAR
TestParameter, Measurement.Primary.Start, -2
TestParameter, Measurement.Primary.Stop, 3
TestParameter, Measurement.Primary.Step, 0.05
TestParameter, Measurement.Primary.Compliance, 0.001
TestParameter, Measurement.Primary.PowerCompliance, 0
TestParameter, Measurement.Aborting.Condition, CONTINUE AT ANY
TestParameter, Measurement.PostOutput.Value, START
TestParameter, Measurement.PostOutput.Retention, OFF
TestParameter, Measurement.Bias.Source, 0.1, 0, -2
TestParameter, Measurement.Bias.Compliance, 0.001, 0.1, 0.001
TestParameter, Measurement.Monitor.Unit, SMU1:MP, SMU4:MP, SMU3:MP
TestParameter, Measurement.Monitor.Adc, HR ADC, HR ADC, HR ADC
TestParameter, Measurement.Monitor.RangingMode, AUTO, AUTO, AUTO
TestParameter, Measurement.Monitor.RangeBoundary, , , 
TestParameter, Measurement.Monitor.RangeRating, BY FULL RANGE, BY FULL RANGE, BY FULL RANGE
TestParameter, Measurement.Monitor.RangeRatingCoeff, 50, 50, 50
TestParameter, Measurement.Timing.Hold, 0.5
TestParameter, Measurement.Timing.Delay, 0.05
TestParameter, Measurement.Adc.HighResolution.AutoZero, OFF
TestParameter, Measurement.Adc.HighResolution.Mode, AUTO
TestParameter, Measurement.Adc.HighResolution.Coeff, 1
TestParameter, Measurement.Ag16440ASelector.SemiconductorRelay.Channel1, DEFAULT
TestParameter, Measurement.Ag16440ASelector.SemiconductorRelay.Channel3, DEFAULT
TestParameter, Function.User.Name, absID, sqrtID, gm2, absIG
TestParameter, Function.User.Unit, A, A, A/V, A
TestParameter, Function.User.Definition, abs(ID), sqrt(abs(ID)), (delta(sqrtID)/delta(VG))^2, abs(IG)
TestParameter, Output.Graph.Enabled, true
TestParameter, Output.Graph.XAxis.Data, VG
TestParameter, Output.Graph.XAxis.Scale, Linear
TestParameter, Output.Graph.XAxis.Left, -5
TestParameter, Output.Graph.XAxis.Right, 7
TestParameter, Output.Graph.YAxis.Data, ID, absIG, gm2
TestParameter, Output.Graph.YAxis.Scale, Log, Log, Linear
TestParameter, Output.Graph.YAxis.Bottom, 1E-14, 1E-14, 0
TestParameter, Output.Graph.YAxis.Top, 0.01, 0.01, 1E-05
TestParameter, Output.Graph.YAxis.Group, , , 
TestParameter, Output.List.Data, VG, IG, VD, ID, VS, IS, sqrtID, gm2, absIG
TestParameter, AutoAnalysis.Interpolation, false
TestParameter, AutoAnalysis.Line1.Enabled, false
TestParameter, AutoAnalysis.Line1.Type, 1
TestParameter, AutoAnalysis.Line1.Fix, True
TestParameter, AutoAnalysis.Line1.YAxis, 0
TestParameter, AutoAnalysis.Line1.Point1.Type, 0
TestParameter, AutoAnalysis.Line1.Point1.XY.X, 
TestParameter, AutoAnalysis.Line1.Point1.XY.Y, 
TestParameter, AutoAnalysis.Line1.Point1.Data.Var, 
TestParameter, AutoAnalysis.Line1.Point1.Data.Condition, 
TestParameter, AutoAnalysis.Line1.Point1.Data.Start, false
TestParameter, AutoAnalysis.Line1.Point1.Data.StartVar, 
TestParameter, AutoAnalysis.Line1.Point1.Data.StartCondition, 
TestParameter, AutoAnalysis.Line1.Point2.Type, 0
TestParameter, AutoAnalysis.Line1.Point2.XY.X, 
TestParameter, AutoAnalysis.Line1.Point2.XY.Y, 
TestParameter, AutoAnalysis.Line1.Point2.Data.Var, 
TestParameter, AutoAnalysis.Line1.Point2.Data.Condition, 
TestParameter, AutoAnalysis.Line1.Point2.Data.Start, false
TestParameter, AutoAnalysis.Line1.Point2.Data.StartVar, 
TestParameter, AutoAnalysis.Line1.Point2.Data.StartCondition, 
TestParameter, AutoAnalysis.Line1.GradientExpr, 0
TestParameter, AutoAnalysis.Line2.Enabled, false
TestParameter, AutoAnalysis.Line2.Type, 1
TestParameter, AutoAnalysis.Line2.Fix, True
TestParameter, AutoAnalysis.Line2.YAxis, 0
TestParameter, AutoAnalysis.Line2.Point1.Type, 0
TestParameter, AutoAnalysis.Line2.Point1.XY.X, 
TestParameter, AutoAnalysis.Line2.Point1.XY.Y, 
TestParameter, AutoAnalysis.Line2.Point1.Data.Var, 
TestParameter, AutoAnalysis.Line2.Point1.Data.Condition, 
TestParameter, AutoAnalysis.Line2.Point1.Data.Start, false
TestParameter, AutoAnalysis.Line2.Point1.Data.StartVar, 
TestParameter, AutoAnalysis.Line2.Point1.Data.StartCondition, 
TestParameter, AutoAnalysis.Line2.Point2.Type, 0
TestParameter, AutoAnalysis.Line2.Point2.XY.X, 
TestParameter, AutoAnalysis.Line2.Point2.XY.Y, 
TestParameter, AutoAnalysis.Line2.Point2.Data.Var, 
TestParameter, AutoAnalysis.Line2.Point2.Data.Condition, 
TestParameter, AutoAnalysis.Line2.Point2.Data.Start, false
TestParameter, AutoAnalysis.Line2.Point2.Data.StartVar, 
TestParameter, AutoAnalysis.Line2.Point2.Data.StartCondition, 
TestParameter, AutoAnalysis.Line2.GradientExpr, 0
TestParameter, AutoAnalysis.Marker.Enabled, false
TestParameter, AutoAnalysis.Marker.Data.Var, 
TestParameter, AutoAnalysis.Marker.Data.Condition, 
TestParameter, AutoAnalysis.Marker.Data.Start, false
TestParameter, AutoAnalysis.Marker.Data.StartVar, 
TestParameter, AutoAnalysis.Marker.Data.StartCondition, 
MetaData, TestRecord.EntryPoint, true
MetaData, TestRecord.RecordTime, 04/24/2019 09:59:56
MetaData, TestRecord.TestTarget, 21
MetaData, TestRecord.IterationIndex, 1
MetaData, TestRecord.Preservation, true
MetaData, TestRecord.Flag, 
MetaData, TestRecord.Remarks, 350-300-G21
MetaData, TestRecord.LinkKey, 63042e4a-ccf2-47a4-9762-1dc2fd7f09a0
Dimension1, 202, 202, 202, 202, 202, 202, 202, 202, 202, 202
Dimension2, 1, 1, 1, 1, 1, 1, 1, 1, 1, 1
DataName, VG, VD, VS, ID, IS, IG, absID, sqrtID, gm2, absIG
DataValue, -2, 0.1, 0, 1.4248000000000002E-11, -1.0185000000000002E-11, -7.8000000000000008E-14, 1.4248000000000002E-11, 3.7746523018683457E-06, 3.0131399182757758E-09, 7.8000000000000008E-14
DataValue, -1.9500000000000002, 0.1, 0, 1.061E-12, 1.7690000000000002E-12, -1.099E-12, 1.061E-12, 1.0300485425454473E-06, 1.0219050538912951E-09, 1.099E-12
DataValue, -1.9000000000000001, 0.1, 0, 3.3400000000000004E-13, -1.063E-12, -2.9350000000000003E-12, 3.3400000000000004E-13, 5.7792733107199562E-07, 1.3283553138217568E-11, 2.9350000000000003E-12
DataValue, -1.85, 0.1, 0, -4.4300000000000003E-13, -3.1435E-11, 7.3920000000000008E-12, 4.4300000000000003E-13, 6.6558245169174947E-07, 1.7604078488511971E-10, 7.3920000000000008E-12
DataValue, -1.8, 0.1, 0, -3.6280000000000003E-12, 1.8839E-11, -4.107E-12, 3.6280000000000003E-12, 1.9047309521294603E-06, 3.3944169527518484E-11, 4.107E-12
DataValue, -1.75, 0.1, 0, -1.558E-12, -1.5708000000000002E-11, 1.329E-12, 1.558E-12, 1.2481987021303941E-06, 1.9735946524220589E-11, 1.329E-12
DataValue, -1.7000000000000002, 0.1, 0, 2.1330000000000003E-12, -7.515000000000001E-12, -3.7400000000000006E-12, 2.1330000000000003E-12, 1.4604793733565702E-06, 2.5508829377519129E-10, 3.7400000000000006E-12
DataValue, -1.6500000000000001, 0.1, 0, 8.096000000000001E-12, 1.1790000000000001E-12, 1.481E-12, 8.096000000000001E-12, 2.8453470790045984E-06, 1.631758475574216E-10, 1.481E-12
DataValue, -1.6, 0.1, 0, -7.4960000000000012E-12, -2.6915E-11, 3.1220000000000002E-12, 7.4960000000000012E-12, 2.7378823933836166E-06, 7.6990799619735657E-12, 3.1220000000000002E-12
DataValue, -1.55, 0.1, 0, 9.7520000000000013E-12, -1.2081E-11, -1.1480000000000002E-12, 9.7520000000000013E-12, 3.1228192390850934E-06, 9.99560008069395E-11, 1.1480000000000002E-12
DataValue, -1.5, 0.1, 0, -3.021E-12, 3.196E-12, -1.0810000000000001E-12, 3.021E-12, 1.7381024135533557E-06, 5.3867923365739079E-10, 1.0810000000000001E-12
DataValue, -1.4500000000000002, 0.1, 0, -6.4300000000000009E-13, -1.3960000000000001E-12, -4.91E-13, 6.4300000000000009E-13, 8.0187280786917824E-07, 2.4140195010766771E-10, 4.91E-13
DataValue, -1.4000000000000001, 0.1, 0, -3.4E-14, 3.539E-12, -1.335E-12, 3.4E-14, 1.8439088914585774E-07, 2.1009528954636772E-11, 1.335E-12
DataValue, -1.35, 0.1, 0, 1.18E-13, 6.6E-12, -8.9540000000000008E-12, 1.18E-13, 3.4351128074635336E-07, 2.6070329693887949E-11, 8.9540000000000008E-12
DataValue, -1.3, 0.1, 0, -4.8300000000000006E-13, 9.782E-12, 4.338E-12, 4.8300000000000006E-13, 6.9498201415576226E-07, 1.2454415041719869E-11, 4.338E-12
DataValue, -1.25, 0.1, 0, -4.8500000000000005E-13, 4.93E-13, -9.308E-12, 4.8500000000000005E-13, 6.96419413859206E-07, 8.3160442601831021E-16, 9.308E-12
DataValue, -1.2, 0.1, 0, 4.7900000000000008E-13, 3.8110000000000006E-12, -1.502E-12, 4.7900000000000008E-13, 6.9209825891993119E-07, 8.3741095075290256E-11, 1.502E-12
DataValue, -1.1500000000000001, 0.1, 0, -2.5970000000000003E-12, -1.3854000000000001E-11, 8.9E-13, 2.5970000000000003E-12, 1.6115210206509876E-06, 7.8962215665778721E-12, 8.9E-13
DataValue, -1.1, 0.1, 0, -1.69E-13, 7.694E-12, 2.436E-12, 1.69E-13, 4.1109609582188935E-07, 6.157949658189172E-11, 2.436E-12
DataValue, -1.05, 0.1, 0, 5.742E-12, 1.6800000000000001E-12, -4.0270000000000005E-12, 5.742E-12, 2.396247065725903E-06, 8.1620029607701933E-11, 4.0270000000000005E-12
DataValue, -1, 0.1, 0, -1.7280000000000001E-12, -1.0056000000000002E-11, -2.8810000000000003E-12, 1.7280000000000001E-12, 1.3145341380123987E-06, 5.0317540588420413E-14, 2.8810000000000003E-12
DataValue, -0.95000000000000007, 0.1, 0, 5.635E-12, -2.6750000000000002E-12, 5.6310000000000005E-12, 5.635E-12, 2.3738154940938438E-06, 4.9412285859963512E-12, 5.6310000000000005E-12
DataValue, -0.9, 0.1, 0, 1.193E-12, 1.3193000000000002E-11, -6.29E-13, 1.193E-12, 1.0922453936730519E-06, 6.6889366531115918E-11, 6.29E-13
DataValue, -0.85000000000000009, 0.1, 0, -2.4210000000000003E-12, -4.933E-12, -2.3200000000000002E-12, 2.4210000000000003E-12, 1.5559562975867929E-06, 1.3062843621607459E-10, 2.3200000000000002E-12
DataValue, -0.8, 0.1, 0, 4.996E-12, 1.3944000000000001E-11, -1.3920000000000001E-12, 4.996E-12, 2.2351733713517616E-06, 8.05882244156446E-12, 1.3920000000000001E-12
DataValue, -0.75, 0.1, 0, -3.3850000000000002E-12, -7.929E-12, -1.9450000000000003E-12, 3.3850000000000002E-12, 1.83983694929741E-06, 4.2528437762262505E-11, 1.9450000000000003E-12
DataValue, -0.70000000000000007, 0.1, 0, 2.506E-12, 2.21E-12, 1.209E-12, 2.506E-12, 1.5830350596243913E-06, 2.504342857175985E-11, 1.209E-12
DataValue, -0.65, 0.1, 0, -1.7940000000000002E-12, 7.7440000000000009E-12, -7.8500000000000009E-13, 1.7940000000000002E-12, 1.3394028520202577E-06, 1.0587571433806533E-10, 7.8500000000000009E-13
DataValue, -0.6, 0.1, 0, -3.07E-13, -2.042E-12, 7.99E-13, 3.07E-13, 5.5407580708780273E-07, 1.0633366303389746E-10, 7.99E-13
DataValue, -0.55, 0.1, 0, -9.5000000000000012E-14, 8.66E-13, -1.892E-12, 9.5000000000000012E-14, 3.0822070014844886E-07, 1.885118938942419E-12, 1.892E-12
DataValue, -0.5, 0.1, 0, -4.7800000000000008E-13, -1.2583000000000002E-11, 2.0370000000000003E-12, 4.7800000000000008E-13, 6.9137544069774425E-07, 4.6268891360816304E-11, 2.0370000000000003E-12
DataValue, -0.45, 0.1, 0, 9.77E-13, -2.001E-12, -1.479E-12, 9.77E-13, 9.8843310345212527E-07, 9.983738536712077E-11, 1.479E-12
DataValue, -0.4, 0.1, 0, 2.858E-12, 9.6940000000000013E-12, -8.3900000000000006E-13, 2.858E-12, 1.6905620367203328E-06, 2.0184659105107433E-11, 8.3900000000000006E-13
DataValue, -0.35000000000000003, 0.1, 0, -2.067E-12, -4.0480000000000005E-12, 1.6890000000000002E-12, 2.067E-12, 1.4377065069060514E-06, 5.606344430954534E-11, 1.6890000000000002E-12
DataValue, -0.3, 0.1, 0, 8.8700000000000006E-13, -1.086E-12, 8.9E-13, 8.8700000000000006E-13, 9.4180677423768839E-07, 1.1592594924018777E-12, 8.9E-13
DataValue, -0.25, 0.1, 0, -1.7690000000000002E-12, 5.8360000000000006E-12, -1.4490000000000002E-12, 1.7690000000000002E-12, 1.3300375934536589E-06, 2.8882524785202078E-12, 1.4490000000000002E-12
DataValue, -0.2, 0.1, 0, 1.2360000000000002E-12, -3.687E-12, 3.65E-13, 1.2360000000000002E-12, 1.1117553687749839E-06, 2.4937559752794185E-11, 3.65E-13
DataValue, -0.15, 0.1, 0, 6.9000000000000009E-13, 9.73E-13, 3.2200000000000004E-13, 6.9000000000000009E-13, 8.3066238629180759E-07, 2.0218359095782462E-17, 3.2200000000000004E-13
DataValue, -0.1, 0.1, 0, -1.237E-12, -3.733E-12, 5.9800000000000008E-13, 1.237E-12, 1.1122050170719425E-06, 2.9053081761145357E-11, 5.9800000000000008E-13
DataValue, -0.05, 0.1, 0, 1.876E-12, -6.2000000000000008E-13, 4.2800000000000004E-13, 1.876E-12, 1.3696714934611146E-06, 2.7261535625895139E-14, 4.2800000000000004E-13
DataValue, 0, 0.1, 0, -1.274E-12, -8.3700000000000007E-13, 1.3700000000000002E-13, 1.274E-12, 1.1287160847617969E-06, 1.580542626632437E-11, 1.3700000000000002E-13
DataValue, 0.05, 0.1, 0, 9.4500000000000011E-13, -2.172E-12, 1.598E-12, 9.4500000000000011E-13, 9.7211110476117919E-07, 4.6905053184773518E-12, 1.598E-12
DataValue, 0.1, 0.1, 0, -8.3200000000000009E-13, 1.9650000000000002E-12, -2.0900000000000002E-13, 8.3200000000000009E-13, 9.1214034007931048E-07, 5.4091305169566075E-11, 2.0900000000000002E-13
DataValue, 0.15, 0.1, 0, 5.6E-14, -3.6800000000000005E-12, 1.032E-12, 5.6E-14, 2.3664319132398464E-07, 1.4886667592464018E-11, 1.032E-12
DataValue, 0.2, 0.1, 0, -2.7700000000000003E-13, 1.0620000000000001E-12, -1.3800000000000002E-13, 2.7700000000000003E-13, 5.2630789467763069E-07, 1.6610657599744792E-11, 1.3800000000000002E-13
DataValue, 0.25, 0.1, 0, -4.1500000000000005E-13, -1.138E-12, -2.6630000000000003E-12, 4.1500000000000005E-13, 6.4420493633625633E-07, 4.6359237549050377E-12, 2.6630000000000003E-12
DataValue, 0.3, 0.1, 0, 5.5000000000000008E-13, 3.0100000000000003E-13, 5.45E-13, 5.5000000000000008E-13, 7.416198487095663E-07, 7.1389879220673334E-13, 5.45E-13
DataValue, 0.35000000000000003, 0.1, 0, -5.3100000000000006E-13, 4.91E-13, 2.6200000000000004E-13, 5.3100000000000006E-13, 7.2869746808946715E-07, 3.1667001677156771E-11, 2.6200000000000004E-13
DataValue, 0.4, 0.1, 0, 3.2E-14, 6.6600000000000009E-13, 1.7E-14, 3.2E-14, 1.7888543819998319E-07, 9.4154031269043635E-13, 1.7E-14
DataValue, 0.45, 0.1, 0, 3.99E-13, -2.448E-12, 1.17E-13, 3.99E-13, 6.316644678941503E-07, 2.3906904763091086E-11, 1.17E-13
DataValue, 0.5, 0.1, 0, -4.46E-13, 9.88E-13, 9.2200000000000011E-13, 4.46E-13, 6.6783231428256E-07, 3.2001953126862632E-12, 9.2200000000000011E-13
DataValue, 0.55, 0.1, 0, -6.57E-13, -1.3300000000000001E-13, -1.124E-12, 6.57E-13, 8.1055536516637781E-07, 9.7886089636678163E-12, 1.124E-12
DataValue, 0.6, 0.1, 0, 1.2600000000000002E-13, -7.6500000000000007E-13, -2.6760000000000003E-12, 1.2600000000000002E-13, 3.54964786985977E-07, 1.9397000074996258E-11, 2.6760000000000003E-12
DataValue, 0.65, 0.1, 0, 1.3700000000000002E-13, 2.6300000000000004E-13, 2.6000000000000003E-14, 1.3700000000000002E-13, 3.70135110466435E-07, 2.6177321254678731E-11, 2.6000000000000003E-14
DataValue, 0.70000000000000007, 0.1, 0, 7.51E-13, -2.094E-12, 9.0800000000000007E-13, 7.51E-13, 8.6660256173173182E-07, 7.7679273818003981E-12, 9.0800000000000007E-13
DataValue, 0.75, 0.1, 0, -4.21E-13, -7.95E-13, 4.89E-13, 4.21E-13, 6.4884512790033339E-07, 1.2723532544008081E-11, 4.89E-13
DataValue, 0.8, 0.1, 0, -2.6E-13, -6.1900000000000009E-13, 1.76E-13, 2.6E-13, 5.0990195135927852E-07, 1.2169292325979971E-11, 1.76E-13
DataValue, 0.85000000000000009, 0.1, 0, -9.0000000000000008E-14, 6.2200000000000008E-13, 4.4100000000000004E-13, 9.0000000000000008E-14, 3.0000000000000004E-07, 4.5104079085170491E-13, 4.4100000000000004E-13
DataValue, 0.9, 0.1, 0, -3.3300000000000005E-13, 3.54E-13, -3.99E-13, 3.3300000000000005E-13, 5.7706152185014041E-07, 7.7037421501901056E-11, 3.99E-13
DataValue, 0.95000000000000007, 0.1, 0, -1.387E-12, -3.61E-12, -2.807E-12, 1.387E-12, 1.177709641634983E-06, 5.3944327141042405E-12, 2.807E-12
DataValue, 1, 0.1, 0, 6.55E-13, 8.24E-12, -1.7E-13, 6.55E-13, 8.0932070281193227E-07, 6.7575032508891338E-11, 1.7E-13
DataValue, 1.05, 0.1, 0, -3.999E-12, -1.739E-11, 2.694E-12, 3.999E-12, 1.9997499843730466E-06, 1.6800018178513124E-12, 2.694E-12
DataValue, 1.1, 0.1, 0, 4.6200000000000005E-13, -2.2979000000000002E-11, 5.353E-12, 4.6200000000000005E-13, 6.7970581871865712E-07, 2.2843674019888976E-11, 5.353E-12
DataValue, 1.1500000000000001, 0.1, 0, -6.139E-12, 7.7000000000000005E-13, 1.9370000000000003E-12, 6.139E-12, 2.4777005468780929E-06, 2.9379194847084763E-10, 1.9370000000000003E-12
DataValue, 1.2, 0.1, 0, 5.7300000000000008E-12, -4.6340000000000007E-12, 3.564E-12, 5.7300000000000008E-12, 2.3937418407171648E-06, 4.462299315827697E-11, 3.564E-12
DataValue, 1.25, 0.1, 0, -3.275E-12, 1.5327E-11, -4.094E-12, 3.275E-12, 1.8096961070853858E-06, 3.0771467977099177E-11, 4.094E-12
DataValue, 1.3, 0.1, 0, 3.3820000000000003E-12, -3.746E-12, 2.92E-13, 3.3820000000000003E-12, 1.8390214789392756E-06, 2.9636027617892138E-11, 2.92E-13
DataValue, 1.35, 0.1, 0, -1.6010000000000002E-12, 1.402E-12, -6.2200000000000008E-13, 1.6010000000000002E-12, 1.2653062870309307E-06, 8.5910864557434441E-11, 6.2200000000000008E-13
DataValue, 1.4000000000000001, 0.1, 0, -8.3200000000000009E-13, -6.0380000000000007E-12, 1.9320000000000002E-12, 8.3200000000000009E-13, 9.1214034007931048E-07, 2.9822688528575677E-14, 1.9320000000000002E-12
DataValue, 1.4500000000000002, 0.1, 0, 1.6450000000000002E-12, -3.805E-12, 1.475E-12, 1.6450000000000002E-12, 1.2825755338380661E-06, 2.5349614353780917E-11, 1.475E-12
DataValue, 1.5, 0.1, 0, 1.6700000000000002E-13, -2.7430000000000003E-12, 3.51E-13, 1.6700000000000002E-13, 4.08656334834051E-07, 3.590424990890407E-11, 3.51E-13
DataValue, 1.55, 0.1, 0, 4.67E-13, -2.214E-12, -1.312E-12, 4.67E-13, 6.8337398253079548E-07, 5.4540307167738569E-11, 1.312E-12
DataValue, 1.6, 0.1, 0, 1.316E-12, -3.976E-12, 4.9000000000000006E-14, 1.316E-12, 1.147170431975999E-06, 1.6175104089098375E-12, 4.9000000000000006E-14
DataValue, 1.6500000000000001, 0.1, 0, 6.57E-13, -3.939E-12, 2.1330000000000003E-12, 6.57E-13, 8.1055536516637781E-07, 1.0860176189837162E-10, 2.1330000000000003E-12
DataValue, 1.7000000000000002, 0.1, 0, -4.793E-12, -1.898E-12, -8.6200000000000006E-13, 4.793E-12, 2.1892921230388605E-06, 2.3349968539207742E-13, 8.6200000000000006E-13
DataValue, 1.75, 0.1, 0, 5.81E-13, 1.881E-12, 8.68E-13, 5.81E-13, 7.6223356000638024E-07, 2.8914140988972273E-10, 8.68E-13
DataValue, 1.8, 0.1, 0, 2.3900000000000004E-13, -3.176E-12, 6.0400000000000005E-13, 2.3900000000000004E-13, 4.8887626246321274E-07, 8.0863451002323418E-13, 6.0400000000000005E-13
DataValue, 1.85, 0.1, 0, -4.5200000000000004E-13, 6.4200000000000009E-13, -9.8700000000000014E-13, 4.5200000000000004E-13, 6.7230945255886449E-07, 2.0296589919735207E-12, 9.8700000000000014E-13
DataValue, 1.9000000000000001, 0.1, 0, 1.2000000000000002E-13, -5.7900000000000006E-13, -2.0030000000000002E-12, 1.2000000000000002E-13, 3.464101615137755E-07, 3.1678522899180341E-12, 2.0030000000000002E-12
DataValue, 1.9500000000000002, 0.1, 0, -7.23E-13, 2.762E-12, 3.3000000000000005E-14, 7.23E-13, 8.5029406677925263E-07, 2.6250244618629589E-12, 3.3000000000000005E-14
DataValue, 2, 0.1, 0, -3.4E-14, -3.899E-12, -5.11E-13, 3.4E-14, 1.8439088914585774E-07, 2.015439583463097E-11, 5.11E-13
DataValue, 2.05, 0.1, 0, 1.688E-12, 1.6584E-11, 2.4000000000000002E-14, 1.688E-12, 1.2992305415129372E-06, 1.2944264158098779E-10, 2.4000000000000002E-14
DataValue, 2.1, 0.1, 0, 1.7480000000000002E-12, -2.953E-12, 4.24E-13, 1.7480000000000002E-12, 1.3221195104830729E-06, 2.026020304577867E-11, 4.24E-13
DataValue, 2.15, 0.1, 0, 7.2100000000000006E-13, 9.96E-13, 6.9400000000000007E-13, 7.2100000000000006E-13, 8.4911718861415123E-07, 2.0436008901870923E-11, 6.9400000000000007E-13
DataValue, 2.2, 0.1, 0, -7.5700000000000011E-13, 1.168E-12, -4.7900000000000008E-13, 7.5700000000000011E-13, 8.7005746936624829E-07, 2.4428710192195733E-12, 4.7900000000000008E-13
DataValue, 2.25, 0.1, 0, 4.8000000000000008E-13, -4.68E-13, -1.19E-13, 4.8000000000000008E-13, 6.92820323027551E-07, 5.5289093612483736E-11, 1.19E-13
