
SetupTitle, Transfer stab
PrimitiveTest, I/V Sweep
TestParameter, Context.MainFrame, 4155C
TestParameter, Channel.UnitType, SMU, SMU, SMU
TestParameter, Channel.Unit, SMU3:MP, SMU4:MP, SMU1:MP
TestParameter, Channel.IName, ID, IS, IG
TestParameter, Channel.VName, VD, VS, VG
TestParameter, Channel.Mode, V, COMMON, V
TestParameter, Channel.Func, CONST, CONST, VAR1
TestParameter, Channel.Index, 
TestParameter, Channel.Time, 
TestParameter, Measurement.Port.Unit, SMU3:MP, SMU4:MP, SMU1:MP
TestParameter, Measurement.Port.SeriesResistor, NONE, NONE, NONE
TestParameter, Measurement.Port.Filter, ON, ON, ON
TestParameter, Measurement.Primary.Locus, Single
TestParameter, Measurement.Primary.Scale, LINEAR
TestParameter, Measurement.Primary.Start, -2
TestParameter, Measurement.Primary.Stop, 3
TestParameter, Measurement.Primary.Step, 0.05
TestParameter, Measurement.Primary.Compliance, 0.1
TestParameter, Measurement.Primary.PowerCompliance, 0
TestParameter, Measurement.Aborting.Condition, CONTINUE AT ANY
TestParameter, Measurement.PostOutput.Value, START
TestParameter, Measurement.PostOutput.Retention, OFF
TestParameter, Measurement.Bias.Source, 3, 0, -2
TestParameter, Measurement.Bias.Compliance, 0.1, 0.1, 0.1
TestParameter, Measurement.Monitor.Unit, SMU3:MP, SMU4:MP, SMU1:MP
TestParameter, Measurement.Monitor.Adc, HR ADC, HR ADC, HR ADC
TestParameter, Measurement.Monitor.RangingMode, AUTO, AUTO, AUTO
TestParameter, Measurement.Monitor.RangeBoundary, , , 
TestParameter, Measurement.Monitor.RangeRating, BY FULL RANGE, BY FULL RANGE, BY FULL RANGE
TestParameter, Measurement.Monitor.RangeRatingCoeff, 50, 50, 50
TestParameter, Measurement.Timing.Hold, 0.5
TestParameter, Measurement.Timing.Delay, 0.05
TestParameter, Measurement.Adc.HighResolution.AutoZero, OFF
TestParameter, Measurement.Adc.HighResolution.Mode, AUTO
TestParameter, Measurement.Adc.HighResolution.Coeff, 1
TestParameter, Measurement.Ag16440ASelector.SemiconductorRelay.Channel1, DEFAULT
TestParameter, Measurement.Ag16440ASelector.SemiconductorRelay.Channel3, DEFAULT
TestParameter, Function.User.Name, absID, sqrtID, gm2, absIG
TestParameter, Function.User.Unit, A, A, A/V, A
TestParameter, Function.User.Definition, abs(ID), sqrt(abs(ID)), (delta(sqrtID)/delta(VG))^2, abs(IG)
TestParameter, Output.Graph.Enabled, true
TestParameter, Output.Graph.XAxis.Data, VG
TestParameter, Output.Graph.XAxis.Scale, Linear
TestParameter, Output.Graph.XAxis.Left, -5
TestParameter, Output.Graph.XAxis.Right, 7
TestParameter, Output.Graph.YAxis.Data, ID, absIG, gm2
TestParameter, Output.Graph.YAxis.Scale, Log, Log, Linear
TestParameter, Output.Graph.YAxis.Bottom, 1E-14, 1E-14, 0
TestParameter, Output.Graph.YAxis.Top, 0.01, 0.01, 1E-05
TestParameter, Output.Graph.YAxis.Group, , , 
TestParameter, Output.List.Data, VG, IG, VD, ID, VS, IS, sqrtID, gm2, absIG
TestParameter, AutoAnalysis.Interpolation, false
TestParameter, AutoAnalysis.Line1.Enabled, false
TestParameter, AutoAnalysis.Line1.Type, 1
TestParameter, AutoAnalysis.Line1.Fix, True
TestParameter, AutoAnalysis.Line1.YAxis, 0
TestParameter, AutoAnalysis.Line1.Point1.Type, 0
TestParameter, AutoAnalysis.Line1.Point1.XY.X, 
TestParameter, AutoAnalysis.Line1.Point1.XY.Y, 
TestParameter, AutoAnalysis.Line1.Point1.Data.Var, 
TestParameter, AutoAnalysis.Line1.Point1.Data.Condition, 
TestParameter, AutoAnalysis.Line1.Point1.Data.Start, false
TestParameter, AutoAnalysis.Line1.Point1.Data.StartVar, 
TestParameter, AutoAnalysis.Line1.Point1.Data.StartCondition, 
TestParameter, AutoAnalysis.Line1.Point2.Type, 0
TestParameter, AutoAnalysis.Line1.Point2.XY.X, 
TestParameter, AutoAnalysis.Line1.Point2.XY.Y, 
TestParameter, AutoAnalysis.Line1.Point2.Data.Var, 
TestParameter, AutoAnalysis.Line1.Point2.Data.Condition, 
TestParameter, AutoAnalysis.Line1.Point2.Data.Start, false
TestParameter, AutoAnalysis.Line1.Point2.Data.StartVar, 
TestParameter, AutoAnalysis.Line1.Point2.Data.StartCondition, 
TestParameter, AutoAnalysis.Line1.GradientExpr, 0
TestParameter, AutoAnalysis.Line2.Enabled, false
TestParameter, AutoAnalysis.Line2.Type, 1
TestParameter, AutoAnalysis.Line2.Fix, True
TestParameter, AutoAnalysis.Line2.YAxis, 0
TestParameter, AutoAnalysis.Line2.Point1.Type, 0
TestParameter, AutoAnalysis.Line2.Point1.XY.X, 
TestParameter, AutoAnalysis.Line2.Point1.XY.Y, 
TestParameter, AutoAnalysis.Line2.Point1.Data.Var, 
TestParameter, AutoAnalysis.Line2.Point1.Data.Condition, 
TestParameter, AutoAnalysis.Line2.Point1.Data.Start, false
TestParameter, AutoAnalysis.Line2.Point1.Data.StartVar, 
TestParameter, AutoAnalysis.Line2.Point1.Data.StartCondition, 
TestParameter, AutoAnalysis.Line2.Point2.Type, 0
TestParameter, AutoAnalysis.Line2.Point2.XY.X, 
TestParameter, AutoAnalysis.Line2.Point2.XY.Y, 
TestParameter, AutoAnalysis.Line2.Point2.Data.Var, 
TestParameter, AutoAnalysis.Line2.Point2.Data.Condition, 
TestParameter, AutoAnalysis.Line2.Point2.Data.Start, false
TestParameter, AutoAnalysis.Line2.Point2.Data.StartVar, 
TestParameter, AutoAnalysis.Line2.Point2.Data.StartCondition, 
TestParameter, AutoAnalysis.Line2.GradientExpr, 0
TestParameter, AutoAnalysis.Marker.Enabled, false
TestParameter, AutoAnalysis.Marker.Data.Var, 
TestParameter, AutoAnalysis.Marker.Data.Condition, 
TestParameter, AutoAnalysis.Marker.Data.Start, false
TestParameter, AutoAnalysis.Marker.Data.StartVar, 
TestParameter, AutoAnalysis.Marker.Data.StartCondition, 
MetaData, TestRecord.EntryPoint, true
MetaData, TestRecord.RecordTime, 05/27/2019 09:25:19
MetaData, TestRecord.TestTarget, 350-300-G12
MetaData, TestRecord.IterationIndex, 4
MetaData, TestRecord.Preservation, true
MetaData, TestRecord.Flag, 
MetaData, TestRecord.Remarks, bad
MetaData, TestRecord.LinkKey, 2572572f-6c6d-474f-b9be-d54b0ac171c7
Dimension1, 101, 101, 101, 101, 101, 101, 101, 101, 101, 101
Dimension2, 1, 1, 1, 1, 1, 1, 1, 1, 1, 1
DataName, VG, VD, VS, ID, IS, IG, absID, sqrtID, gm2, absIG
DataValue, -2, 3, 0, 8.2552E-11, 7.2400000000000007E-12, -7.6491000000000008E-11, 8.2552E-11, 9.0858131171623825E-06, 2.8030544666276937E-10, 7.6491000000000008E-11
DataValue, -1.9500000000000002, 3, 0, 6.8041E-11, 1.17E-13, -6.5054E-11, 6.8041E-11, 8.248696866778412E-06, 3.3898669462406352E-11, 6.5054E-11
DataValue, -1.9000000000000001, 3, 0, 7.2311E-11, -8.1610000000000013E-12, -6.0106E-11, 7.2311E-11, 8.5035874782352887E-06, 1.0618377198098454E-11, 6.0106E-11
DataValue, -1.85, 3, 0, 7.3523000000000008E-11, -2.4129000000000003E-11, -5.411E-11, 7.3523000000000008E-11, 8.5745553820591773E-06, 2.1567774752113365E-11, 5.411E-11
DataValue, -1.8, 3, 0, 8.0425000000000009E-11, -3.6627E-11, -4.8322000000000005E-11, 8.0425000000000009E-11, 8.96799866190891E-06, 1.3143540137046578E-10, 4.8322000000000005E-11
DataValue, -1.75, 3, 0, 9.4498E-11, -5.0036000000000007E-11, -4.414E-11, 9.4498E-11, 9.72100817816753E-06, 2.0226215996715733E-10, 4.414E-11
DataValue, -1.7000000000000002, 3, 0, 1.0795600000000001E-10, -6.4361000000000007E-11, -4.0779000000000005E-11, 1.0795600000000001E-10, 1.0390187678766925E-05, 1.8227168053004994E-10, 4.0779000000000005E-11
DataValue, -1.6500000000000001, 3, 0, 1.2256900000000001E-10, -7.8431E-11, -3.9151000000000004E-11, 1.2256900000000001E-10, 1.1071088474039037E-05, 1.7940806167208819E-10, 3.9151000000000004E-11
DataValue, -1.6, 3, 0, 1.3758400000000001E-10, -9.6881E-11, -3.5996E-11, 1.3758400000000001E-10, 1.1729620624726104E-05, 1.7621495951684481E-10, 3.5996E-11
DataValue, -1.55, 3, 0, 1.5372400000000002E-10, -1.1483500000000001E-10, -3.3687E-11, 1.5372400000000002E-10, 1.2398548302119891E-05, 1.5484151928183461E-10, 3.3687E-11
DataValue, -1.5, 3, 0, 1.68324E-10, -1.36996E-10, -3.2171E-11, 1.68324E-10, 1.2973973947869635E-05, 2.353166768978013E-10, 3.2171E-11
DataValue, -1.4500000000000002, 3, 0, 1.9411600000000002E-10, -1.5740000000000002E-10, -3.1056000000000005E-11, 1.9411600000000002E-10, 1.3932551812213009E-05, 2.9176875818274533E-10, 3.1056000000000005E-11
DataValue, -1.4000000000000001, 3, 0, 2.15564E-10, -1.8053900000000002E-10, -3.0109000000000004E-11, 2.15564E-10, 1.4682097942732844E-05, 3.418639598967932E-10, 3.0109000000000004E-11
DataValue, -1.35, 3, 0, 2.4905600000000003E-10, -2.0460000000000002E-10, -2.8630000000000002E-11, 2.4905600000000003E-10, 1.5781508166205157E-05, 3.0229077402396848E-10, 2.8630000000000002E-11
DataValue, -1.3, 3, 0, 2.69641E-10, -2.3299500000000003E-10, -2.6831E-11, 2.69641E-10, 1.642074906939388E-05, 2.2947700133286455E-10, 2.6831E-11
DataValue, -1.25, 3, 0, 2.99164E-10, -2.6321200000000003E-10, -2.6374E-11, 2.99164E-10, 1.7296357998145158E-05, 3.480610038890947E-10, 2.6374E-11
DataValue, -1.2, 3, 0, 3.3439200000000004E-10, -2.9849E-10, -2.4596000000000002E-11, 3.3439200000000004E-10, 1.8286388380432043E-05, 4.1872994231856074E-10, 2.4596000000000002E-11
DataValue, -1.1500000000000001, 3, 0, 3.7413800000000005E-10, -3.35119E-10, -2.2845000000000003E-11, 3.7413800000000005E-10, 1.9342647181810457E-05, 4.280472730390238E-10, 2.2845000000000003E-11
DataValue, -1.1, 3, 0, 4.1433900000000003E-10, -3.77823E-10, -2.2300000000000003E-11, 4.1433900000000003E-10, 2.0355318715264569E-05, 4.4548473606855046E-10, 2.2300000000000003E-11
DataValue, -1.05, 3, 0, 4.6024400000000004E-10, -4.25716E-10, -2.0852000000000002E-11, 4.6024400000000004E-10, 2.1453298114742171E-05, 5.5700463044977851E-10, 2.0852000000000002E-11
DataValue, -1, 3, 0, 5.1599E-10, -4.77915E-10, -1.9001E-11, 5.1599E-10, 2.2715413269408067E-05, 5.9373018862202763E-10, 1.9001E-11
DataValue, -0.95000000000000007, 3, 0, 5.7073000000000005E-10, -5.35794E-10, -1.9218E-11, 5.7073000000000005E-10, 2.3889956048515452E-05, 7.1792327902962509E-10, 1.9218E-11
DataValue, -0.9, 3, 0, 6.4489700000000009E-10, -6.02777E-10, -1.6809000000000002E-11, 6.4489700000000009E-10, 2.5394822306919183E-05, 8.73778667433496E-10, 1.6809000000000002E-11
DataValue, -0.85000000000000009, 3, 0, 7.20704E-10, -6.755850000000001E-10, -1.6758E-11, 7.20704E-10, 2.6845930790345117E-05, 8.8387979139392863E-10, 1.6758E-11
DataValue, -0.8, 3, 0, 8.0473400000000011E-10, -7.58732E-10, -1.5618000000000002E-11, 8.0473400000000011E-10, 2.8367833896862835E-05, 8.2185064426265047E-10, 1.5618000000000002E-11
DataValue, -0.75, 3, 0, 8.8284600000000008E-10, -8.10111E-10, -1.6251E-11, 8.8284600000000008E-10, 2.9712724546900778E-05, 7.5248437926036016E-10, 1.6251E-11
DataValue, -0.70000000000000007, 3, 0, 9.67893E-10, -8.9639500000000009E-10, -1.4939E-11, 9.67893E-10, 3.1110978769559791E-05, 6.1410423494023054E-10, 1.4939E-11
DataValue, -0.65, 3, 0, 1.03625E-09, -9.8991E-10, -1.1901000000000001E-11, 1.03625E-09, 3.2190837205639743E-05, 1.5755799779142682E-09, 1.1901000000000001E-11
DataValue, -0.6, 3, 0, 1.23063E-09, -1.19616E-09, -1.7795000000000002E-11, 1.23063E-09, 3.5080336372389587E-05, 3.0809736528044685E-09, 1.7795000000000002E-11
DataValue, -0.55, 3, 0, 1.42442E-09, -1.3788799999999999E-09, -1.1917000000000001E-11, 1.42442E-09, 3.7741489106817178E-05, 2.8590471670213855E-09, 1.1917000000000001E-11
DataValue, -0.5, 3, 0, 1.63437E-09, -1.59082E-09, -1.2555E-11, 1.63437E-09, 4.0427342232701865E-05, 2.8774587709726811E-09, 1.2555E-11
DataValue, -0.45, 3, 0, 1.8581E-09, -1.81734E-09, -1.2618000000000001E-11, 1.8581E-09, 4.3105684079944724E-05, 3.1694605179085613E-09, 1.2618000000000001E-11
DataValue, -0.4, 3, 0, 2.12126E-09, -2.06896E-09, -1.0862000000000001E-11, 2.12126E-09, 4.6057138426089828E-05, 3.5711149988694327E-09, 1.0862000000000001E-11
DataValue, -0.35000000000000003, 3, 0, 2.409E-09, -2.34568E-09, -9.9680000000000011E-12, 2.409E-09, 4.9081564767232106E-05, 3.7831299799098061E-09, 9.9680000000000011E-12
DataValue, -0.3, 3, 0, 2.72566E-09, -2.66274E-09, -9.206000000000001E-12, 2.72566E-09, 5.2207853815302541E-05, 4.1528810046381747E-09, 9.206000000000001E-12
DataValue, -0.25, 3, 0, 3.08312E-09, -3.01239E-09, -7.086E-12, 3.08312E-09, 5.5525849835909762E-05, 4.7138445456819436E-09, 7.086E-12
DataValue, -0.2, 3, 0, 3.48969E-09, -3.40953E-09, -6.2120000000000006E-12, 3.48969E-09, 5.9073598163646675E-05, 5.2682980090392158E-09, 6.2120000000000006E-12
DataValue, -0.15, 3, 0, 3.94185E-09, -3.85741E-09, -6.652E-12, 3.94185E-09, 6.278415405179877E-05, 5.8512347728980213E-09, 6.652E-12
DataValue, -0.1, 3, 0, 4.45195E-09, -4.35862E-09, -7.385E-12, 4.45195E-09, 6.6722934587741265E-05, 6.55433612450437E-09, 7.385E-12
DataValue, -0.05, 3, 0, 5.02398E-09, -4.92843E-09, -7.563E-12, 5.02398E-09, 7.0880039503375E-05, 7.1722043225070644E-09, 7.563E-12
DataValue, 0, 3, 0, 5.65381E-09, -5.54681E-09, -4.5450000000000005E-12, 5.65381E-09, 7.51918213637627E-05, 8.2637509846673922E-09, 4.5450000000000005E-12
DataValue, 0.05, 3, 0, 6.39529E-09, -6.26694E-09, -6.1480000000000009E-12, 6.39529E-09, 7.997055708196611E-05, 9.686950395028054E-09, 6.1480000000000009E-12
DataValue, 0.1, 3, 0, 7.23079E-09, -7.0859E-09, -5.8730000000000005E-12, 7.23079E-09, 8.5034052002712411E-05, 1.0871214111237084E-08, 5.8730000000000005E-12
DataValue, 0.15, 3, 0, 8.17163E-09, -8.02749E-09, -4.388E-12, 8.17163E-09, 9.0397068536540492E-05, 1.0468945652550533E-08, 4.388E-12
DataValue, 0.2, 3, 0, 9.07558E-09, -8.6108E-09, -4.109E-12, 9.07558E-09, 9.52658385781598E-05, 4.8504615916834934E-09, 4.109E-12
DataValue, 0.25, 3, 0, 9.47928E-09, -9.19373E-09, -5.287E-12, 9.47928E-09, 9.736159407076283E-05, 5.4387625625965722E-09, 5.287E-12
DataValue, 0.3, 3, 0, 1.0535099999999999E-08, -1.0316E-08, -2.816E-12, 1.0535099999999999E-08, 0.00010264063522796416, 1.9919131295557092E-08, 2.816E-12
DataValue, 0.35000000000000003, 3, 0, 1.2426699999999998E-08, -1.22572E-08, -4.961E-12, 1.2426699999999998E-08, 0.00011147510932939245, 2.9978693516966209E-08, 4.961E-12
DataValue, 0.4, 3, 0, 1.4389199999999998E-08, -1.41701E-08, -3.0820000000000004E-12, 1.4389199999999998E-08, 0.00011995499155933445, 2.931074278708209E-08, 3.0820000000000004E-12
DataValue, 0.45, 3, 0, 1.6536799999999997E-08, -1.6260599999999997E-08, -1.7350000000000002E-12, 1.6536799999999997E-08, 0.00012859548981204589, 3.1206992914004004E-08, 1.7350000000000002E-12
DataValue, 0.5, 3, 0, 1.8939399999999997E-08, -1.8654999999999997E-08, -1.354E-12, 1.8939399999999997E-08, 0.00013762049266006861, 3.2893549561531766E-08, 1.354E-12
DataValue, 0.55, 3, 0, 2.1530299999999998E-08, -2.12068E-08, -1.523E-12, 2.1530299999999998E-08, 0.00014673206875117655, 3.6651640810357394E-08, 1.523E-12
DataValue, 0.6, 3, 0, 2.4575299999999996E-08, -2.41986E-08, -1.0830000000000001E-12, 2.4575299999999996E-08, 0.00015676511091438681, 4.1893131298485029E-08, 1.0830000000000001E-12
DataValue, 0.65, 3, 0, 2.7955799999999998E-08, -2.7549399999999996E-08, -1.0100000000000001E-13, 2.7955799999999998E-08, 0.00016719988038273233, 4.7481293127465711E-08, 1.0100000000000001E-13
DataValue, 0.70000000000000007, 3, 0, 3.1881999999999994E-08, -3.13467E-08, 1.1500000000000002E-12, 3.1881999999999994E-08, 0.00017855531355857207, 5.3200335247696029E-08, 1.1500000000000002E-12
DataValue, 0.75, 3, 0, 3.62008E-08, -3.56827E-08, 2.122E-12, 3.62008E-08, 0.0001902650782461143, 5.8689177307880949E-08, 2.122E-12
DataValue, 0.8, 3, 0, 4.11202E-08, -4.0518E-08, 3.2220000000000002E-12, 4.11202E-08, 0.00020278116283323753, 6.6065482245615114E-08, 3.2220000000000002E-12
DataValue, 0.85000000000000009, 3, 0, 4.66423E-08, -4.59648E-08, 2.8390000000000003E-12, 4.66423E-08, 0.00021596828470865807, 7.4251086614506669E-08, 2.8390000000000003E-12
DataValue, 0.9, 3, 0, 5.2913899999999994E-08, -5.2106699999999995E-08, 2.3040000000000003E-12, 5.2913899999999994E-08, 0.00023003021540658522, 8.3831927426757254E-08, 2.3040000000000003E-12
DataValue, 0.95000000000000007, 3, 0, 5.99868E-08, -5.9203099999999996E-08, 3.5200000000000003E-12, 5.99868E-08, 0.00024492202840904287, 9.4107219083037866E-08, 3.5200000000000003E-12
DataValue, 1, 3, 0, 6.7968199999999988E-08, -6.7006E-08, 5.437E-12, 6.7968199999999988E-08, 0.00026070711536128042, 1.0372213075202995E-07, 5.437E-12
DataValue, 1.05, 3, 0, 7.67999E-08, -7.5873399999999989E-08, 5.038E-12, 7.67999E-08, 0.0002771279487890025, 1.1685725272948831E-07, 5.038E-12
DataValue, 1.1, 3, 0, 8.6961E-08, -8.5791699999999989E-08, 4.8390000000000007E-12, 8.6961E-08, 0.00029489150547277554, 9.84810749456601E-08, 4.8390000000000007E-12
DataValue, 1.1500000000000001, 3, 0, 9.5178199999999991E-08, -9.44127E-08, 5.2150000000000007E-12, 9.5178199999999991E-08, 0.00030850964328526262, 9.0809696916821924E-08, 5.2150000000000007E-12
DataValue, 1.2, 3, 0, 1.05642E-07, -1.03696E-07, 6.6740000000000008E-12, 1.05642E-07, 0.00032502615279389441, 1.553818947785061E-07, 6.6740000000000008E-12
DataValue, 1.25, 3, 0, 1.21054E-07, -1.19795E-07, 1.2602000000000001E-11, 1.21054E-07, 0.00034792815350298973, 2.1420553921429073E-07, 1.2602000000000001E-11
DataValue, 1.3, 3, 0, 1.3787E-07, -1.3650099999999999E-07, 3.647E-12, 1.3787E-07, 0.0003713084970748717, 2.2445604275074481E-07, 3.647E-12
DataValue, 1.35, 3, 0, 1.56266E-07, -1.54656E-07, 3.3620000000000004E-12, 1.56266E-07, 0.00039530494557999145, 2.3832815375924872E-07, 3.3620000000000004E-12
DataValue, 1.4000000000000001, 3, 0, 1.76507E-07, -1.74673E-07, 9.3770000000000009E-12, 1.76507E-07, 0.00042012736164168124, 2.5852397876249831E-07, 9.3770000000000009E-12
DataValue, 1.4500000000000002, 3, 0, 1.9905E-07, -1.96929E-07, 2.774E-12, 1.9905E-07, 0.00044615019892408432, 2.8080478593377946E-07, 2.774E-12
DataValue, 1.5, 3, 0, 2.23841E-07, -2.2168199999999999E-07, 1.0982000000000002E-11, 2.23841E-07, 0.00047311837842129952, 3.0768297847708021E-07, 1.0982000000000002E-11
DataValue, 1.55, 3, 0, 2.51622E-07, -2.49141E-07, 1.1867E-11, 2.51622E-07, 0.0005016193776161363, 3.401579056550692E-07, 1.1867E-11
DataValue, 1.6, 3, 0, 2.8242999999999997E-07, -2.79805E-07, 8.4580000000000013E-12, 2.8242999999999997E-07, 0.000531441436096208, 3.6744482554993751E-07, 8.4580000000000013E-12
DataValue, 1.6500000000000001, 3, 0, 3.1611E-07, -3.1333599999999997E-07, 1.5421000000000002E-11, 3.1611E-07, 0.00056223660499828717, 4.0135577449047375E-07, 1.5421000000000002E-11
DataValue, 1.7000000000000002, 3, 0, 3.5378E-07, -3.50576E-07, 1.5906E-11, 3.5378E-07, 0.000594794082014944, 4.3773253028909908E-07, 1.5906E-11
DataValue, 1.75, 3, 0, 3.94884E-07, -3.91859E-07, 1.2361E-11, 3.94884E-07, 0.000628397963077539, 4.7547043575232476E-07, 1.2361E-11
DataValue, 1.8, 3, 0, 4.4056199999999997E-07, -4.3687199999999997E-07, 8.9290000000000012E-12, 4.4056199999999997E-07, 0.00066374844632586518, 5.2179417280977764E-07, 8.9290000000000012E-12
DataValue, 1.85, 3, 0, 4.90887E-07, -4.87075E-07, 1.1748E-11, 4.90887E-07, 0.0007006332849643956, 5.5981995621596978E-07, 1.1748E-11
DataValue, 1.9000000000000001, 3, 0, 5.45485E-07, -5.41625E-07, 1.3202000000000001E-11, 5.45485E-07, 0.000738569563412953, 6.0285376326086261E-07, 1.3202000000000001E-11
DataValue, 1.9500000000000002, 3, 0, 6.05715E-07, -6.01024E-07, 1.3142E-11, 6.05715E-07, 0.00077827694299651459, 6.5307621515474959E-07, 1.3142E-11
DataValue, 2, 3, 0, 6.71388E-07, -6.66561E-07, 9.5220000000000008E-12, 6.71388E-07, 0.000819382694471881, 7.0181969400143505E-07, 9.5220000000000008E-12
DataValue, 2.05, 3, 0, 7.43133E-07, -7.37702E-07, 1.301E-11, 7.43133E-07, 0.00086205162258416984, 7.5130773995673369E-07, 1.301E-11
DataValue, 2.1, 3, 0, 8.2094599999999995E-07, -8.15941E-07, 1.5661E-11, 8.2094599999999995E-07, 0.00090606070436809031, 8.0680489275987221E-07, 1.5661E-11
DataValue, 2.15, 3, 0, 9.06064E-07, -9.00073E-07, 1.7653000000000002E-11, 9.06064E-07, 0.00095187394123381691, 8.6638726938169979E-07, 1.7653000000000002E-11
DataValue, 2.2, 3, 0, 9.98282E-07, -9.9265599999999989E-07, 1.5406E-11, 9.98282E-07, 0.0009991406307422394, 8.0860711141644919E-07, 1.5406E-11
DataValue, 2.25, 3, 0, 1.08534E-06, -1.080267E-06, 1.7798E-11, 1.08534E-06, 0.0010417965252389738, 8.7607813155993033E-07, 1.7798E-11
DataValue, 2.3000000000000003, 3, 0, 1.1940800000000002E-06, -1.18173E-06, 1.4443E-11, 1.1940800000000002E-06, 0.001092739676226685, 1.0640594082929112E-06, 1.4443E-11
