
SetupTitle, Transfer sat
PrimitiveTest, I/V Sweep
TestParameter, Context.MainFrame, 4155C
TestParameter, Channel.UnitType, SMU, SMU, SMU
TestParameter, Channel.Unit, SMU1:MP, SMU4:MP, SMU3:MP
TestParameter, Channel.IName, ID, IS, IG
TestParameter, Channel.VName, VD, VS, VG
TestParameter, Channel.Mode, V, COMMON, V
TestParameter, Channel.Func, CONST, CONST, VAR1
TestParameter, Channel.Index, 
TestParameter, Channel.Time, 
TestParameter, Measurement.Port.Unit, SMU1:MP, SMU4:MP, SMU3:MP
TestParameter, Measurement.Port.SeriesResistor, NONE, NONE, NONE
TestParameter, Measurement.Port.Filter, ON, ON, ON
TestParameter, Measurement.Primary.Locus, Double
TestParameter, Measurement.Primary.Scale, LINEAR
TestParameter, Measurement.Primary.Start, -2
TestParameter, Measurement.Primary.Stop, 3
TestParameter, Measurement.Primary.Step, 0.05
TestParameter, Measurement.Primary.Compliance, 0.001
TestParameter, Measurement.Primary.PowerCompliance, 0
TestParameter, Measurement.Aborting.Condition, CONTINUE AT ANY
TestParameter, Measurement.PostOutput.Value, START
TestParameter, Measurement.PostOutput.Retention, OFF
TestParameter, Measurement.Bias.Source, 5, 0, -2
TestParameter, Measurement.Bias.Compliance, 0.001, 0.1, 0.001
TestParameter, Measurement.Monitor.Unit, SMU1:MP, SMU4:MP, SMU3:MP
TestParameter, Measurement.Monitor.Adc, HR ADC, HR ADC, HR ADC
TestParameter, Measurement.Monitor.RangingMode, AUTO, AUTO, AUTO
TestParameter, Measurement.Monitor.RangeBoundary, , , 
TestParameter, Measurement.Monitor.RangeRating, BY FULL RANGE, BY FULL RANGE, BY FULL RANGE
TestParameter, Measurement.Monitor.RangeRatingCoeff, 50, 50, 50
TestParameter, Measurement.Timing.Hold, 0.5
TestParameter, Measurement.Timing.Delay, 0.05
TestParameter, Measurement.Adc.HighResolution.AutoZero, OFF
TestParameter, Measurement.Adc.HighResolution.Mode, AUTO
TestParameter, Measurement.Adc.HighResolution.Coeff, 1
TestParameter, Measurement.Ag16440ASelector.SemiconductorRelay.Channel1, DEFAULT
TestParameter, Measurement.Ag16440ASelector.SemiconductorRelay.Channel3, DEFAULT
TestParameter, Function.User.Name, absID, sqrtID, gm2, absIG
TestParameter, Function.User.Unit, A, A, A/V, A
TestParameter, Function.User.Definition, abs(ID), sqrt(abs(ID)), (delta(sqrtID)/delta(VG))^2, abs(IG)
TestParameter, Output.Graph.Enabled, true
TestParameter, Output.Graph.XAxis.Data, VG
TestParameter, Output.Graph.XAxis.Scale, Linear
TestParameter, Output.Graph.XAxis.Left, -5
TestParameter, Output.Graph.XAxis.Right, 7
TestParameter, Output.Graph.YAxis.Data, ID, absIG, gm2
TestParameter, Output.Graph.YAxis.Scale, Log, Log, Linear
TestParameter, Output.Graph.YAxis.Bottom, 1E-14, 1E-14, 0
TestParameter, Output.Graph.YAxis.Top, 0.01, 0.01, 1E-05
TestParameter, Output.Graph.YAxis.Group, , , 
TestParameter, Output.List.Data, VG, IG, VD, ID, VS, IS, sqrtID, gm2, absIG
TestParameter, AutoAnalysis.Interpolation, false
TestParameter, AutoAnalysis.Line1.Enabled, false
TestParameter, AutoAnalysis.Line1.Type, 1
TestParameter, AutoAnalysis.Line1.Fix, True
TestParameter, AutoAnalysis.Line1.YAxis, 0
TestParameter, AutoAnalysis.Line1.Point1.Type, 0
TestParameter, AutoAnalysis.Line1.Point1.XY.X, 
TestParameter, AutoAnalysis.Line1.Point1.XY.Y, 
TestParameter, AutoAnalysis.Line1.Point1.Data.Var, 
TestParameter, AutoAnalysis.Line1.Point1.Data.Condition, 
TestParameter, AutoAnalysis.Line1.Point1.Data.Start, false
TestParameter, AutoAnalysis.Line1.Point1.Data.StartVar, 
TestParameter, AutoAnalysis.Line1.Point1.Data.StartCondition, 
TestParameter, AutoAnalysis.Line1.Point2.Type, 0
TestParameter, AutoAnalysis.Line1.Point2.XY.X, 
TestParameter, AutoAnalysis.Line1.Point2.XY.Y, 
TestParameter, AutoAnalysis.Line1.Point2.Data.Var, 
TestParameter, AutoAnalysis.Line1.Point2.Data.Condition, 
TestParameter, AutoAnalysis.Line1.Point2.Data.Start, false
TestParameter, AutoAnalysis.Line1.Point2.Data.StartVar, 
TestParameter, AutoAnalysis.Line1.Point2.Data.StartCondition, 
TestParameter, AutoAnalysis.Line1.GradientExpr, 0
TestParameter, AutoAnalysis.Line2.Enabled, false
TestParameter, AutoAnalysis.Line2.Type, 1
TestParameter, AutoAnalysis.Line2.Fix, True
TestParameter, AutoAnalysis.Line2.YAxis, 0
TestParameter, AutoAnalysis.Line2.Point1.Type, 0
TestParameter, AutoAnalysis.Line2.Point1.XY.X, 
TestParameter, AutoAnalysis.Line2.Point1.XY.Y, 
TestParameter, AutoAnalysis.Line2.Point1.Data.Var, 
TestParameter, AutoAnalysis.Line2.Point1.Data.Condition, 
TestParameter, AutoAnalysis.Line2.Point1.Data.Start, false
TestParameter, AutoAnalysis.Line2.Point1.Data.StartVar, 
TestParameter, AutoAnalysis.Line2.Point1.Data.StartCondition, 
TestParameter, AutoAnalysis.Line2.Point2.Type, 0
TestParameter, AutoAnalysis.Line2.Point2.XY.X, 
TestParameter, AutoAnalysis.Line2.Point2.XY.Y, 
TestParameter, AutoAnalysis.Line2.Point2.Data.Var, 
TestParameter, AutoAnalysis.Line2.Point2.Data.Condition, 
TestParameter, AutoAnalysis.Line2.Point2.Data.Start, false
TestParameter, AutoAnalysis.Line2.Point2.Data.StartVar, 
TestParameter, AutoAnalysis.Line2.Point2.Data.StartCondition, 
TestParameter, AutoAnalysis.Line2.GradientExpr, 0
TestParameter, AutoAnalysis.Marker.Enabled, false
TestParameter, AutoAnalysis.Marker.Data.Var, 
TestParameter, AutoAnalysis.Marker.Data.Condition, 
TestParameter, AutoAnalysis.Marker.Data.Start, false
TestParameter, AutoAnalysis.Marker.Data.StartVar, 
TestParameter, AutoAnalysis.Marker.Data.StartCondition, 
MetaData, TestRecord.EntryPoint, true
MetaData, TestRecord.RecordTime, 04/23/2019 15:41:16
MetaData, TestRecord.TestTarget, 31
MetaData, TestRecord.IterationIndex, 1
MetaData, TestRecord.Preservation, true
MetaData, TestRecord.Flag, 
MetaData, TestRecord.Remarks, 250-180-G31
MetaData, TestRecord.LinkKey, 29af4d2d-fab4-4cc0-911d-2fa2a0d78be0
Dimension1, 202, 202, 202, 202, 202, 202, 202, 202, 202, 202
Dimension2, 1, 1, 1, 1, 1, 1, 1, 1, 1, 1
DataName, VG, VD, VS, ID, IS, IG, absID, sqrtID, gm2, absIG
DataValue, -2, 5, 0, 6.263E-12, -3.1310000000000003E-12, -1.94E-13, 6.263E-12, 2.502598649404255E-06, 1.3825927421002775E-10, 1.94E-13
DataValue, -1.9500000000000002, 5, 0, 3.666E-12, 6.1100000000000004E-12, -3.0000000000000003E-13, 3.666E-12, 1.9146801299433803E-06, 2.268351656341444E-10, 3.0000000000000003E-13
DataValue, -1.9000000000000001, 5, 0, -9.9300000000000011E-13, 1.512E-12, -7.4000000000000008E-13, 9.9300000000000011E-13, 9.96493853468249E-07, 2.0300042643971667E-10, 7.4000000000000008E-13
DataValue, -1.85, 5, 0, -2.4000000000000004E-13, -1.6110000000000001E-12, 3.7300000000000003E-13, 2.4000000000000004E-13, 4.8989794855663568E-07, 6.9173744934097755E-12, 3.7300000000000003E-13
DataValue, -1.8, 5, 0, 5.38E-13, 6.32E-13, 2.1600000000000001E-13, 5.38E-13, 7.3348483283569E-07, 3.1394614465272248E-12, 2.1600000000000001E-13
DataValue, -1.75, 5, 0, -4.45E-13, -6.81E-13, -1.8440000000000002E-12, 4.45E-13, 6.6708320320631667E-07, 1.2838081929567329E-11, 1.8440000000000002E-12
DataValue, -1.7000000000000002, 5, 0, 1.1920000000000002E-12, 4.0000000000000006E-14, -1.964E-12, 1.1920000000000002E-12, 1.0917875251164946E-06, 8.97959608489545E-12, 1.964E-12
DataValue, -1.6500000000000001, 5, 0, -1.35E-13, -1.7580000000000002E-12, -1.2000000000000002E-13, 1.35E-13, 3.674234614174767E-07, 2.206127209076195E-11, 1.2000000000000002E-13
DataValue, -1.6, 5, 0, -3.87E-13, 3.4800000000000003E-13, -2.6100000000000004E-12, 3.87E-13, 6.2209324059983166E-07, 4.0648798249452916E-11, 2.6100000000000004E-12
DataValue, -1.55, 5, 0, 1.0100000000000001E-12, 8.69E-13, -9.61E-13, 1.0100000000000001E-12, 1.004987562112089E-06, 4.4004347835219115E-12, 9.61E-13
DataValue, -1.5, 5, 0, 6.9200000000000008E-13, 5.4000000000000003E-14, -1.07E-12, 6.9200000000000008E-13, 8.31865373723417E-07, 1.5350659230971991E-11, 1.07E-12
DataValue, -1.4500000000000002, 5, 0, 3.76E-13, -3.42E-13, -2.0700000000000003E-13, 3.76E-13, 6.1318838867023571E-07, 7.65835611229227E-12, 2.0700000000000003E-13
DataValue, -1.4000000000000001, 5, 0, 1.2290000000000001E-12, 6.52E-13, -3.062E-12, 1.2290000000000001E-12, 1.1086027241532469E-06, 1.9854553410602772E-11, 3.062E-12
DataValue, -1.35, 5, 0, 1.1210000000000002E-12, 5.46E-13, -1.95E-12, 1.1210000000000002E-12, 1.0587728746053141E-06, 3.1870981932206655E-11, 1.95E-12
DataValue, -1.3, 5, 0, -2.96E-13, -5.9E-13, 1.6000000000000003E-13, 2.96E-13, 5.4405882034941774E-07, 6.189652788242699E-11, 1.6000000000000003E-13
DataValue, -1.25, 5, 0, 7.4E-14, 7.79E-13, 3.4800000000000003E-13, 7.4E-14, 2.7202941017470887E-07, 5.78433869099434E-11, 3.4800000000000003E-13
DataValue, -1.2, 5, 0, -1.7020000000000002E-12, -6.3330000000000006E-12, 1.554E-12, 1.7020000000000002E-12, 1.3046072205840346E-06, 9.47433767075132E-11, 1.554E-12
DataValue, -1.1500000000000001, 5, 0, 1.5510000000000002E-12, 1.1254E-11, -2.8010000000000003E-12, 1.5510000000000002E-12, 1.2453915047084593E-06, 1.9517149250550572E-12, 2.8010000000000003E-12
DataValue, -1.1, 5, 0, -1.3570000000000002E-12, -4.3210000000000007E-12, -7.8000000000000011E-13, 1.3570000000000002E-12, 1.1649034294738771E-06, 1.4709540021375977E-13, 7.8000000000000011E-13
DataValue, -1.05, 5, 0, 1.648E-12, -7.859E-12, -2.185E-12, 1.648E-12, 1.2837445228704971E-06, 7.04685638244411E-12, 2.185E-12
DataValue, -1, 5, 0, 8.0900000000000009E-13, 9.489E-12, 6.9900000000000005E-13, 8.0900000000000009E-13, 8.9944427287075442E-07, 1.3518390381685751E-12, 6.9900000000000005E-13
DataValue, -0.95000000000000007, 5, 0, -1.3630000000000002E-12, -2.205E-12, -2.5140000000000004E-12, 1.3630000000000002E-12, 1.1674759098157016E-06, 7.3537790933493654E-11, 2.5140000000000004E-12
DataValue, -0.9, 5, 0, 3.087E-12, 1.977E-12, 1.5600000000000002E-12, 3.087E-12, 1.7569860557215588E-06, 2.4085122988909441E-13, 1.5600000000000002E-12
DataValue, -0.85000000000000009, 5, 0, 1.4800000000000002E-12, 3.3E-12, 1.2130000000000002E-12, 1.4800000000000002E-12, 1.2165525060596441E-06, 2.6585969964284647E-11, 1.2130000000000002E-12
DataValue, -0.8, 5, 0, -1.5410000000000002E-12, 6.55E-13, -2.7600000000000004E-13, 1.5410000000000002E-12, 1.2413702106946179E-06, 5.9881849254640371E-11, 2.7600000000000004E-13
DataValue, -0.75, 5, 0, 1.9600000000000002E-13, -1.184E-12, -3.8400000000000003E-13, 1.9600000000000002E-13, 4.4271887242357314E-07, 4.5068298368819378E-12, 3.8400000000000003E-13
DataValue, -0.70000000000000007, 5, 0, -1.059E-12, -4.125E-12, -1.8160000000000001E-12, 1.059E-12, 1.0290772565750349E-06, 8.8939027223841054E-12, 1.8160000000000001E-12
DataValue, -0.65, 5, 0, -5.4900000000000008E-13, 3.1010000000000002E-12, 1.41E-12, 5.4900000000000008E-13, 7.4094534211370816E-07, 1.1529990757856794E-10, 1.41E-12
DataValue, -0.6, 5, 0, 4.422E-12, 3.7140000000000005E-12, -2.649E-12, 4.422E-12, 2.1028552018624585E-06, 2.0884500312543424E-10, 2.649E-12
DataValue, -0.55, 5, 0, -4.7790000000000005E-12, -4.9050000000000006E-12, -1.251E-12, 4.7790000000000005E-12, 2.1860924042684015E-06, 9.36935575544785E-11, 1.251E-12
DataValue, -0.5, 5, 0, 1.2880000000000002E-12, -2.6310000000000004E-12, -2.0830000000000003E-12, 1.2880000000000002E-12, 1.1349008767288887E-06, 5.7508591433263136E-12, 2.0830000000000003E-12
DataValue, -0.45, 5, 0, 5.885E-12, -5.8410000000000007E-12, -4.4100000000000004E-13, 5.885E-12, 2.4259018941416407E-06, 9.6924824864042961E-10, 4.4100000000000004E-13
DataValue, -0.4, 5, 0, 1.8047000000000002E-11, -1.7015000000000002E-11, 8.5200000000000011E-13, 1.8047000000000002E-11, 4.24817607921329E-06, 2.2799969788489482E-09, 8.5200000000000011E-13
DataValue, -0.35000000000000003, 5, 0, 5.1852000000000005E-11, -4.8052E-11, -2.0800000000000002E-13, 5.1852000000000005E-11, 7.2008332851136058E-06, 5.3375116276414249E-09, 2.0800000000000002E-13
DataValue, -0.3, 5, 0, 1.3349500000000001E-10, -1.23557E-10, -5.62E-13, 1.3349500000000001E-10, 1.1554003635104155E-05, 1.2299684174567428E-08, 5.62E-13
DataValue, -0.25, 5, 0, 3.34569E-10, -3.1857100000000003E-10, 1.5100000000000001E-13, 3.34569E-10, 1.829122740550781E-05, 2.7032044166363585E-08, 1.5100000000000001E-13
DataValue, -0.2, 5, 0, 7.8374400000000006E-10, -7.38829E-10, 3.5E-14, 7.8374400000000006E-10, 2.7995428198189792E-05, 5.0379994145978396E-08, 3.5E-14
DataValue, -0.15, 5, 0, 1.65948E-09, -1.55087E-09, -2.7E-13, 1.65948E-09, 4.0736715626078643E-05, 1.0677628773890012E-07, 2.7E-13
DataValue, -0.1, 5, 0, 3.6811E-09, -3.60422E-09, 3.03E-13, 3.6811E-09, 6.067206935650044E-05, 2.1205420056686993E-07, 3.03E-13
DataValue, -0.05, 5, 0, 7.53182E-09, -7.36507E-09, 6.35E-13, 7.53182E-09, 8.6786058788263908E-05, 2.7864392588955682E-07, 6.35E-13
DataValue, 0, 5, 0, 1.2872899999999998E-08, -1.2400999999999998E-08, -7.6500000000000007E-13, 1.2872899999999998E-08, 0.0001134588030961018, 4.634800165146844E-07, 7.6500000000000007E-13
DataValue, 0.05, 5, 0, 2.3983299999999997E-08, -2.3553999999999997E-08, -1.5910000000000002E-12, 2.3983299999999997E-08, 0.00015486542545061502, 7.8919721896024458E-07, 1.5910000000000002E-12
DataValue, 0.1, 5, 0, 4.0923499999999996E-08, -4.01851E-08, -1.5340000000000001E-12, 4.0923499999999996E-08, 0.00020229557582903288, 1.0106625976561819E-06, 1.5340000000000001E-12
DataValue, 0.15, 5, 0, 6.5227699999999991E-08, -6.4189699999999991E-08, -3.5800000000000004E-13, 6.5227699999999991E-08, 0.00025539714172245542, 1.242021929778754E-06, 3.5800000000000004E-13
DataValue, 0.2, 5, 0, 9.84338E-08, -9.6955099999999989E-08, -4.7800000000000008E-13, 9.84338E-08, 0.0003137416134337299, 1.3432320724852628E-06, 4.7800000000000008E-13
DataValue, 0.25, 5, 0, 1.3786E-07, -1.3407E-07, 5.0000000000000008E-15, 1.3786E-07, 0.00037129503093900944, 1.554836977242757E-06, 5.0000000000000008E-15
DataValue, 0.3, 5, 0, 1.92225E-07, -1.9022E-07, -4.5500000000000008E-13, 1.92225E-07, 0.00043843471577875763, 1.9291857050879248E-06, 4.5500000000000008E-13
DataValue, 0.35000000000000003, 5, 0, 2.60294E-07, -2.5746E-07, 7.1E-14, 2.60294E-07, 0.000510190160626408, 2.1590972546056025E-06, 7.1E-14
DataValue, 0.4, 5, 0, 3.42662E-07, -3.39549E-07, 4.2000000000000004E-14, 3.42662E-07, 0.00058537338511415089, 2.2723305438360522E-06, 4.2000000000000004E-14
DataValue, 0.45, 5, 0, 4.36832E-07, -4.33245E-07, -2.8700000000000004E-13, 4.36832E-07, 0.00066093267433226508, 2.3548772950218378E-06, 2.8700000000000004E-13
DataValue, 0.5, 5, 0, 5.45869E-07, -5.41413E-07, 1.0180000000000001E-12, 5.45869E-07, 0.00073882947965007463, 2.4827606498818719E-06, 1.0180000000000001E-12
DataValue, 0.55, 5, 0, 6.69943E-07, -6.64434E-07, 1.1710000000000002E-12, 6.69943E-07, 0.00081850045815503366, 2.6126361631275176E-06, 1.1710000000000002E-12
DataValue, 0.6, 5, 0, 8.1083899999999995E-07, -8.05113E-07, -1.7680000000000001E-12, 8.1083899999999995E-07, 0.00090046599047382127, 2.7660934803942639E-06, 1.7680000000000001E-12
DataValue, 0.65, 5, 0, 9.69863E-07, -9.62933E-07, -9.92E-13, 9.69863E-07, 0.00098481622651132219, 2.7083028241094253E-06, 9.92E-13
DataValue, 0.70000000000000007, 5, 0, 1.1343E-06, -1.127447E-06, -7.2200000000000005E-13, 1.1343E-06, 0.0010650352106855434, 2.9809802694595351E-06, 7.2200000000000005E-13
DataValue, 0.75, 5, 0, 1.3397400000000001E-06, -1.32073E-06, -4.2600000000000005E-13, 1.3397400000000001E-06, 0.00115747138193564, 3.2031848590931812E-06, 4.2600000000000005E-13
DataValue, 0.8, 5, 0, 1.5475600000000002E-06, -1.53934E-06, -2.0370000000000003E-12, 1.5475600000000002E-06, 0.0012440096462648512, 3.2676442605837225E-06, 2.0370000000000003E-12
DataValue, 0.85000000000000009, 5, 0, 1.7908800000000002E-06, -1.7816600000000002E-06, 8.3000000000000012E-14, 1.7908800000000002E-06, 0.0013382376470567551, 3.6132644631395492E-06, 8.3000000000000012E-14
DataValue, 0.9, 5, 0, 2.0566300000000003E-06, -2.04691E-06, 3.07E-13, 2.0566300000000003E-06, 0.0014340955337773004, 3.7451065633889068E-06, 3.07E-13
DataValue, 0.95000000000000007, 5, 0, 2.34629E-06, -2.3338000000000004E-06, -8.4000000000000008E-14, 2.34629E-06, 0.0015317604251318155, 3.8718144627027206E-06, 8.4000000000000008E-14
DataValue, 1, 5, 0, 2.6597200000000003E-06, -2.6466E-06, 4.71E-13, 2.6597200000000003E-06, 0.0016308648012634279, 3.9999518404328529E-06, 4.71E-13
DataValue, 1.05, 5, 0, 2.99899E-06, -2.9866600000000003E-06, -1.2100000000000002E-13, 2.99899E-06, 0.0017317592211390127, 4.2193811108761735E-06, 1.2100000000000002E-13
DataValue, 1.1, 5, 0, 3.3719100000000006E-06, -3.356E-06, -2.031E-12, 3.3719100000000006E-06, 0.0018362761230272533, 4.358559519029754E-06, 2.031E-12
DataValue, 1.1500000000000001, 5, 0, 3.7656600000000004E-06, -3.7501700000000006E-06, -1.788E-12, 3.7656600000000004E-06, 0.0019405308552043177, 4.5152764815684789E-06, 1.788E-12
DataValue, 1.2, 5, 0, 4.1974500000000008E-06, -4.1795400000000006E-06, -8.6000000000000012E-14, 4.1974500000000008E-06, 0.0020487679224353355, 4.737408371099759E-06, 8.6000000000000012E-14
DataValue, 1.25, 5, 0, 4.65777E-06, -4.6390100000000007E-06, 7.9E-14, 4.65777E-06, 0.0021581867389083827, 4.8783917067942526E-06, 7.9E-14
DataValue, 1.3, 5, 0, 5.1512600000000007E-06, -5.1301700000000009E-06, -1.2210000000000002E-12, 5.1512600000000007E-06, 0.0022696387377730406, 4.9934260045551549E-06, 1.2210000000000002E-12
DataValue, 1.35, 5, 0, 5.6722400000000008E-06, -5.6528900000000007E-06, 2E-15, 5.6722400000000008E-06, 0.0023816464893010466, 5.1377716738290922E-06, 2E-15
DataValue, 1.4000000000000001, 5, 0, 6.2315400000000006E-06, -6.210440000000001E-06, 3.66E-13, 6.2315400000000006E-06, 0.0024963052697937406, 5.4038297429556E-06, 3.66E-13
DataValue, 1.4500000000000002, 5, 0, 6.8335600000000007E-06, -6.8061100000000006E-06, 3.27E-13, 6.8335600000000007E-06, 0.0026141078784166502, 5.6136254853591749E-06, 3.27E-13
DataValue, 1.5, 5, 0, 7.47058E-06, -7.4451600000000009E-06, -1.7300000000000002E-13, 7.47058E-06, 0.0027332361771350826, 5.8027748614383344E-06, 1.7300000000000002E-13
DataValue, 1.55, 5, 0, 8.1510100000000011E-06, -8.1248E-06, -8.6000000000000012E-14, 8.1510100000000011E-06, 0.0028549973730285639, 5.9754573600406043E-06, 8.6000000000000012E-14
DataValue, 1.6, 5, 0, 8.8666E-06, -8.83807E-06, 1.5220000000000002E-12, 8.8666E-06, 0.0029776836635210264, 6.0665644027864979E-06, 1.5220000000000002E-12
DataValue, 1.6500000000000001, 5, 0, 9.6180700000000016E-06, -9.5905100000000015E-06, -2.253E-12, 9.6180700000000016E-06, 0.0031013013397604562, 6.1994250625339534E-06, 2.253E-12
DataValue, 1.7000000000000002, 5, 0, 1.0411400000000002E-05, -1.03784E-05, 1.065E-12, 1.0411400000000002E-05, 0.003226670110191, 6.3976006922280542E-06, 1.065E-12
DataValue, 1.75, 5, 0, 1.1250900000000001E-05, -1.121767E-05, -3.0000000000000002E-15, 1.1250900000000001E-05, 0.0033542361276451605, 6.1323378422511E-06, 3.0000000000000002E-15
DataValue, 1.8, 5, 0, 1.20708E-05, -1.20179E-05, -2.1600000000000001E-13, 1.20708E-05, 0.0034743056860328221, 6.5521471581423995E-06, 2.1600000000000001E-13
DataValue, 1.85, 5, 0, 1.30336E-05, -1.29999E-05, -2.93E-13, 1.30336E-05, 0.0036102077502548242, 7.29775317464905E-06, 2.93E-13
DataValue, 1.9000000000000001, 5, 0, 1.40209E-05, -1.39826E-05, -4.8000000000000004E-14, 1.40209E-05, 0.0037444492251865295, 7.2669694736099677E-06, 4.8000000000000004E-14
DataValue, 1.9500000000000002, 5, 0, 1.50527E-05, -1.50098E-05, -1.7E-14, 1.50527E-05, 0.0038797809216500872, 7.38374927087606E-06, 1.7E-14
DataValue, 2, 5, 0, 1.61297E-05, -1.60855E-05, 2.7E-13, 1.61297E-05, 0.0040161797768526247, 7.4878496967957548E-06, 2.7E-13
DataValue, 2.05, 5, 0, 1.72509E-05, -1.72098E-05, 9.5000000000000012E-14, 1.72509E-05, 0.0041534202773136266, 7.6066256575672058E-06, 9.5000000000000012E-14
DataValue, 2.1, 5, 0, 1.8421100000000002E-05, -1.83785E-05, 3.0100000000000003E-13, 1.8421100000000002E-05, 0.0042919808946452693, 7.7253534609039611E-06, 3.0100000000000003E-13
DataValue, 2.15, 5, 0, 1.9637000000000002E-05, -1.95957E-05, -3.3300000000000005E-13, 1.9637000000000002E-05, 0.004431365478043986, 7.8405554734911746E-06, 3.3300000000000005E-13
DataValue, 2.2, 5, 0, 2.09031E-05, -2.08595E-05, -2.273E-12, 2.09031E-05, 0.0045719908136390647, 8.1061721109560209E-06, 2.273E-12
