
SetupTitle, Transfer lin
PrimitiveTest, I/V Sweep
TestParameter, Context.MainFrame, 4155C
TestParameter, Channel.UnitType, SMU, SMU, SMU
TestParameter, Channel.Unit, SMU1:MP, SMU4:MP, SMU3:MP
TestParameter, Channel.IName, ID, IS, IG
TestParameter, Channel.VName, VD, VS, VG
TestParameter, Channel.Mode, V, COMMON, V
TestParameter, Channel.Func, CONST, CONST, VAR1
TestParameter, Channel.Index, 
TestParameter, Channel.Time, 
TestParameter, Measurement.Port.Unit, SMU1:MP, SMU4:MP, SMU3:MP
TestParameter, Measurement.Port.SeriesResistor, NONE, NONE, NONE
TestParameter, Measurement.Port.Filter, ON, ON, ON
TestParameter, Measurement.Primary.Locus, Double
TestParameter, Measurement.Primary.Scale, LINEAR
TestParameter, Measurement.Primary.Start, -2
TestParameter, Measurement.Primary.Stop, 3
TestParameter, Measurement.Primary.Step, 0.05
TestParameter, Measurement.Primary.Compliance, 0.001
TestParameter, Measurement.Primary.PowerCompliance, 0
TestParameter, Measurement.Aborting.Condition, CONTINUE AT ANY
TestParameter, Measurement.PostOutput.Value, START
TestParameter, Measurement.PostOutput.Retention, OFF
TestParameter, Measurement.Bias.Source, 0.1, 0, -2
TestParameter, Measurement.Bias.Compliance, 0.001, 0.1, 0.001
TestParameter, Measurement.Monitor.Unit, SMU1:MP, SMU4:MP, SMU3:MP
TestParameter, Measurement.Monitor.Adc, HR ADC, HR ADC, HR ADC
TestParameter, Measurement.Monitor.RangingMode, AUTO, AUTO, AUTO
TestParameter, Measurement.Monitor.RangeBoundary, , , 
TestParameter, Measurement.Monitor.RangeRating, BY FULL RANGE, BY FULL RANGE, BY FULL RANGE
TestParameter, Measurement.Monitor.RangeRatingCoeff, 50, 50, 50
TestParameter, Measurement.Timing.Hold, 0.5
TestParameter, Measurement.Timing.Delay, 0.05
TestParameter, Measurement.Adc.HighResolution.AutoZero, OFF
TestParameter, Measurement.Adc.HighResolution.Mode, AUTO
TestParameter, Measurement.Adc.HighResolution.Coeff, 1
TestParameter, Measurement.Ag16440ASelector.SemiconductorRelay.Channel1, DEFAULT
TestParameter, Measurement.Ag16440ASelector.SemiconductorRelay.Channel3, DEFAULT
TestParameter, Function.User.Name, absID, sqrtID, gm2, absIG
TestParameter, Function.User.Unit, A, A, A/V, A
TestParameter, Function.User.Definition, abs(ID), sqrt(abs(ID)), (delta(sqrtID)/delta(VG))^2, abs(IG)
TestParameter, Output.Graph.Enabled, true
TestParameter, Output.Graph.XAxis.Data, VG
TestParameter, Output.Graph.XAxis.Scale, Linear
TestParameter, Output.Graph.XAxis.Left, -5
TestParameter, Output.Graph.XAxis.Right, 7
TestParameter, Output.Graph.YAxis.Data, ID, absIG, gm2
TestParameter, Output.Graph.YAxis.Scale, Log, Log, Linear
TestParameter, Output.Graph.YAxis.Bottom, 1E-14, 1E-14, 0
TestParameter, Output.Graph.YAxis.Top, 0.01, 0.01, 1E-05
TestParameter, Output.Graph.YAxis.Group, , , 
TestParameter, Output.List.Data, VG, IG, VD, ID, VS, IS, sqrtID, gm2, absIG
TestParameter, AutoAnalysis.Interpolation, false
TestParameter, AutoAnalysis.Line1.Enabled, false
TestParameter, AutoAnalysis.Line1.Type, 1
TestParameter, AutoAnalysis.Line1.Fix, True
TestParameter, AutoAnalysis.Line1.YAxis, 0
TestParameter, AutoAnalysis.Line1.Point1.Type, 0
TestParameter, AutoAnalysis.Line1.Point1.XY.X, 
TestParameter, AutoAnalysis.Line1.Point1.XY.Y, 
TestParameter, AutoAnalysis.Line1.Point1.Data.Var, 
TestParameter, AutoAnalysis.Line1.Point1.Data.Condition, 
TestParameter, AutoAnalysis.Line1.Point1.Data.Start, false
TestParameter, AutoAnalysis.Line1.Point1.Data.StartVar, 
TestParameter, AutoAnalysis.Line1.Point1.Data.StartCondition, 
TestParameter, AutoAnalysis.Line1.Point2.Type, 0
TestParameter, AutoAnalysis.Line1.Point2.XY.X, 
TestParameter, AutoAnalysis.Line1.Point2.XY.Y, 
TestParameter, AutoAnalysis.Line1.Point2.Data.Var, 
TestParameter, AutoAnalysis.Line1.Point2.Data.Condition, 
TestParameter, AutoAnalysis.Line1.Point2.Data.Start, false
TestParameter, AutoAnalysis.Line1.Point2.Data.StartVar, 
TestParameter, AutoAnalysis.Line1.Point2.Data.StartCondition, 
TestParameter, AutoAnalysis.Line1.GradientExpr, 0
TestParameter, AutoAnalysis.Line2.Enabled, false
TestParameter, AutoAnalysis.Line2.Type, 1
TestParameter, AutoAnalysis.Line2.Fix, True
TestParameter, AutoAnalysis.Line2.YAxis, 0
TestParameter, AutoAnalysis.Line2.Point1.Type, 0
TestParameter, AutoAnalysis.Line2.Point1.XY.X, 
TestParameter, AutoAnalysis.Line2.Point1.XY.Y, 
TestParameter, AutoAnalysis.Line2.Point1.Data.Var, 
TestParameter, AutoAnalysis.Line2.Point1.Data.Condition, 
TestParameter, AutoAnalysis.Line2.Point1.Data.Start, false
TestParameter, AutoAnalysis.Line2.Point1.Data.StartVar, 
TestParameter, AutoAnalysis.Line2.Point1.Data.StartCondition, 
TestParameter, AutoAnalysis.Line2.Point2.Type, 0
TestParameter, AutoAnalysis.Line2.Point2.XY.X, 
TestParameter, AutoAnalysis.Line2.Point2.XY.Y, 
TestParameter, AutoAnalysis.Line2.Point2.Data.Var, 
TestParameter, AutoAnalysis.Line2.Point2.Data.Condition, 
TestParameter, AutoAnalysis.Line2.Point2.Data.Start, false
TestParameter, AutoAnalysis.Line2.Point2.Data.StartVar, 
TestParameter, AutoAnalysis.Line2.Point2.Data.StartCondition, 
TestParameter, AutoAnalysis.Line2.GradientExpr, 0
TestParameter, AutoAnalysis.Marker.Enabled, false
TestParameter, AutoAnalysis.Marker.Data.Var, 
TestParameter, AutoAnalysis.Marker.Data.Condition, 
TestParameter, AutoAnalysis.Marker.Data.Start, false
TestParameter, AutoAnalysis.Marker.Data.StartVar, 
TestParameter, AutoAnalysis.Marker.Data.StartCondition, 
MetaData, TestRecord.EntryPoint, true
MetaData, TestRecord.RecordTime, 04/23/2019 11:08:51
MetaData, TestRecord.TestTarget, 
MetaData, TestRecord.IterationIndex, 3
MetaData, TestRecord.Preservation, true
MetaData, TestRecord.Flag, 
MetaData, TestRecord.Remarks, 250-300-G22
MetaData, TestRecord.LinkKey, f5bc7814-d574-457e-9b1f-23809532f282
Dimension1, 202, 202, 202, 202, 202, 202, 202, 202, 202, 202
Dimension2, 1, 1, 1, 1, 1, 1, 1, 1, 1, 1
DataName, VG, VD, VS, ID, IS, IG, absID, sqrtID, gm2, absIG
DataValue, -2, 0.1, 0, 4.1500000000000005E-13, 8.540000000000001E-13, -6.4300000000000009E-13, 4.1500000000000005E-13, 6.4420493633625633E-07, 8.202020704883309E-12, 6.4300000000000009E-13
DataValue, -1.9500000000000002, 0.1, 0, 6.2000000000000008E-13, 1.5070000000000001E-12, -7.1700000000000008E-13, 6.2000000000000008E-13, 7.8740078740118113E-07, 7.1202743230331313E-12, 7.1700000000000008E-13
DataValue, -1.9000000000000001, 0.1, 0, 8.300000000000001E-13, -6.2E-14, -1.7280000000000001E-12, 8.300000000000001E-13, 9.1104335791443E-07, 2.2653083685108158E-11, 1.7280000000000001E-12
DataValue, -1.85, 0.1, 0, 9.7E-14, 7.49E-13, -8.8300000000000007E-13, 9.7E-14, 3.1144823004794872E-07, 8.201029097438864E-14, 8.8300000000000007E-13
DataValue, -1.8, 0.1, 0, 8.8300000000000007E-13, 1.034E-12, -5.35E-13, 8.8300000000000007E-13, 9.3968079686668071E-07, 1.3575126106715648E-12, 5.35E-13
DataValue, -1.75, 0.1, 0, -3.8E-14, 1.051E-12, -4.97E-13, 3.8E-14, 1.9493588689617928E-07, 6.0584486819341395E-12, 4.97E-13
DataValue, -1.7000000000000002, 0.1, 0, 4.8100000000000007E-13, -4.6200000000000005E-13, -8.89E-13, 4.8100000000000007E-13, 6.9354163537598814E-07, 9.36746304240028E-12, 8.89E-13
DataValue, -1.6500000000000001, 0.1, 0, 2.5100000000000004E-13, 1.0810000000000001E-12, -3.4500000000000004E-13, 2.5100000000000004E-13, 5.00999001995014E-07, 1.5025252927847422E-12, 3.4500000000000004E-13
DataValue, -1.6, 0.1, 0, 3.26E-13, 1.5410000000000002E-12, -1.4680000000000002E-12, 3.26E-13, 5.70964096944808E-07, 4.5440183401775215E-13, 1.4680000000000002E-12
DataValue, -1.55, 0.1, 0, 1.88E-13, 5.9700000000000008E-13, 1.4150000000000001E-12, 1.88E-13, 4.33589667773576E-07, 3.5838328851425276E-11, 1.4150000000000001E-12
DataValue, -1.5, 0.1, 0, -1.368E-12, 2.9470000000000003E-12, -4.078E-12, 1.368E-12, 1.1696153213770758E-06, 3.7966819236061079E-11, 4.078E-12
DataValue, -1.4500000000000002, 0.1, 0, -1.1020000000000002E-12, 1.1881E-11, -3.3300000000000005E-13, 1.1020000000000002E-12, 1.0497618777608569E-06, 8.2372188504669265E-12, 3.3300000000000005E-13
DataValue, -1.4000000000000001, 0.1, 0, -7.79E-13, -6.4960000000000006E-12, -1.778E-12, 7.79E-13, 8.8260976654464916E-07, 8.9773015416369665E-11, 1.778E-12
DataValue, -1.35, 0.1, 0, 3.989E-12, -5.193E-12, 1.638E-12, 3.989E-12, 1.9972481067709138E-06, 2.6214027111368636E-13, 1.638E-12
DataValue, -1.3, 0.1, 0, 8.72E-13, -1.2360000000000002E-12, 4.3800000000000005E-13, 8.72E-13, 9.3380940239430016E-07, 1.0884934719908933E-10, 4.3800000000000005E-13
DataValue, -1.25, 0.1, 0, 9.1000000000000016E-13, -2.01E-12, 4.5200000000000004E-13, 9.1000000000000016E-13, 9.5393920141694571E-07, 3.5909355473535951E-12, 4.5200000000000004E-13
DataValue, -1.2, 0.1, 0, 5.5400000000000006E-13, -1.226E-12, 1.909E-12, 5.5400000000000006E-13, 7.4431176263713587E-07, 2.4354681399632977E-11, 1.909E-12
DataValue, -1.1500000000000001, 0.1, 0, 2.12E-13, -1.48E-13, -1.65E-13, 2.12E-13, 4.6043457732885353E-07, 4.0470470545447683E-12, 1.65E-13
DataValue, -1.1, 0.1, 0, 2.95E-13, -1.2770000000000001E-12, -1.942E-12, 2.95E-13, 5.4313902456001079E-07, 2.8522812887202602E-12, 1.942E-12
DataValue, -1.05, 0.1, 0, 8.5E-14, 5.2E-13, -2.485E-12, 8.5E-14, 2.91547594742265E-07, 2.9930354291697295E-12, 2.485E-12
DataValue, -1, 0.1, 0, 1.3700000000000002E-13, -1.558E-12, 1.64E-13, 1.3700000000000002E-13, 3.70135110466435E-07, 7.8073581703103732E-12, 1.64E-13
DataValue, -0.95000000000000007, 0.1, 0, 3.26E-13, 4.77E-13, -1.9000000000000002E-13, 3.26E-13, 5.70964096944808E-07, 1.3666689192233309E-13, 1.9000000000000002E-13
DataValue, -0.9, 0.1, 0, 1.1100000000000001E-13, -4.8000000000000008E-13, -8.4000000000000006E-13, 1.1100000000000001E-13, 3.3316662497915367E-07, 1.0067460842193254E-11, 8.4000000000000006E-13
DataValue, -0.85000000000000009, 0.1, 0, 7.8900000000000007E-13, -5.88E-13, -1.5640000000000002E-12, 7.8900000000000007E-13, 8.882567196480982E-07, 1.08267055111288E-10, 1.5640000000000002E-12
DataValue, -0.8, 0.1, 0, 1.8870000000000003E-12, -1.648E-12, 1.335E-12, 1.8870000000000003E-12, 1.3736811857195978E-06, 2.1563039279164253E-10, 1.335E-12
DataValue, -0.75, 0.1, 0, 5.5540000000000008E-12, -5.143E-12, 6.1E-14, 5.5540000000000008E-12, 2.3566925976885488E-06, 5.4891957221774189E-10, 6.1E-14
DataValue, -0.70000000000000007, 0.1, 0, 1.3813000000000002E-11, -1.3436E-11, -2.37E-13, 1.3813000000000002E-11, 3.7165844535002834E-06, 1.2153355412605635E-09, 2.37E-13
DataValue, -0.65, 0.1, 0, 3.4139E-11, -3.1509E-11, -1.89E-13, 3.4139E-11, 5.8428588892767213E-06, 2.7878674764895941E-09, 1.89E-13
DataValue, -0.6, 0.1, 0, 8.0939000000000011E-11, -7.7161E-11, 1.75E-13, 8.0939000000000011E-11, 8.9966104728392024E-06, 6.3104555764794067E-09, 1.75E-13
DataValue, -0.55, 0.1, 0, 1.9007300000000002E-10, -1.8009600000000002E-10, 1.0200000000000001E-13, 1.9007300000000002E-10, 1.3786696486105727E-05, 1.3777211200400527E-08, 1.0200000000000001E-13
DataValue, -0.5, 0.1, 0, 4.29909E-10, -4.06853E-10, -1.4050000000000002E-12, 4.29909E-10, 2.0734247032385814E-05, 2.9008788935012917E-08, 1.4050000000000002E-12
DataValue, -0.45, 0.1, 0, 9.4979E-10, -8.96475E-10, -8.1000000000000008E-14, 9.4979E-10, 3.08186631767181E-05, 5.2196701200288658E-08, 8.1000000000000008E-14
DataValue, -0.4, 0.1, 0, 1.89929E-09, -1.78437E-09, 2.7000000000000002E-14, 1.89929E-09, 4.3580844415866934E-05, 1.1081043078644116E-07, 2.7000000000000002E-14
DataValue, -0.35000000000000003, 0.1, 0, 4.10969E-09, -4.00796E-09, 4.7E-13, 4.10969E-09, 6.4106863907073156E-05, 2.2000955922483845E-07, 4.7E-13
DataValue, -0.3, 0.1, 0, 8.18772E-09, -7.98446E-09, 8.4000000000000008E-14, 8.18772E-09, 9.0486021019823835E-05, 2.8988995681989693E-07, 8.4000000000000008E-14
DataValue, -0.25, 0.1, 0, 1.3911799999999998E-08, -1.33315E-08, 1.3E-13, 1.3911799999999998E-08, 0.00011794829375620487, 4.3310629710353491E-07, 1.3E-13
DataValue, -0.2, 0.1, 0, 2.4428699999999997E-08, -2.39722E-08, 2.711E-12, 2.4428699999999997E-08, 0.00015629683298134994, 6.3222517213535671E-07, 2.711E-12
DataValue, -0.15, 0.1, 0, 3.89908E-08, -3.83526E-08, 9.3900000000000014E-13, 3.89908E-08, 0.00019746088220201996, 6.9898345451388283E-07, 9.3900000000000014E-13
DataValue, -0.1, 0.1, 0, 5.7552999999999993E-08, -5.6763299999999993E-08, -1.9200000000000003E-12, 5.7552999999999993E-08, 0.00023990206335085989, 7.1928710235139262E-07, 1.9200000000000003E-12
DataValue, -0.05, 0.1, 0, 7.96773E-08, -7.8791E-08, 1.4900000000000002E-13, 7.96773E-08, 0.00028227167764407395, 7.0020187008682817E-07, 1.4900000000000002E-13
DataValue, 0, 0.1, 0, 1.0470409999999999E-07, -1.0374339999999999E-07, 2.3000000000000003E-13, 1.0470409999999999E-07, 0.00032358012917977518, 5.960079023270235E-07, 2.3000000000000003E-13
DataValue, 0.05, 0.1, 0, 1.29221E-07, -1.27167E-07, -2.9150000000000004E-12, 1.29221E-07, 0.00035947322570672769, 5.73226818190809E-07, 2.9150000000000004E-12
DataValue, 0.1, 0.1, 0, 1.59434E-07, -1.58376E-07, 1.7E-14, 1.59434E-07, 0.000399291873195536, 6.1492527921731566E-07, 1.7E-14
DataValue, 0.15, 0.1, 0, 1.91748E-07, -1.90578E-07, 4.13E-13, 1.91748E-07, 0.00043789039724570348, 5.64988423676992E-07, 4.13E-13
DataValue, 0.2, 0.1, 0, 2.2511E-07, -2.23963E-07, -3.4400000000000005E-13, 2.2511E-07, 0.0004744575850379041, 5.2184728470903807E-07, 3.4400000000000005E-13
DataValue, 0.25, 0.1, 0, 2.60232E-07, -2.5904199999999997E-07, -9.55E-13, 2.60232E-07, 0.00051012939534984651, 4.9271526465509873E-07, 9.55E-13
DataValue, 0.3, 0.1, 0, 2.96645E-07, -2.95422E-07, 2.2600000000000002E-13, 2.96645E-07, 0.00054465126457211134, 4.6697836607285163E-07, 2.2600000000000002E-13
DataValue, 0.35000000000000003, 0.1, 0, 3.34622E-07, -3.33275E-07, 2.0300000000000002E-13, 3.34622E-07, 0.00057846521070847466, 4.5561209094958757E-07, 2.0300000000000002E-13
DataValue, 0.4, 0.1, 0, 3.74728E-07, -3.73209E-07, -2.393E-12, 3.74728E-07, 0.0006121503083393817, 4.3499179234648523E-07, 2.393E-12
DataValue, 0.45, 0.1, 0, 4.15276E-07, -4.1389E-07, 2.49E-13, 4.15276E-07, 0.000644419118276297, 4.1132206247817982E-07, 2.49E-13
DataValue, 0.5, 0.1, 0, 4.57361E-07, -4.55907E-07, 1.8500000000000002E-13, 4.57361E-07, 0.000676284703360944, 4.0086476825291963E-07, 1.8500000000000002E-13
DataValue, 0.55, 0.1, 0, 5.00886E-07, -4.99403E-07, -3.438E-12, 5.00886E-07, 0.000707733000502308, 3.8987377639518811E-07, 3.438E-12
DataValue, 0.6, 0.1, 0, 5.45714E-07, -5.4422799999999994E-07, 1.0100000000000001E-13, 5.45714E-07, 0.00073872457655069256, 3.830648502229512E-07, 1.0100000000000001E-13
DataValue, 0.65, 0.1, 0, 5.92323E-07, -5.90716E-07, 8.7400000000000011E-13, 5.92323E-07, 0.00076962523347405911, 3.7537584394822482E-07, 8.7400000000000011E-13
DataValue, 0.70000000000000007, 0.1, 0, 6.39988E-07, -6.38501E-07, -3.3E-13, 6.39988E-07, 0.00079999249996484342, 3.6755768151628114E-07, 3.3E-13
DataValue, 0.75, 0.1, 0, 6.89318E-07, -6.87864E-07, -2.5250000000000002E-12, 6.89318E-07, 0.00083025176904358354, 3.6241703822027572E-07, 2.5250000000000002E-12
DataValue, 0.8, 0.1, 0, 7.39933E-07, -7.38249E-07, 1.1300000000000001E-13, 7.39933E-07, 0.0008601935828637644, 3.57925547083729E-07, 1.1300000000000001E-13
DataValue, 0.85000000000000009, 0.1, 0, 7.9224E-07, -7.9077399999999993E-07, 1.63E-13, 7.9224E-07, 0.00089007864821037024, 3.5507193670543058E-07, 1.63E-13
DataValue, 0.9, 0.1, 0, 8.45998E-07, -8.44517E-07, -6.3000000000000009E-14, 8.45998E-07, 0.00091978149579125586, 3.49759928047745E-07, 6.3000000000000009E-14
DataValue, 0.95000000000000007, 0.1, 0, 9.01017E-07, -8.99737E-07, 1.94E-13, 9.01017E-07, 0.00094921915277769236, 3.4624443075114303E-07, 1.94E-13
DataValue, 1, 0.1, 0, 9.5770499999999988E-07, -9.56367E-07, 6.59E-13, 9.5770499999999988E-07, 0.00097862403403963048, 3.4364348124151143E-07, 6.59E-13
DataValue, 1.05, 0.1, 0, 1.015742E-06, -1.014468E-06, 3.53E-13, 1.015742E-06, 0.001007840265121413, 3.4140609832049532E-07, 3.53E-13
DataValue, 1.1, 0.1, 0, 1.075481E-06, -1.074169E-06, 1.53E-13, 1.075481E-06, 0.0010370540005226344, 3.3895417016957164E-07, 1.53E-13
DataValue, 1.1500000000000001, 0.1, 0, 1.136484E-06, -1.135112E-06, 9.57E-13, 1.136484E-06, 0.0010660600358328794, 3.1922318103999676E-07, 9.57E-13
DataValue, 1.2, 0.1, 0, 1.19586E-06, -1.1936100000000002E-06, 4.95E-13, 1.19586E-06, 0.0010935538395524932, 3.2118556948362468E-07, 4.95E-13
DataValue, 1.25, 0.1, 0, 1.26053E-06, -1.2594300000000002E-06, 1.89E-13, 1.26053E-06, 0.0011227332719751383, 3.3879016451642E-07, 1.89E-13
DataValue, 1.3, 0.1, 0, 1.32655E-06, -1.3253600000000002E-06, -1.904E-12, 1.32655E-06, 0.0011517595235117442, 3.3384508077561593E-07, 1.904E-12
DataValue, 1.35, 0.1, 0, 1.3936100000000002E-06, -1.3924500000000001E-06, 1.0160000000000001E-12, 1.3936100000000002E-06, 0.0011805126005257208, 3.2697996998082675E-07, 1.0160000000000001E-12
DataValue, 1.4000000000000001, 0.1, 0, 1.4615400000000002E-06, -1.4608900000000002E-06, -1.5150000000000001E-12, 1.4615400000000002E-06, 0.0012089416859385734, 3.2523431065533682E-07, 1.5150000000000001E-12
DataValue, 1.4500000000000002, 0.1, 0, 1.5315100000000001E-06, -1.53041E-06, 3.5E-13, 1.5315100000000001E-06, 0.0012375419184819561, 3.2207667876659092E-07, 3.5E-13
DataValue, 1.5, 0.1, 0, 1.6019800000000002E-06, -1.6010700000000002E-06, 2.6400000000000004E-13, 1.6019800000000002E-06, 0.001265693485801361, 3.1733065482573048E-07, 2.6400000000000004E-13
DataValue, 1.55, 0.1, 0, 1.6741100000000003E-06, -1.6732700000000002E-06, 8.4000000000000006E-13, 1.6741100000000003E-06, 0.001293874027871338, 3.1511150429524987E-07, 8.4000000000000006E-13
DataValue, 1.6, 0.1, 0, 1.7472300000000002E-06, -1.7465300000000001E-06, 1.87E-13, 1.7472300000000002E-06, 0.0013218282793161901, 3.1281270421145354E-07, 1.87E-13
DataValue, 1.6500000000000001, 0.1, 0, 1.8219700000000001E-06, -1.82131E-06, -1.001E-12, 1.8219700000000001E-06, 0.0013498036894304297, 3.0809274416209204E-07, 1.001E-12
DataValue, 1.7000000000000002, 0.1, 0, 1.8970500000000001E-06, -1.8962700000000002E-06, 5.57E-13, 1.8970500000000001E-06, 0.0013773343820583294, 3.0495798071426972E-07, 5.57E-13
DataValue, 1.75, 0.1, 0, 1.9741000000000003E-06, -1.97323E-06, -9.8000000000000012E-14, 1.9741000000000003E-06, 0.0014050266901379492, 3.0168730686087327E-07, 9.8000000000000012E-14
DataValue, 1.8, 0.1, 0, 2.0513700000000004E-06, -2.0507100000000004E-06, 2.24E-13, 2.0513700000000004E-06, 0.001432260451174995, 3.0420525620569358E-07, 2.24E-13
DataValue, 1.85, 0.1, 0, 2.1321300000000003E-06, -2.1316E-06, -1.6540000000000002E-12, 2.1321300000000003E-06, 0.0014601814955682736, 3.0030847578615081E-07, 1.6540000000000002E-12
DataValue, 1.9000000000000001, 0.1, 0, 2.21135E-06, -2.21062E-06, 2.47E-13, 2.21135E-06, 0.0014870608595481223, 2.8987068727591939E-07, 2.47E-13
DataValue, 1.9500000000000002, 0.1, 0, 2.2922600000000002E-06, -2.29189E-06, 4.5400000000000003E-13, 2.2922600000000002E-06, 0.0015140211359158762, 2.8936653268532956E-07, 4.5400000000000003E-13
DataValue, 2, 0.1, 0, 2.37423E-06, -2.3736100000000003E-06, 5.84E-13, 2.37423E-06, 0.0015408536595017711, 2.8621642808504406E-07, 5.84E-13
DataValue, 2.05, 0.1, 0, 2.4571200000000003E-06, -2.45656E-06, -1.4E-13, 2.4571200000000003E-06, 0.0015675203347963306, 2.8206671749775794E-07, 1.4E-13
DataValue, 2.1, 0.1, 0, 2.5407200000000002E-06, -2.54035E-06, 3.2300000000000004E-13, 2.5407200000000002E-06, 0.0015939636131355071, 2.7787885816977572E-07, 3.2300000000000004E-13
DataValue, 2.15, 0.1, 0, 2.6251600000000005E-06, -2.6250600000000002E-06, -1.069E-12, 2.6251600000000005E-06, 0.0016202345509215635, 2.7447051156089574E-07, 1.069E-12
DataValue, 2.2, 0.1, 0, 2.7104800000000004E-06, -2.7105400000000004E-06, -1.8490000000000003E-12, 2.7104800000000004E-06, 0.0016463535464777911, 2.7389865607571943E-07, 1.8490000000000003E-12
DataValue, 2.25, 0.1, 0, 2.7974900000000005E-06, -2.7973000000000003E-06, 7.08E-13, 2.7974900000000005E-06, 0.001672569878958724, 2.709980768439878E-07, 7.08E-13
DataValue, 2.3000000000000003, 0.1, 0, 2.8846000000000003E-06, -2.8846500000000004E-06, 2.611E-12, 2.8846000000000003E-06, 0.0016984110221027182, 2.6640035453000055E-07, 2.611E-12
