
SetupTitle, Transfer stab
PrimitiveTest, I/V Sweep
TestParameter, Context.MainFrame, 4155C
TestParameter, Channel.UnitType, SMU, SMU, SMU
TestParameter, Channel.Unit, SMU1:MP, SMU4:MP, SMU3:MP
TestParameter, Channel.IName, ID, IS, IG
TestParameter, Channel.VName, VD, VS, VG
TestParameter, Channel.Mode, V, COMMON, V
TestParameter, Channel.Func, CONST, CONST, VAR1
TestParameter, Channel.Index, 
TestParameter, Channel.Time, 
TestParameter, Measurement.Port.Unit, SMU1:MP, SMU4:MP, SMU3:MP
TestParameter, Measurement.Port.SeriesResistor, NONE, NONE, NONE
TestParameter, Measurement.Port.Filter, ON, ON, ON
TestParameter, Measurement.Primary.Locus, Single
TestParameter, Measurement.Primary.Scale, LINEAR
TestParameter, Measurement.Primary.Start, -2
TestParameter, Measurement.Primary.Stop, 3
TestParameter, Measurement.Primary.Step, 0.05
TestParameter, Measurement.Primary.Compliance, 0.1
TestParameter, Measurement.Primary.PowerCompliance, 0
TestParameter, Measurement.Aborting.Condition, CONTINUE AT ANY
TestParameter, Measurement.PostOutput.Value, START
TestParameter, Measurement.PostOutput.Retention, OFF
TestParameter, Measurement.Bias.Source, 3, 0, -2
TestParameter, Measurement.Bias.Compliance, 0.1, 0.1, 0.1
TestParameter, Measurement.Monitor.Unit, SMU1:MP, SMU4:MP, SMU3:MP
TestParameter, Measurement.Monitor.Adc, HR ADC, HR ADC, HR ADC
TestParameter, Measurement.Monitor.RangingMode, AUTO, AUTO, AUTO
TestParameter, Measurement.Monitor.RangeBoundary, , , 
TestParameter, Measurement.Monitor.RangeRating, BY FULL RANGE, BY FULL RANGE, BY FULL RANGE
TestParameter, Measurement.Monitor.RangeRatingCoeff, 50, 50, 50
TestParameter, Measurement.Timing.Hold, 0.5
TestParameter, Measurement.Timing.Delay, 0.05
TestParameter, Measurement.Adc.HighResolution.AutoZero, OFF
TestParameter, Measurement.Adc.HighResolution.Mode, AUTO
TestParameter, Measurement.Adc.HighResolution.Coeff, 1
TestParameter, Measurement.Ag16440ASelector.SemiconductorRelay.Channel1, DEFAULT
TestParameter, Measurement.Ag16440ASelector.SemiconductorRelay.Channel3, DEFAULT
TestParameter, Function.User.Name, absID, sqrtID, gm2, absIG
TestParameter, Function.User.Unit, A, A, A/V, A
TestParameter, Function.User.Definition, abs(ID), sqrt(abs(ID)), (delta(sqrtID)/delta(VG))^2, abs(IG)
TestParameter, Output.Graph.Enabled, true
TestParameter, Output.Graph.XAxis.Data, VG
TestParameter, Output.Graph.XAxis.Scale, Linear
TestParameter, Output.Graph.XAxis.Left, -5
TestParameter, Output.Graph.XAxis.Right, 7
TestParameter, Output.Graph.YAxis.Data, ID, absIG, gm2
TestParameter, Output.Graph.YAxis.Scale, Log, Log, Linear
TestParameter, Output.Graph.YAxis.Bottom, 1E-14, 1E-14, 0
TestParameter, Output.Graph.YAxis.Top, 0.01, 0.01, 1E-05
TestParameter, Output.Graph.YAxis.Group, , , 
TestParameter, Output.List.Data, VG, IG, VD, ID, VS, IS, sqrtID, gm2, absIG
TestParameter, AutoAnalysis.Interpolation, false
TestParameter, AutoAnalysis.Line1.Enabled, false
TestParameter, AutoAnalysis.Line1.Type, 1
TestParameter, AutoAnalysis.Line1.Fix, True
TestParameter, AutoAnalysis.Line1.YAxis, 0
TestParameter, AutoAnalysis.Line1.Point1.Type, 0
TestParameter, AutoAnalysis.Line1.Point1.XY.X, 
TestParameter, AutoAnalysis.Line1.Point1.XY.Y, 
TestParameter, AutoAnalysis.Line1.Point1.Data.Var, 
TestParameter, AutoAnalysis.Line1.Point1.Data.Condition, 
TestParameter, AutoAnalysis.Line1.Point1.Data.Start, false
TestParameter, AutoAnalysis.Line1.Point1.Data.StartVar, 
TestParameter, AutoAnalysis.Line1.Point1.Data.StartCondition, 
TestParameter, AutoAnalysis.Line1.Point2.Type, 0
TestParameter, AutoAnalysis.Line1.Point2.XY.X, 
TestParameter, AutoAnalysis.Line1.Point2.XY.Y, 
TestParameter, AutoAnalysis.Line1.Point2.Data.Var, 
TestParameter, AutoAnalysis.Line1.Point2.Data.Condition, 
TestParameter, AutoAnalysis.Line1.Point2.Data.Start, false
TestParameter, AutoAnalysis.Line1.Point2.Data.StartVar, 
TestParameter, AutoAnalysis.Line1.Point2.Data.StartCondition, 
TestParameter, AutoAnalysis.Line1.GradientExpr, 0
TestParameter, AutoAnalysis.Line2.Enabled, false
TestParameter, AutoAnalysis.Line2.Type, 1
TestParameter, AutoAnalysis.Line2.Fix, True
TestParameter, AutoAnalysis.Line2.YAxis, 0
TestParameter, AutoAnalysis.Line2.Point1.Type, 0
TestParameter, AutoAnalysis.Line2.Point1.XY.X, 
TestParameter, AutoAnalysis.Line2.Point1.XY.Y, 
TestParameter, AutoAnalysis.Line2.Point1.Data.Var, 
TestParameter, AutoAnalysis.Line2.Point1.Data.Condition, 
TestParameter, AutoAnalysis.Line2.Point1.Data.Start, false
TestParameter, AutoAnalysis.Line2.Point1.Data.StartVar, 
TestParameter, AutoAnalysis.Line2.Point1.Data.StartCondition, 
TestParameter, AutoAnalysis.Line2.Point2.Type, 0
TestParameter, AutoAnalysis.Line2.Point2.XY.X, 
TestParameter, AutoAnalysis.Line2.Point2.XY.Y, 
TestParameter, AutoAnalysis.Line2.Point2.Data.Var, 
TestParameter, AutoAnalysis.Line2.Point2.Data.Condition, 
TestParameter, AutoAnalysis.Line2.Point2.Data.Start, false
TestParameter, AutoAnalysis.Line2.Point2.Data.StartVar, 
TestParameter, AutoAnalysis.Line2.Point2.Data.StartCondition, 
TestParameter, AutoAnalysis.Line2.GradientExpr, 0
TestParameter, AutoAnalysis.Marker.Enabled, false
TestParameter, AutoAnalysis.Marker.Data.Var, 
TestParameter, AutoAnalysis.Marker.Data.Condition, 
TestParameter, AutoAnalysis.Marker.Data.Start, false
TestParameter, AutoAnalysis.Marker.Data.StartVar, 
TestParameter, AutoAnalysis.Marker.Data.StartCondition, 
MetaData, TestRecord.EntryPoint, true
MetaData, TestRecord.RecordTime, 04/24/2019 15:59:00
MetaData, TestRecord.TestTarget, 23
MetaData, TestRecord.IterationIndex, 3
MetaData, TestRecord.Preservation, true
MetaData, TestRecord.Flag, 
MetaData, TestRecord.Remarks, 350-180-G23
MetaData, TestRecord.LinkKey, abcc06bb-6b39-4017-bc6f-02cbbf3bb866
Dimension1, 101, 101, 101, 101, 101, 101, 101, 101, 101, 101
Dimension2, 1, 1, 1, 1, 1, 1, 1, 1, 1, 1
DataName, VG, VD, VS, ID, IS, IG, absID, sqrtID, gm2, absIG
DataValue, -2, 3, 0, 2.1700000000000002E-12, 1.558E-12, -2.0360000000000002E-12, 2.1700000000000002E-12, 1.4730919862656237E-06, 6.1285914410608368E-11, 2.0360000000000002E-12
DataValue, -1.9500000000000002, 3, 0, 1.17E-12, 1.383E-12, -5.13E-12, 1.17E-12, 1.0816653826391968E-06, 2.9664627515928116E-11, 5.13E-12
DataValue, -1.9000000000000001, 3, 0, 8.6200000000000006E-13, 1.6700000000000002E-12, -1.038E-12, 8.6200000000000006E-13, 9.2843955107481289E-07, 3.3002311249445718E-12, 1.038E-12
DataValue, -1.85, 3, 0, 8.1000000000000008E-13, 1.139E-12, -1.644E-12, 8.1000000000000008E-13, 9.0000000000000007E-07, 1.9906938416363625E-14, 1.644E-12
DataValue, -1.8, 3, 0, 8.3600000000000007E-13, -9.17E-13, -8.5600000000000009E-13, 8.3600000000000007E-13, 9.1433035605299692E-07, 3.5625915825488104E-13, 8.5600000000000009E-13
DataValue, -1.75, 3, 0, 9.21E-13, -1.285E-12, -9.23E-13, 9.21E-13, 9.5968744912080617E-07, 7.2132522253238E-12, 9.23E-13
DataValue, -1.7000000000000002, 3, 0, 4.1700000000000004E-13, -1.7020000000000002E-12, -3.75E-13, 4.1700000000000004E-13, 6.457553716385176E-07, 1.6803213661287873E-12, 3.75E-13
DataValue, -1.6500000000000001, 3, 0, 6.8900000000000009E-13, 1.8530000000000003E-12, -7.3E-13, 6.8900000000000009E-13, 8.3006023877788539E-07, 1.8993902467362678E-12, 7.3E-13
DataValue, -1.6, 3, 0, 2.58E-13, -1.54E-13, -4.373E-12, 2.58E-13, 5.0793700396801182E-07, 4.910882355170821E-12, 4.373E-12
DataValue, -1.55, 3, 0, 1.1060000000000001E-12, 1.1E-14, -6.79E-13, 1.1060000000000001E-12, 1.0516653460107926E-06, 2.2549865868782456E-12, 6.79E-13
DataValue, -1.5, 3, 0, 1.28E-13, 1.4800000000000002E-12, -4.2600000000000005E-13, 1.28E-13, 3.5777087639996637E-07, 3.1103128054787032E-11, 4.2600000000000005E-13
DataValue, -1.4500000000000002, 3, 0, 2.44E-13, 7.3800000000000009E-13, -4.01E-13, 2.44E-13, 4.9396356140913874E-07, 1.4167343489977625E-11, 4.01E-13
DataValue, -1.4000000000000001, 3, 0, 5.39E-13, 4.64E-13, -2.247E-12, 5.39E-13, 7.3416619371910606E-07, 8.5657932085817943E-13, 2.247E-12
DataValue, -1.35, 3, 0, 3.4400000000000005E-13, 5.7900000000000006E-13, -1.7200000000000002E-13, 3.4400000000000005E-13, 5.8651513194460728E-07, 2.3172761811031696E-13, 1.7200000000000002E-13
DataValue, -1.3, 3, 0, 6.12E-13, -6.0300000000000006E-13, -4.6000000000000006E-14, 6.12E-13, 7.8230428862431781E-07, 2.596864366204095E-12, 4.6000000000000006E-14
DataValue, -1.25, 3, 0, 5.59E-13, -2.2500000000000003E-13, -9.0000000000000008E-14, 5.59E-13, 7.476630257007498E-07, 7.8788086116831976E-13, 9.0000000000000008E-14
DataValue, -1.2, 3, 0, 4.8100000000000007E-13, -3.75E-13, -7.7E-14, 4.8100000000000007E-13, 6.9354163537598814E-07, 4.77478278070892E-12, 7.7E-14
DataValue, -1.1500000000000001, 3, 0, 2.8E-13, 1.6100000000000002E-13, 8.0900000000000009E-13, 2.8E-13, 5.2915026221291808E-07, 6.8782648195490936E-12, 8.0900000000000009E-13
DataValue, -1.1, 3, 0, 1.8600000000000002E-13, 8.93E-13, -6.8E-14, 1.8600000000000002E-13, 4.312771730569565E-07, 2.4436950538953726E-12, 6.8E-14
DataValue, -1.05, 3, 0, 1.3900000000000001E-13, 7.3E-13, -3.421E-12, 1.3900000000000001E-13, 3.72827037646145E-07, 3.3176551004298933E-13, 3.421E-12
DataValue, -1, 3, 0, 2.3900000000000004E-13, -2.43E-13, -2.43E-13, 2.3900000000000004E-13, 4.8887626246321274E-07, 1.1138827876061274E-13, 2.43E-13
DataValue, -0.95000000000000007, 3, 0, 1.65E-13, -1.191E-12, -1.627E-12, 1.65E-13, 4.0620192023179803E-07, 1.6466313666339141E-12, 1.627E-12
DataValue, -0.9, 3, 0, 1.3E-13, -9.53E-13, 1.7900000000000002E-13, 1.3E-13, 3.6055512754639893E-07, 8.6112976413871522E-13, 1.7900000000000002E-13
DataValue, -0.85000000000000009, 3, 0, 2.49E-13, -8.93E-13, -4.98E-13, 2.49E-13, 4.98998997994986E-07, 2.9063974011323936E-12, 4.98E-13
DataValue, -0.8, 3, 0, 2.82E-13, 6.9700000000000006E-13, -2.8E-13, 2.82E-13, 5.3103672189407016E-07, 3.5715551191068344E-15, 2.8E-13
DataValue, -0.75, 3, 0, 2.55E-13, -1.2730000000000001E-12, -1.2000000000000001E-14, 2.55E-13, 5.0497524691810391E-07, 0, 1.2000000000000001E-14
DataValue, -0.70000000000000007, 3, 0, 2.82E-13, -1.3110000000000002E-12, -2.226E-12, 2.82E-13, 5.3103672189407016E-07, 1.7052210412761812E-13, 2.226E-12
DataValue, -0.65, 3, 0, 2.1500000000000002E-13, -1.3440000000000001E-12, -8.1000000000000008E-14, 2.1500000000000002E-13, 4.6368092477478522E-07, 1.9567695045269713E-12, 8.1000000000000008E-14
DataValue, -0.6, 3, 0, 1.53E-13, -5.7300000000000008E-13, -1.94E-13, 1.53E-13, 3.9115214431215891E-07, 7.0998038441657283E-14, 1.94E-13
DataValue, -0.55, 3, 0, 1.9100000000000002E-13, -1.9800000000000002E-13, -4.3560000000000004E-12, 1.9100000000000002E-13, 4.3703546766824316E-07, 1.6256238495278906E-12, 4.3560000000000004E-12
DataValue, -0.5, 3, 0, 2.69E-13, -1.9280000000000003E-12, -2.48E-13, 2.69E-13, 5.1865209919559758E-07, 8.54672557428912E-12, 2.48E-13
DataValue, -0.45, 3, 0, 5.3200000000000006E-13, -1.318E-12, 1.52E-13, 5.3200000000000006E-13, 7.2938330115241876E-07, 4.2097233722759278E-11, 1.52E-13
DataValue, -0.4, 3, 0, 1.3630000000000002E-12, -1.6720000000000002E-12, 1.36E-13, 1.3630000000000002E-12, 1.1674759098157016E-06, 2.6226059771240572E-10, 1.36E-13
DataValue, -0.35000000000000003, 3, 0, 5.5170000000000008E-12, -4.9450000000000004E-12, -1.3090000000000002E-12, 5.5170000000000008E-12, 2.3488294957276062E-06, 1.0539627408248812E-09, 1.3090000000000002E-12
DataValue, -0.3, 3, 0, 1.9483E-11, -1.6561E-11, 4.3000000000000006E-14, 1.9483E-11, 4.4139551424997517E-06, 3.1448158810332546E-09, 4.3000000000000006E-14
DataValue, -0.25, 3, 0, 6.3309E-11, -5.8769E-11, 3.4900000000000003E-13, 6.3309E-11, 7.95669529390186E-06, 9.0476623121551255E-09, 3.4900000000000003E-13
DataValue, -0.2, 3, 0, 1.9393000000000002E-10, -1.8496000000000003E-10, -9.0300000000000009E-13, 1.9393000000000002E-10, 1.392587519691312E-05, 2.4053248103512039E-08, 9.0300000000000009E-13
DataValue, -0.15, 3, 0, 5.50644E-10, -5.26711E-10, 1.76E-13, 5.50644E-10, 2.34658049084194E-05, 5.1447527620039152E-08, 1.76E-13
DataValue, -0.1, 3, 0, 1.34014E-09, -1.27541E-09, 1.65E-13, 1.34014E-09, 3.6607922639778404E-05, 1.1265016945053218E-07, 1.65E-13
DataValue, -0.05, 3, 0, 3.25233E-09, -3.19197E-09, 4.2500000000000006E-13, 3.25233E-09, 5.7029203045457332E-05, 1.9905733890863158E-07, 4.2500000000000006E-13
DataValue, 0, 3, 0, 6.5973E-09, -6.46131E-09, -1.2500000000000001E-12, 6.5973E-09, 8.1223764995227841E-05, 2.2278731632724226E-07, 1.2500000000000001E-12
DataValue, 0.05, 3, 0, 1.08638E-08, -1.0462499999999999E-08, 6.59E-13, 1.08638E-08, 0.00010422955435000191, 2.6871263119218224E-07, 6.59E-13
DataValue, 0.1, 3, 0, 1.77053E-08, -1.73153E-08, -1.57E-13, 1.77053E-08, 0.00013306126408538287, 3.1482716685086906E-07, 1.57E-13
DataValue, 0.15, 3, 0, 2.5708599999999997E-08, -2.51805E-08, 2.4930000000000004E-12, 2.5708599999999997E-08, 0.00016033901583831678, 2.9024963645702954E-07, 2.4930000000000004E-12
DataValue, 0.2, 3, 0, 3.49451E-08, -3.40396E-08, -1.623E-12, 3.49451E-08, 0.00018693608533399859, 2.7914973142959646E-07, 1.623E-12
DataValue, 0.25, 3, 0, 4.5443E-08, -4.4432199999999995E-08, 9.0000000000000011E-15, 4.5443E-08, 0.0002131736381450577, 2.7502799707722747E-07, 9.0000000000000011E-15
DataValue, 0.3, 3, 0, 5.7302399999999994E-08, -5.5658799999999991E-08, -1.93E-13, 5.7302399999999994E-08, 0.00023937919709114238, 2.9429403298675223E-07, 1.93E-13
DataValue, 0.35000000000000003, 3, 0, 7.1514799999999991E-08, -6.986829999999999E-08, 5.7200000000000009E-13, 7.1514799999999991E-08, 0.00026742251214136774, 3.2594250770430017E-07, 5.7200000000000009E-13
DataValue, 0.4, 3, 0, 8.78948E-08, -8.5892999999999987E-08, -3.9300000000000004E-13, 8.78948E-08, 0.00029647057189542437, 2.2173003681311691E-07, 3.9300000000000004E-13
DataValue, 0.45, 3, 0, 9.8917E-08, -9.4907499999999991E-08, -2.1040000000000003E-12, 9.8917E-08, 0.00031451073113647487, 3.4296518274840538E-07, 2.1040000000000003E-12
DataValue, 0.5, 3, 0, 1.26049E-07, -1.18668E-07, -1.42E-13, 1.26049E-07, 0.000355033801207716, 5.6717501856855176E-07, 1.42E-13
DataValue, 0.55, 3, 0, 1.51961E-07, -1.4861599999999999E-07, -2.7130000000000003E-12, 1.51961E-07, 0.00038982175413899105, 5.6858156459134746E-07, 2.7130000000000003E-12
DataValue, 0.6, 3, 0, 1.85277E-07, -1.81243E-07, 1.362E-12, 1.85277E-07, 0.00043043814886694232, 7.4778170536427137E-07, 1.362E-12
DataValue, 0.65, 3, 0, 2.26858E-07, -2.23101E-07, 2.2000000000000002E-13, 2.26858E-07, 0.00047629612637517852, 8.1566531867066021E-07, 2.2000000000000002E-13
DataValue, 0.70000000000000007, 3, 0, 2.71183E-07, -2.65005E-07, -1.0290000000000002E-12, 2.71183E-07, 0.00052075234036920079, 8.9326974408103948E-07, 1.0290000000000002E-12
DataValue, 0.75, 3, 0, 3.25823E-07, -3.20148E-07, -3.9E-12, 3.25823E-07, 0.00057080907491034163, 1.0970858124521376E-06, 3.9E-12
DataValue, 0.8, 3, 0, 3.91243E-07, -3.83219E-07, -1.2000000000000002E-13, 3.91243E-07, 0.0006254942046094432, 1.1893288118799014E-06, 1.2000000000000002E-13
DataValue, 0.85000000000000009, 3, 0, 4.62217E-07, -4.53142E-07, -5.57E-13, 4.62217E-07, 0.00067986542786054364, 1.3129222274574442E-06, 5.57E-13
DataValue, 0.9, 3, 0, 5.47714E-07, -5.36943E-07, 2.36E-13, 5.47714E-07, 0.0007400770230185504, 1.6018379847073653E-06, 2.36E-13
DataValue, 0.95000000000000007, 3, 0, 6.50328E-07, -6.3827899999999994E-07, -1.2000000000000001E-14, 6.50328E-07, 0.00080642916613922141, 1.8027862150892288E-06, 1.2000000000000001E-14
DataValue, 1, 3, 0, 7.64479E-07, -7.5044599999999994E-07, 1.9000000000000002E-13, 7.64479E-07, 0.00087434489762335779, 2.0045437167166939E-06, 1.9000000000000002E-13
DataValue, 1.05, 3, 0, 8.98725E-07, -8.85212E-07, 6.06E-13, 8.98725E-07, 0.000948011075884665, 2.2522194077406168E-06, 6.06E-13
DataValue, 1.1, 3, 0, 1.049434E-06, -1.033191E-06, -3.4660000000000004E-12, 1.049434E-06, 0.0010244188596467755, 1.7469990973142837E-06, 3.4660000000000004E-12
DataValue, 1.1500000000000001, 3, 0, 1.1668000000000002E-06, -1.1370500000000002E-06, 3.53E-13, 1.1668000000000002E-06, 0.0010801851693112623, 2.3007012285875576E-06, 3.53E-13
DataValue, 1.2, 3, 0, 1.3832100000000002E-06, -1.3629400000000002E-06, 4.4100000000000004E-13, 1.3832100000000002E-06, 0.0011760994855878478, 3.672148058884194E-06, 4.4100000000000004E-13
DataValue, 1.25, 3, 0, 1.6175100000000003E-06, -1.5955700000000003E-06, 1.623E-12, 1.6175100000000003E-06, 0.001271813665597284, 3.6731312138348997E-06, 1.623E-12
DataValue, 1.3, 3, 0, 1.8707500000000003E-06, -1.8453700000000002E-06, -1.6530000000000001E-12, 1.8707500000000003E-06, 0.0013677536327862559, 3.7258345410995329E-06, 1.6530000000000001E-12
DataValue, 1.35, 3, 0, 2.14575E-06, -2.12192E-06, 5.86E-13, 2.14575E-06, 0.0014648378749882187, 4.0011296716201859E-06, 5.86E-13
DataValue, 1.4000000000000001, 3, 0, 2.45794E-06, -2.4298400000000003E-06, -5.7800000000000006E-13, 2.45794E-06, 0.0015677818725830454, 4.3481016848995732E-06, 5.7800000000000006E-13
DataValue, 1.4500000000000002, 3, 0, 2.80013E-06, -2.7664300000000003E-06, -4.5600000000000008E-13, 2.80013E-06, 0.0016733588975470864, 4.64530316513605E-06, 4.5600000000000008E-13
DataValue, 1.5, 3, 0, 3.1802000000000005E-06, -3.14341E-06, -2.8600000000000004E-13, 3.1802000000000005E-06, 0.0017833115263464205, 5.0611192389108368E-06, 2.8600000000000004E-13
DataValue, 1.55, 3, 0, 3.6036500000000002E-06, -3.5651500000000005E-06, 9.6000000000000007E-14, 3.6036500000000002E-06, 0.0018983282118748591, 5.3354013341432576E-06, 9.6000000000000007E-14
DataValue, 1.6, 3, 0, 4.0573900000000005E-06, -4.0117100000000008E-06, 3.28E-13, 4.0573900000000005E-06, 0.0020142964032137875, 5.6097257328815254E-06, 3.28E-13
DataValue, 1.6500000000000001, 3, 0, 4.55898E-06, -4.51602E-06, 1.4E-12, 4.55898E-06, 0.0021351768076672247, 6.0156251552481624E-06, 1.4E-12
DataValue, 1.7000000000000002, 3, 0, 5.10563E-06, -5.0571800000000008E-06, 1.2100000000000002E-13, 5.10563E-06, 0.0022595641172580166, 6.275509794262277E-06, 1.2100000000000002E-13
DataValue, 1.75, 3, 0, 5.6915000000000005E-06, -5.6408900000000006E-06, 1.141E-12, 5.6915000000000005E-06, 0.002385686484012516, 6.6335739329108308E-06, 1.141E-12
DataValue, 1.8, 3, 0, 6.3359000000000006E-06, -6.28474E-06, -2.683E-12, 6.3359000000000006E-06, 0.0025171213717260438, 7.0912445476184237E-06, 2.683E-12
DataValue, 1.85, 3, 0, 7.0330000000000011E-06, -6.9765600000000008E-06, 1.1830000000000001E-12, 7.0330000000000011E-06, 0.0026519803920843762, 7.2773576402090321E-06, 1.1830000000000001E-12
DataValue, 1.9000000000000001, 3, 0, 7.76674E-06, -7.7052400000000015E-06, -2.6300000000000004E-13, 7.76674E-06, 0.0027868871523619326, 7.507588248993975E-06, 2.6300000000000004E-13
DataValue, 1.9500000000000002, 3, 0, 8.5613600000000013E-06, -8.5002E-06, 2.6500000000000003E-13, 8.5613600000000013E-06, 0.002925980177649876, 7.930650721570273E-06, 2.6500000000000003E-13
DataValue, 2, 3, 0, 9.4157E-06, -9.34913E-06, -2.3450000000000002E-12, 9.4157E-06, 0.0030685012628317429, 8.35868536352069E-06, 2.3450000000000002E-12
DataValue, 2.05, 3, 0, 1.0336830000000001E-05, -1.026691E-05, -2.327E-12, 1.0336830000000001E-05, 0.0032150940888253958, 7.53209022952399E-06, 2.327E-12
DataValue, 2.1, 3, 0, 1.1175300000000001E-05, -1.1104740000000002E-05, -1.24E-13, 1.1175300000000001E-05, 0.003342947800968481, 8.5463185073297645E-06, 1.24E-13
DataValue, 2.15, 3, 0, 1.23021E-05, -1.21492E-05, -3.5880000000000005E-12, 1.23021E-05, 0.0035074349601952708, 9.7357366007227652E-06, 3.5880000000000005E-12
DataValue, 2.2, 3, 0, 1.33588E-05, -1.32691E-05, -1.2600000000000002E-13, 1.33588E-05, 0.0036549692201166347, 9.2006734251932966E-06, 1.2600000000000002E-13
DataValue, 2.25, 3, 0, 1.45219E-05, -1.44384E-05, 3.0900000000000005E-13, 1.45219E-05, 0.0038107610788397639, 9.846813737039955E-06, 3.0900000000000005E-13
DataValue, 2.3000000000000003, 3, 0, 1.57511E-05, -1.5664E-05, 6.07E-13, 1.57511E-05, 0.0039687655511506346, 9.9148322117546856E-06, 6.07E-13
DataValue, 2.35, 3, 0, 1.70209E-05, -1.6926E-05, -2.3510000000000004E-12, 1.70209E-05, 0.0041256393443925756, 1.020265054043557E-05, 2.3510000000000004E-12
