
SetupTitle, Transfer stab
PrimitiveTest, I/V Sweep
TestParameter, Context.MainFrame, 4155C
TestParameter, Channel.UnitType, SMU, SMU, SMU
TestParameter, Channel.Unit, SMU3:MP, SMU4:MP, SMU1:MP
TestParameter, Channel.IName, ID, IS, IG
TestParameter, Channel.VName, VD, VS, VG
TestParameter, Channel.Mode, V, COMMON, V
TestParameter, Channel.Func, CONST, CONST, VAR1
TestParameter, Channel.Index, 
TestParameter, Channel.Time, 
TestParameter, Measurement.Port.Unit, SMU3:MP, SMU4:MP, SMU1:MP
TestParameter, Measurement.Port.SeriesResistor, NONE, NONE, NONE
TestParameter, Measurement.Port.Filter, ON, ON, ON
TestParameter, Measurement.Primary.Locus, Single
TestParameter, Measurement.Primary.Scale, LINEAR
TestParameter, Measurement.Primary.Start, -2
TestParameter, Measurement.Primary.Stop, 3
TestParameter, Measurement.Primary.Step, 0.05
TestParameter, Measurement.Primary.Compliance, 0.1
TestParameter, Measurement.Primary.PowerCompliance, 0
TestParameter, Measurement.Aborting.Condition, CONTINUE AT ANY
TestParameter, Measurement.PostOutput.Value, START
TestParameter, Measurement.PostOutput.Retention, OFF
TestParameter, Measurement.Bias.Source, 3, 0, -2
TestParameter, Measurement.Bias.Compliance, 0.1, 0.1, 0.1
TestParameter, Measurement.Monitor.Unit, SMU3:MP, SMU4:MP, SMU1:MP
TestParameter, Measurement.Monitor.Adc, HR ADC, HR ADC, HR ADC
TestParameter, Measurement.Monitor.RangingMode, AUTO, AUTO, AUTO
TestParameter, Measurement.Monitor.RangeBoundary, , , 
TestParameter, Measurement.Monitor.RangeRating, BY FULL RANGE, BY FULL RANGE, BY FULL RANGE
TestParameter, Measurement.Monitor.RangeRatingCoeff, 50, 50, 50
TestParameter, Measurement.Timing.Hold, 0.5
TestParameter, Measurement.Timing.Delay, 0.05
TestParameter, Measurement.Adc.HighResolution.AutoZero, OFF
TestParameter, Measurement.Adc.HighResolution.Mode, AUTO
TestParameter, Measurement.Adc.HighResolution.Coeff, 1
TestParameter, Measurement.Ag16440ASelector.SemiconductorRelay.Channel1, DEFAULT
TestParameter, Measurement.Ag16440ASelector.SemiconductorRelay.Channel3, DEFAULT
TestParameter, Function.User.Name, absID, sqrtID, gm2, absIG
TestParameter, Function.User.Unit, A, A, A/V, A
TestParameter, Function.User.Definition, abs(ID), sqrt(abs(ID)), (delta(sqrtID)/delta(VG))^2, abs(IG)
TestParameter, Output.Graph.Enabled, true
TestParameter, Output.Graph.XAxis.Data, VG
TestParameter, Output.Graph.XAxis.Scale, Linear
TestParameter, Output.Graph.XAxis.Left, -5
TestParameter, Output.Graph.XAxis.Right, 7
TestParameter, Output.Graph.YAxis.Data, ID, absIG, gm2
TestParameter, Output.Graph.YAxis.Scale, Log, Log, Linear
TestParameter, Output.Graph.YAxis.Bottom, 1E-14, 1E-14, 0
TestParameter, Output.Graph.YAxis.Top, 0.01, 0.01, 1E-05
TestParameter, Output.Graph.YAxis.Group, , , 
TestParameter, Output.List.Data, VG, IG, VD, ID, VS, IS, sqrtID, gm2, absIG
TestParameter, AutoAnalysis.Interpolation, false
TestParameter, AutoAnalysis.Line1.Enabled, false
TestParameter, AutoAnalysis.Line1.Type, 1
TestParameter, AutoAnalysis.Line1.Fix, True
TestParameter, AutoAnalysis.Line1.YAxis, 0
TestParameter, AutoAnalysis.Line1.Point1.Type, 0
TestParameter, AutoAnalysis.Line1.Point1.XY.X, 
TestParameter, AutoAnalysis.Line1.Point1.XY.Y, 
TestParameter, AutoAnalysis.Line1.Point1.Data.Var, 
TestParameter, AutoAnalysis.Line1.Point1.Data.Condition, 
TestParameter, AutoAnalysis.Line1.Point1.Data.Start, false
TestParameter, AutoAnalysis.Line1.Point1.Data.StartVar, 
TestParameter, AutoAnalysis.Line1.Point1.Data.StartCondition, 
TestParameter, AutoAnalysis.Line1.Point2.Type, 0
TestParameter, AutoAnalysis.Line1.Point2.XY.X, 
TestParameter, AutoAnalysis.Line1.Point2.XY.Y, 
TestParameter, AutoAnalysis.Line1.Point2.Data.Var, 
TestParameter, AutoAnalysis.Line1.Point2.Data.Condition, 
TestParameter, AutoAnalysis.Line1.Point2.Data.Start, false
TestParameter, AutoAnalysis.Line1.Point2.Data.StartVar, 
TestParameter, AutoAnalysis.Line1.Point2.Data.StartCondition, 
TestParameter, AutoAnalysis.Line1.GradientExpr, 0
TestParameter, AutoAnalysis.Line2.Enabled, false
TestParameter, AutoAnalysis.Line2.Type, 1
TestParameter, AutoAnalysis.Line2.Fix, True
TestParameter, AutoAnalysis.Line2.YAxis, 0
TestParameter, AutoAnalysis.Line2.Point1.Type, 0
TestParameter, AutoAnalysis.Line2.Point1.XY.X, 
TestParameter, AutoAnalysis.Line2.Point1.XY.Y, 
TestParameter, AutoAnalysis.Line2.Point1.Data.Var, 
TestParameter, AutoAnalysis.Line2.Point1.Data.Condition, 
TestParameter, AutoAnalysis.Line2.Point1.Data.Start, false
TestParameter, AutoAnalysis.Line2.Point1.Data.StartVar, 
TestParameter, AutoAnalysis.Line2.Point1.Data.StartCondition, 
TestParameter, AutoAnalysis.Line2.Point2.Type, 0
TestParameter, AutoAnalysis.Line2.Point2.XY.X, 
TestParameter, AutoAnalysis.Line2.Point2.XY.Y, 
TestParameter, AutoAnalysis.Line2.Point2.Data.Var, 
TestParameter, AutoAnalysis.Line2.Point2.Data.Condition, 
TestParameter, AutoAnalysis.Line2.Point2.Data.Start, false
TestParameter, AutoAnalysis.Line2.Point2.Data.StartVar, 
TestParameter, AutoAnalysis.Line2.Point2.Data.StartCondition, 
TestParameter, AutoAnalysis.Line2.GradientExpr, 0
TestParameter, AutoAnalysis.Marker.Enabled, false
TestParameter, AutoAnalysis.Marker.Data.Var, 
TestParameter, AutoAnalysis.Marker.Data.Condition, 
TestParameter, AutoAnalysis.Marker.Data.Start, false
TestParameter, AutoAnalysis.Marker.Data.StartVar, 
TestParameter, AutoAnalysis.Marker.Data.StartCondition, 
MetaData, TestRecord.EntryPoint, true
MetaData, TestRecord.RecordTime, 05/27/2019 12:27:55
MetaData, TestRecord.TestTarget, 350-300-G44-2
MetaData, TestRecord.IterationIndex, 1
MetaData, TestRecord.Preservation, true
MetaData, TestRecord.Flag, 
MetaData, TestRecord.Remarks, MEH
MetaData, TestRecord.LinkKey, b1d1371a-f39a-4969-8019-19f6860afe00
Dimension1, 101, 101, 101, 101, 101, 101, 101, 101, 101, 101
Dimension2, 1, 1, 1, 1, 1, 1, 1, 1, 1, 1
DataName, VG, VD, VS, ID, IS, IG, absID, sqrtID, gm2, absIG
DataValue, -2, 3, 0, 4.0662500000000003E-10, -3.1217E-11, -3.3456700000000004E-10, 4.0662500000000003E-10, 2.0164944830075782E-05, 8.194615863458543E-10, 3.3456700000000004E-10
DataValue, -1.9500000000000002, 3, 0, 3.50949E-10, -5.1677E-11, -2.9125E-10, 3.50949E-10, 1.8733632856442982E-05, 3.6409901703801552E-10, 2.9125E-10
DataValue, -1.9000000000000001, 3, 0, 3.33311E-10, -7.2030000000000009E-11, -2.59786E-10, 3.33311E-10, 1.8256806949737953E-05, 1.844298843005613E-11, 2.59786E-10
DataValue, -1.85, 3, 0, 3.3504300000000004E-10, -9.7829E-11, -2.3953500000000004E-10, 3.3504300000000004E-10, 1.8304179850515021E-05, 1.5052680733496419E-11, 2.3953500000000004E-10
DataValue, -1.8, 3, 0, 3.47628E-10, -1.36613E-10, -2.2547900000000002E-10, 3.47628E-10, 1.8644784793609178E-05, 2.1343484402464749E-10, 2.2547900000000002E-10
DataValue, -1.75, 3, 0, 3.9066E-10, -1.8907200000000002E-10, -2.0772100000000002E-10, 3.9066E-10, 1.9765120793964303E-05, 5.7641099418642564E-10, 2.0772100000000002E-10
DataValue, -1.7000000000000002, 3, 0, 4.4291900000000005E-10, -2.6038000000000004E-10, -1.9844300000000002E-10, 4.4291900000000005E-10, 2.1045640878813837E-05, 1.0136587211395822E-09, 1.9844300000000002E-10
DataValue, -1.6500000000000001, 3, 0, 5.2665300000000006E-10, -3.5592500000000004E-10, -1.8116000000000002E-10, 5.2665300000000006E-10, 2.2948921543288261E-05, 1.6030176550383598E-09, 1.8116000000000002E-10
DataValue, -1.6, 3, 0, 6.27473E-10, -4.76553E-10, -1.6998100000000003E-10, 6.27473E-10, 2.5049411170724154E-05, 2.1570721711473709E-09, 1.6998100000000003E-10
DataValue, -1.55, 3, 0, 7.61393E-10, -6.2177E-10, -1.5861E-10, 7.61393E-10, 2.7593350648299311E-05, 2.7609071089070366E-09, 1.5861E-10
DataValue, -1.5, 3, 0, 9.1832300000000012E-10, -7.9452500000000011E-10, -1.4592E-10, 9.1832300000000012E-10, 3.030384464057325E-05, 3.5733708962287834E-09, 1.4592E-10
DataValue, -1.4500000000000002, 3, 0, 1.12702E-09, -1.0077220000000001E-09, -1.40599E-10, 1.12702E-09, 3.3571118539601862E-05, 4.2569637228797542E-09, 1.40599E-10
DataValue, -1.4000000000000001, 3, 0, 1.35633E-09, -1.26235E-09, -1.3635E-10, 1.35633E-09, 3.6828385791397377E-05, 4.2551425769874042E-09, 1.3635E-10
DataValue, -1.35, 3, 0, 1.60755E-09, -1.48406E-09, -1.28386E-10, 1.60755E-09, 4.0094263928896363E-05, 3.5242662933317682E-09, 1.28386E-10
DataValue, -1.3, 3, 0, 1.82884E-09, -1.72619E-09, -1.24695E-10, 1.82884E-09, 4.2764938910280232E-05, 3.4760972971049253E-09, 1.24695E-10
DataValue, -1.25, 3, 0, 2.11509E-09, -2.00216E-09, -1.19126E-10, 2.11509E-09, 4.5990107631967986E-05, 3.9822576869438763E-09, 1.19126E-10
DataValue, -1.2, 3, 0, 2.4084E-09, -2.2904E-09, -1.14069E-10, 2.4084E-09, 4.9075452112028473E-05, 3.8734238170877122E-09, 1.14069E-10
DataValue, -1.1500000000000001, 3, 0, 2.72628E-09, -2.6237E-09, -1.08948E-10, 2.72628E-09, 5.2213791281614474E-05, 4.1587884090719443E-09, 1.08948E-10
DataValue, -1.1, 3, 0, 3.08295E-09, -2.98701E-09, -1.0054500000000001E-10, 3.08295E-09, 5.5524318996274056E-05, 4.422183074697825E-09, 1.0054500000000001E-10
DataValue, -1.05, 3, 0, 3.46494E-09, -3.38089E-09, -9.5598000000000007E-11, 3.46494E-09, 5.8863740961648024E-05, 4.8493951482703649E-09, 9.5598000000000007E-11
DataValue, -1, 3, 0, 3.90476E-09, -3.82141E-09, -9.019E-11, 3.90476E-09, 6.2488078863091962E-05, 5.3338487845603949E-09, 9.019E-11
DataValue, -0.95000000000000007, 3, 0, 4.37808E-09, -4.29535E-09, -8.6694000000000008E-11, 4.37808E-09, 6.6167061291854274E-05, 5.6149182163312813E-09, 8.6694000000000008E-11
DataValue, -0.9, 3, 0, 4.89739E-09, -4.80473E-09, -8.1222000000000009E-11, 4.89739E-09, 6.9981354659652022E-05, 5.8029250161843661E-09, 8.1222000000000009E-11
DataValue, -0.85000000000000009, 3, 0, 5.44419E-09, -5.37374E-09, -7.8339E-11, 5.44419E-09, 7.3784754522868742E-05, 5.9477191483130639E-09, 7.8339E-11
DataValue, -0.8, 3, 0, 6.03628E-09, -5.95164E-09, -7.1517E-11, 6.03628E-09, 7.7693500371652711E-05, 6.5521689368307236E-09, 7.1517E-11
DataValue, -0.75, 3, 0, 6.70422E-09, -6.63607E-09, -6.8042000000000009E-11, 6.70422E-09, 8.1879301413727263E-05, 6.6725999299797438E-09, 6.8042000000000009E-11
DataValue, -0.70000000000000007, 3, 0, 7.3723E-09, -7.28653E-09, -6.3848E-11, 7.3723E-09, 8.5862098739781568E-05, 6.5823986229126229E-09, 6.3848E-11
DataValue, -0.65, 3, 0, 8.09865E-09, -8.0114E-09, -5.8301E-11, 8.09865E-09, 8.9992499687473949E-05, 6.8354950175122807E-09, 5.8301E-11
DataValue, -0.6, 3, 0, 8.86042E-09, -8.78704E-09, -5.2887000000000004E-11, 8.86042E-09, 9.4129803994271651E-05, 7.5975021648655479E-09, 5.2887000000000004E-11
DataValue, -0.55, 3, 0, 9.74344E-09, -9.67106E-09, -4.9043000000000006E-11, 9.74344E-09, 9.8708864850123772E-05, 8.0661156917305428E-09, 4.9043000000000006E-11
DataValue, -0.5, 3, 0, 1.063187E-08, -1.055255E-08, -4.5172E-11, 1.063187E-08, 0.00010311095965027191, 7.3576377844585212E-09, 4.5172E-11
DataValue, -0.45, 3, 0, 1.1510399999999999E-08, -1.1464699999999999E-08, -4.2939E-11, 1.1510399999999999E-08, 0.00010728653223960591, 8.7541639722080081E-09, 4.2939E-11
DataValue, -0.4, 3, 0, 1.26489E-08, -1.2582599999999999E-08, -3.8466E-11, 1.26489E-08, 0.00011246732858923963, 1.0313150510503175E-08, 3.8466E-11
DataValue, -0.35000000000000003, 3, 0, 1.3792599999999998E-08, -1.3660599999999999E-08, -3.5299E-11, 1.3792599999999998E-08, 0.000117441900529581, 9.8856056866206282E-09, 3.5299E-11
DataValue, -0.3, 3, 0, 1.4984199999999998E-08, -1.4874799999999998E-08, -3.1686E-11, 1.4984199999999998E-08, 0.00012240996691446329, 9.6417637067120036E-09, 3.1686E-11
DataValue, -0.25, 3, 0, 1.61954E-08, -1.6104499999999997E-08, -2.8649000000000004E-11, 1.61954E-08, 0.00012726114882398318, 9.7425134100024E-09, 2.8649000000000004E-11
DataValue, -0.2, 3, 0, 1.7498099999999998E-08, -1.73914E-08, -2.5091000000000003E-11, 1.7498099999999998E-08, 0.00013228038403331009, 1.0200373497648756E-08, 2.5091000000000003E-11
DataValue, -0.15, 3, 0, 1.8867999999999997E-08, -1.8741899999999998E-08, -2.232E-11, 1.8867999999999997E-08, 0.00013736083866954218, 1.0901495941607574E-08, 2.232E-11
DataValue, -0.1, 3, 0, 2.0369399999999997E-08, -2.02924E-08, -1.9150000000000003E-11, 2.0369399999999997E-08, 0.00014272140694373777, 1.0834550446440876E-08, 1.9150000000000003E-11
DataValue, -0.05, 3, 0, 2.18359E-08, -2.1747699999999998E-08, -1.6253000000000002E-11, 2.18359E-08, 0.00014776975333267631, 1.0350325826952663E-08, 1.6253000000000002E-11
DataValue, 0, 3, 0, 2.33769E-08, -2.3302399999999998E-08, -1.3555E-11, 2.33769E-08, 0.00015289506205237629, 1.2196240850668877E-08, 1.3555E-11
DataValue, 0.05, 3, 0, 2.5221699999999996E-08, -2.5106799999999997E-08, -1.1294000000000001E-11, 2.5221699999999996E-08, 0.00015881341253181356, 1.3062222396294757E-08, 1.1294000000000001E-11
DataValue, 0.1, 3, 0, 2.7002399999999998E-08, -2.6854299999999996E-08, -9.134E-12, 2.7002399999999998E-08, 0.00016432407005670228, 1.1502731254174534E-08, 9.134E-12
DataValue, 0.15, 3, 0, 2.8743299999999998E-08, -2.8564499999999997E-08, -6.755E-12, 2.8743299999999998E-08, 0.00016953849120479985, 1.1747147662205976E-08, 6.755E-12
DataValue, 0.2, 3, 0, 3.06819E-08, -3.05972E-08, -4.6840000000000006E-12, 3.06819E-08, 0.00017516249598587021, 1.2691253480591043E-08, 4.6840000000000006E-12
DataValue, 0.25, 3, 0, 3.2690099999999996E-08, -3.25651E-08, -3.2530000000000004E-12, 3.2690099999999996E-08, 0.00018080403756553666, 1.3262683931172787E-08, 3.2530000000000004E-12
DataValue, 0.3, 3, 0, 3.4848999999999997E-08, -3.46668E-08, -1.2770000000000001E-12, 3.4848999999999997E-08, 0.00018667886864881091, 1.3733983108956419E-08, 1.2770000000000001E-12
DataValue, 0.35000000000000003, 3, 0, 3.70652E-08, -3.6882E-08, 8.1000000000000008E-13, 3.70652E-08, 0.0001925232453497499, 1.4674262040975396E-08, 8.1000000000000008E-13
DataValue, 0.4, 3, 0, 3.95185E-08, -3.9339399999999994E-08, 1.9400000000000002E-12, 3.95185E-08, 0.00019879260549628098, 1.6083975419187022E-08, 1.9400000000000002E-12
DataValue, 0.45, 3, 0, 4.2109299999999993E-08, -4.1690799999999995E-08, 3.4990000000000003E-12, 4.2109299999999993E-08, 0.00020520550674872249, 1.4560829824481065E-08, 3.4990000000000003E-12
DataValue, 0.5, 3, 0, 4.4461699999999995E-08, -4.41907E-08, 4.428E-12, 4.4461699999999995E-08, 0.0002108594318497515, 1.3577027355337478E-08, 4.428E-12
DataValue, 0.55, 3, 0, 4.7027199999999992E-08, -4.6621999999999992E-08, 5.2200000000000008E-12, 4.7027199999999992E-08, 0.00021685755693542246, 1.4961705579767216E-08, 5.2200000000000008E-12
DataValue, 0.6, 3, 0, 4.9769699999999992E-08, -4.94564E-08, 6.1360000000000005E-12, 4.9769699999999992E-08, 0.00022309123694130164, 1.5169894689239506E-08, 6.1360000000000005E-12
DataValue, 0.65, 3, 0, 5.2520799999999993E-08, -5.2278099999999992E-08, 7.415000000000001E-12, 5.2520799999999993E-08, 0.00022917416957414724, 1.5768935561668956E-08, 7.415000000000001E-12
DataValue, 0.70000000000000007, 3, 0, 5.55303E-08, -5.52569E-08, 8.083000000000001E-12, 5.55303E-08, 0.00023564867918153074, 1.6748790358836567E-08, 8.083000000000001E-12
DataValue, 0.75, 3, 0, 5.86201E-08, -5.82067E-08, 8.6390000000000015E-12, 5.86201E-08, 0.00024211588134610251, 1.7762558579098608E-08, 8.6390000000000015E-12
DataValue, 0.8, 3, 0, 6.19892E-08, -6.15591E-08, 1.0038E-11, 6.19892E-08, 0.00024897630409338153, 1.8109623664521448E-08, 1.0038E-11
DataValue, 0.85000000000000009, 3, 0, 6.53176E-08, -6.4688499999999991E-08, 1.0468000000000001E-11, 6.53176E-08, 0.00025557308152463946, 1.773893350462399E-08, 1.0468000000000001E-11
DataValue, 0.9, 3, 0, 6.879869999999999E-08, -6.84287E-08, 1.1089E-11, 6.879869999999999E-08, 0.00026229506285860586, 1.813868463923713E-08, 1.1089E-11
DataValue, 0.95000000000000007, 3, 0, 7.23831E-08, -7.2042699999999989E-08, 1.1661E-11, 7.23831E-08, 0.00026904107493094803, 1.8874002033640385E-08, 1.1661E-11
DataValue, 1, 3, 0, 7.61944E-08, -7.59051E-08, 1.2321000000000001E-11, 7.61944E-08, 0.00027603333132069393, 2.0233710624109176E-08, 1.2321000000000001E-11
DataValue, 1.05, 3, 0, 8.023939999999999E-08, -7.98655E-08, 1.3381E-11, 8.023939999999999E-08, 0.00028326559974695126, 2.114235657473128E-08, 1.3381E-11
DataValue, 1.1, 3, 0, 8.4433099999999991E-08, -8.38683E-08, 1.3789000000000001E-11, 8.4433099999999991E-08, 0.00029057374279173949, 2.1728058496335876E-08, 1.3789000000000001E-11
DataValue, 1.1500000000000001, 3, 0, 8.8807599999999988E-08, -8.82213E-08, 1.3850000000000001E-11, 8.8807599999999988E-08, 0.00029800604020724142, 2.2175606274868474E-08, 1.3850000000000001E-11
DataValue, 1.2, 3, 0, 9.3308999999999992E-08, -9.2980999999999991E-08, 1.47E-11, 9.3308999999999992E-08, 0.00030546521896936151, 2.3243366846061506E-08, 1.47E-11
DataValue, 1.25, 3, 0, 9.8126699999999986E-08, -9.7905399999999984E-08, 1.5567E-11, 9.8126699999999986E-08, 0.00031325181563719625, 2.7820986445704664E-08, 1.5567E-11
DataValue, 1.3, 3, 0, 1.0377729999999999E-07, -1.0312179999999999E-07, 1.6043E-11, 1.0377729999999999E-07, 0.00032214484319945276, 1.8989647180787741E-08, 1.6043E-11
DataValue, 1.35, 3, 0, 1.0695E-07, -1.0572899999999999E-07, 1.4657E-11, 1.0695E-07, 0.00032703210851535664, 1.8299640008362822E-08, 1.4657E-11
DataValue, 1.4000000000000001, 3, 0, 1.12676E-07, -1.12189E-07, 1.5102000000000002E-11, 1.12676E-07, 0.0003356724594005293, 3.3265381133478429E-08, 1.5102000000000002E-11
DataValue, 1.4500000000000002, 3, 0, 1.19212E-07, -1.1844E-07, 1.6025E-11, 1.19212E-07, 0.00034527090812867508, 3.430270915880972E-08, 1.6025E-11
DataValue, 1.5, 3, 0, 1.25453E-07, -1.24746E-07, 1.6289E-11, 1.25453E-07, 0.0003541934499676695, 3.290851501035089E-08, 1.6289E-11
DataValue, 1.55, 3, 0, 1.32068E-07, -1.31298E-07, 1.7143E-11, 1.32068E-07, 0.00036341161236262112, 3.4896195374679131E-08, 1.7143E-11
DataValue, 1.6, 3, 0, 1.39035E-07, -1.38132E-07, 1.7367E-11, 1.39035E-07, 0.00037287397334756419, 3.3351277939321261E-08, 1.7367E-11
DataValue, 1.6500000000000001, 3, 0, 1.4567499999999999E-07, -1.45065E-07, 1.8179E-11, 1.4567499999999999E-07, 0.00038167394461765397, 3.6002070358022625E-08, 1.8179E-11
DataValue, 1.7000000000000002, 3, 0, 1.53545E-07, -1.5242199999999999E-07, 1.8707000000000003E-11, 1.53545E-07, 0.00039184818488797416, 4.0700179299104229E-08, 1.8707000000000003E-11
DataValue, 1.75, 3, 0, 1.61482E-07, -1.60584E-07, 1.9189E-11, 1.61482E-07, 0.00040184823005707019, 4.0727035123703384E-08, 1.9189E-11
DataValue, 1.8, 3, 0, 1.69768E-07, -1.68619E-07, 1.9451E-11, 1.69768E-07, 0.00041202912518413065, 4.0638039801262879E-08, 1.9451E-11
DataValue, 1.85, 3, 0, 1.7809E-07, -1.76991E-07, 1.9796E-11, 1.7809E-07, 0.00042200710894486128, 4.2502877918915476E-08, 1.9796E-11
DataValue, 1.9000000000000001, 3, 0, 1.87182E-07, -1.86026E-07, 2.0479E-11, 1.87182E-07, 0.000432645351298266, 4.4650086928447882E-08, 2.0479E-11
DataValue, 1.9500000000000002, 3, 0, 1.96371E-07, -1.9548799999999998E-07, 2.0641E-11, 1.96371E-07, 0.00044313767612334657, 4.7305602466420452E-08, 2.0641E-11
DataValue, 2, 3, 0, 2.06475E-07, -2.05343E-07, 2.0840000000000002E-11, 2.06475E-07, 0.0004543952024394624, 5.0251435528048791E-08, 2.0840000000000002E-11
DataValue, 2.05, 3, 0, 2.16741E-07, -2.15896E-07, 2.1060000000000003E-11, 2.16741E-07, 0.00046555450808686194, 5.312097461649701E-08, 2.1060000000000003E-11
DataValue, 2.1, 3, 0, 2.27952E-07, -2.27063E-07, 2.1402000000000003E-11, 2.27952E-07, 0.00047744319033786627, 5.6266049427885981E-08, 2.1402000000000003E-11
DataValue, 2.15, 3, 0, 2.3939E-07, -2.38103E-07, 2.2132000000000003E-11, 2.3939E-07, 0.00048927497381329448, 5.511677907645401E-08, 2.2132000000000003E-11
DataValue, 2.2, 3, 0, 2.50921E-07, -2.49749E-07, 2.2327000000000002E-11, 2.50921E-07, 0.0005009201533178716, 5.7912756681007E-08, 2.2327000000000002E-11
DataValue, 2.25, 3, 0, 2.63518E-07, -2.62413E-07, 2.2921000000000002E-11, 2.63518E-07, 0.00051334004324618977, 5.97858440792833E-08, 2.2921000000000002E-11
DataValue, 2.3000000000000003, 3, 0, 2.76015E-07, -2.7472999999999997E-07, 2.3541000000000002E-11, 2.76015E-07, 0.00052537129727460365, 6.05457731418592E-08, 2.3541000000000002E-11
