
SetupTitle, Transfer sat
PrimitiveTest, I/V Sweep
TestParameter, Context.MainFrame, 4155C
TestParameter, Channel.UnitType, SMU, SMU, SMU
TestParameter, Channel.Unit, SMU1:MP, SMU4:MP, SMU3:MP
TestParameter, Channel.IName, ID, IS, IG
TestParameter, Channel.VName, VD, VS, VG
TestParameter, Channel.Mode, V, COMMON, V
TestParameter, Channel.Func, CONST, CONST, VAR1
TestParameter, Channel.Index, 
TestParameter, Channel.Time, 
TestParameter, Measurement.Port.Unit, SMU1:MP, SMU4:MP, SMU3:MP
TestParameter, Measurement.Port.SeriesResistor, NONE, NONE, NONE
TestParameter, Measurement.Port.Filter, ON, ON, ON
TestParameter, Measurement.Primary.Locus, Double
TestParameter, Measurement.Primary.Scale, LINEAR
TestParameter, Measurement.Primary.Start, -2
TestParameter, Measurement.Primary.Stop, 3
TestParameter, Measurement.Primary.Step, 0.05
TestParameter, Measurement.Primary.Compliance, 0.001
TestParameter, Measurement.Primary.PowerCompliance, 0
TestParameter, Measurement.Aborting.Condition, CONTINUE AT ANY
TestParameter, Measurement.PostOutput.Value, START
TestParameter, Measurement.PostOutput.Retention, OFF
TestParameter, Measurement.Bias.Source, 5, 0, -2
TestParameter, Measurement.Bias.Compliance, 0.001, 0.1, 0.001
TestParameter, Measurement.Monitor.Unit, SMU1:MP, SMU4:MP, SMU3:MP
TestParameter, Measurement.Monitor.Adc, HR ADC, HR ADC, HR ADC
TestParameter, Measurement.Monitor.RangingMode, AUTO, AUTO, AUTO
TestParameter, Measurement.Monitor.RangeBoundary, , , 
TestParameter, Measurement.Monitor.RangeRating, BY FULL RANGE, BY FULL RANGE, BY FULL RANGE
TestParameter, Measurement.Monitor.RangeRatingCoeff, 50, 50, 50
TestParameter, Measurement.Timing.Hold, 0.5
TestParameter, Measurement.Timing.Delay, 0.05
TestParameter, Measurement.Adc.HighResolution.AutoZero, OFF
TestParameter, Measurement.Adc.HighResolution.Mode, AUTO
TestParameter, Measurement.Adc.HighResolution.Coeff, 1
TestParameter, Measurement.Ag16440ASelector.SemiconductorRelay.Channel1, DEFAULT
TestParameter, Measurement.Ag16440ASelector.SemiconductorRelay.Channel3, DEFAULT
TestParameter, Function.User.Name, absID, sqrtID, gm2, absIG
TestParameter, Function.User.Unit, A, A, A/V, A
TestParameter, Function.User.Definition, abs(ID), sqrt(abs(ID)), (delta(sqrtID)/delta(VG))^2, abs(IG)
TestParameter, Output.Graph.Enabled, true
TestParameter, Output.Graph.XAxis.Data, VG
TestParameter, Output.Graph.XAxis.Scale, Linear
TestParameter, Output.Graph.XAxis.Left, -5
TestParameter, Output.Graph.XAxis.Right, 7
TestParameter, Output.Graph.YAxis.Data, ID, absIG, gm2
TestParameter, Output.Graph.YAxis.Scale, Log, Log, Linear
TestParameter, Output.Graph.YAxis.Bottom, 1E-14, 1E-14, 0
TestParameter, Output.Graph.YAxis.Top, 0.01, 0.01, 1E-05
TestParameter, Output.Graph.YAxis.Group, , , 
TestParameter, Output.List.Data, VG, IG, VD, ID, VS, IS, sqrtID, gm2, absIG
TestParameter, AutoAnalysis.Interpolation, false
TestParameter, AutoAnalysis.Line1.Enabled, false
TestParameter, AutoAnalysis.Line1.Type, 1
TestParameter, AutoAnalysis.Line1.Fix, True
TestParameter, AutoAnalysis.Line1.YAxis, 0
TestParameter, AutoAnalysis.Line1.Point1.Type, 0
TestParameter, AutoAnalysis.Line1.Point1.XY.X, 
TestParameter, AutoAnalysis.Line1.Point1.XY.Y, 
TestParameter, AutoAnalysis.Line1.Point1.Data.Var, 
TestParameter, AutoAnalysis.Line1.Point1.Data.Condition, 
TestParameter, AutoAnalysis.Line1.Point1.Data.Start, false
TestParameter, AutoAnalysis.Line1.Point1.Data.StartVar, 
TestParameter, AutoAnalysis.Line1.Point1.Data.StartCondition, 
TestParameter, AutoAnalysis.Line1.Point2.Type, 0
TestParameter, AutoAnalysis.Line1.Point2.XY.X, 
TestParameter, AutoAnalysis.Line1.Point2.XY.Y, 
TestParameter, AutoAnalysis.Line1.Point2.Data.Var, 
TestParameter, AutoAnalysis.Line1.Point2.Data.Condition, 
TestParameter, AutoAnalysis.Line1.Point2.Data.Start, false
TestParameter, AutoAnalysis.Line1.Point2.Data.StartVar, 
TestParameter, AutoAnalysis.Line1.Point2.Data.StartCondition, 
TestParameter, AutoAnalysis.Line1.GradientExpr, 0
TestParameter, AutoAnalysis.Line2.Enabled, false
TestParameter, AutoAnalysis.Line2.Type, 1
TestParameter, AutoAnalysis.Line2.Fix, True
TestParameter, AutoAnalysis.Line2.YAxis, 0
TestParameter, AutoAnalysis.Line2.Point1.Type, 0
TestParameter, AutoAnalysis.Line2.Point1.XY.X, 
TestParameter, AutoAnalysis.Line2.Point1.XY.Y, 
TestParameter, AutoAnalysis.Line2.Point1.Data.Var, 
TestParameter, AutoAnalysis.Line2.Point1.Data.Condition, 
TestParameter, AutoAnalysis.Line2.Point1.Data.Start, false
TestParameter, AutoAnalysis.Line2.Point1.Data.StartVar, 
TestParameter, AutoAnalysis.Line2.Point1.Data.StartCondition, 
TestParameter, AutoAnalysis.Line2.Point2.Type, 0
TestParameter, AutoAnalysis.Line2.Point2.XY.X, 
TestParameter, AutoAnalysis.Line2.Point2.XY.Y, 
TestParameter, AutoAnalysis.Line2.Point2.Data.Var, 
TestParameter, AutoAnalysis.Line2.Point2.Data.Condition, 
TestParameter, AutoAnalysis.Line2.Point2.Data.Start, false
TestParameter, AutoAnalysis.Line2.Point2.Data.StartVar, 
TestParameter, AutoAnalysis.Line2.Point2.Data.StartCondition, 
TestParameter, AutoAnalysis.Line2.GradientExpr, 0
TestParameter, AutoAnalysis.Marker.Enabled, false
TestParameter, AutoAnalysis.Marker.Data.Var, 
TestParameter, AutoAnalysis.Marker.Data.Condition, 
TestParameter, AutoAnalysis.Marker.Data.Start, false
TestParameter, AutoAnalysis.Marker.Data.StartVar, 
TestParameter, AutoAnalysis.Marker.Data.StartCondition, 
MetaData, TestRecord.EntryPoint, true
MetaData, TestRecord.RecordTime, 04/23/2019 17:08:19
MetaData, TestRecord.TestTarget, 11
MetaData, TestRecord.IterationIndex, 1
MetaData, TestRecord.Preservation, true
MetaData, TestRecord.Flag, 
MetaData, TestRecord.Remarks, 150-300-G11
MetaData, TestRecord.LinkKey, 88282ebd-5be4-421f-b130-ed6a20470630
Dimension1, 202, 202, 202, 202, 202, 202, 202, 202, 202, 202
Dimension2, 1, 1, 1, 1, 1, 1, 1, 1, 1, 1
DataName, VG, VD, VS, ID, IS, IG, absID, sqrtID, gm2, absIG
DataValue, -2, 5, 0, 2.71878E-07, 2.95594E-06, -3.2772900000000005E-06, 2.71878E-07, 0.0005214192171372283, 2.8615686869173209E-07, 3.2772900000000005E-06
DataValue, -1.9500000000000002, 5, 0, 3.00486E-07, 3.0355700000000002E-06, -3.3732600000000005E-06, 3.00486E-07, 0.00054816603324175418, 2.5857174455748182E-07, 3.3732600000000005E-06
DataValue, -1.9000000000000001, 5, 0, 3.27492E-07, 3.0739200000000005E-06, -3.4270500000000005E-06, 3.27492E-07, 0.00057226916743784129, 1.9266029483892548E-07, 3.4270500000000005E-06
DataValue, -1.85, 5, 0, 3.50534E-07, 3.0488500000000005E-06, -3.4290900000000005E-06, 3.50534E-07, 0.00059205911866974908, 1.0395064795764871E-07, 3.4290900000000005E-06
DataValue, -1.8, 5, 0, 3.65433E-07, 3.0392300000000005E-06, -3.42064E-06, 3.65433E-07, 0.0006045105458137186, 4.3252802987398919E-08, 3.42064E-06
DataValue, -1.75, 5, 0, 3.7559299999999997E-07, 3.00496E-06, -3.3954700000000004E-06, 3.7559299999999997E-07, 0.00061285642690600865, 1.0461997241717178E-07, 3.3954700000000004E-06
DataValue, -1.7000000000000002, 5, 0, 4.05585E-07, 2.9602100000000003E-06, -3.3748200000000004E-06, 4.05585E-07, 0.00063685555662175073, 8.1963959338115226E-08, 3.3748200000000004E-06
DataValue, -1.6500000000000001, 5, 0, 4.11504E-07, 2.8888400000000004E-06, -3.3486100000000003E-06, 4.11504E-07, 0.00064148577536840209, 1.4322529376406426E-07, 3.3486100000000003E-06
DataValue, -1.6, 5, 0, 4.55221E-07, 2.8145800000000004E-06, -3.2920000000000004E-06, 4.55221E-07, 0.00067470067437345874, 1.2373947346886928E-07, 3.2920000000000004E-06
DataValue, -1.55, 5, 0, 4.57872E-07, 2.7474800000000002E-06, -3.2241800000000003E-06, 4.57872E-07, 0.000676662397359274, 1.6000502473826325E-08, 3.2241800000000003E-06
DataValue, -1.5, 5, 0, 4.7244999999999997E-07, 2.6820300000000003E-06, -3.1649000000000004E-06, 4.7244999999999997E-07, 0.00068734998363279237, 2.6145184343249646E-08, 3.1649000000000004E-06
DataValue, -1.4500000000000002, 5, 0, 4.80016E-07, 2.5860300000000003E-06, -3.08296E-06, 4.80016E-07, 0.0006928318699367113, 8.6928417792064658E-09, 3.08296E-06
DataValue, -1.4000000000000001, 5, 0, 4.8535399999999994E-07, 2.5054700000000004E-06, -3.0053300000000002E-06, 4.8535399999999994E-07, 0.00069667352468713779, 4.7741714312098547E-08, 3.0053300000000002E-06
DataValue, -1.35, 5, 0, 5.1077E-07, 2.39955E-06, -2.9095200000000004E-06, 5.1077E-07, 0.00071468174735332365, 5.1844171895362479E-08, 2.9095200000000004E-06
DataValue, -1.3, 5, 0, 5.17598E-07, 2.30551E-06, -2.8420400000000003E-06, 5.17598E-07, 0.0007194428399810509, 7.3100604012979481E-09, 2.8420400000000003E-06
DataValue, -1.25, 5, 0, 5.23064E-07, 2.20474E-06, -2.73296E-06, 5.23064E-07, 0.00072323163647617077, 2.8918339429613503E-08, 2.73296E-06
DataValue, -1.2, 5, 0, 5.4235599999999994E-07, 2.09628E-06, -2.6215500000000003E-06, 5.4235599999999994E-07, 0.00073644823307548232, 2.0972028633331256E-08, 2.6215500000000003E-06
DataValue, -1.1500000000000001, 5, 0, 5.44221E-07, 1.99892E-06, -2.5459300000000005E-06, 5.44221E-07, 0.00073771335896810218, 1.71187686148377E-08, 2.5459300000000005E-06
DataValue, -1.1, 5, 0, 5.23256E-07, 1.8985500000000002E-06, -2.43223E-06, 5.23256E-07, 0.00072336436185369262, 5.68220101880959E-09, 2.43223E-06
DataValue, -1.05, 5, 0, 5.33156E-07, 1.7926900000000002E-06, -2.32535E-06, 5.33156E-07, 0.00073017532141260433, 1.5379040175749273E-08, 2.32535E-06
DataValue, -1, 5, 0, 5.41351E-07, 1.6880900000000001E-06, -2.2202000000000004E-06, 5.41351E-07, 0.0007357655876704211, 2.0206716810793016E-08, 2.2202000000000004E-06
DataValue, -0.95000000000000007, 5, 0, 5.54117E-07, 1.5677300000000002E-06, -2.1301E-06, 5.54117E-07, 0.00074439035458554945, 1.1457835301742781E-10, 2.1301E-06
DataValue, -0.9, 5, 0, 5.39777E-07, 1.45257E-06, -1.99123E-06, 5.39777E-07, 0.00073469517488547584, 1.2199818646443202E-08, 1.99123E-06
DataValue, -0.85000000000000009, 5, 0, 5.37795E-07, 1.3510400000000001E-06, -1.8970700000000002E-06, 5.37795E-07, 0.00073334507566356509, 3.5003038765403758E-08, 1.8970700000000002E-06
DataValue, -0.8, 5, 0, 5.6761799999999994E-07, 1.2470500000000002E-06, -1.8187300000000003E-06, 5.6761799999999994E-07, 0.000753404273945934, 2.4575638075058252E-07, 1.8187300000000003E-06
DataValue, -0.75, 5, 0, 6.12962E-07, 1.14984E-06, -1.7378000000000001E-06, 6.12962E-07, 0.00078291889746001154, 3.53843263043609E-08, 1.7378000000000001E-06
DataValue, -0.70000000000000007, 5, 0, 5.96316E-07, 1.0457E-06, -1.6191400000000001E-06, 5.96316E-07, 0.00077221499596938673, 9.7219074644314049E-10, 1.6191400000000001E-06
DataValue, -0.65, 5, 0, 6.1785399999999994E-07, 9.47502E-07, -1.56896E-06, 6.1785399999999994E-07, 0.00078603689480837978, 3.43087983190737E-08, 1.56896E-06
DataValue, -0.6, 5, 0, 6.25266E-07, 8.50301E-07, -1.4682000000000002E-06, 6.25266E-07, 0.00079073763031741449, 3.6473509232839583E-10, 1.4682000000000002E-06
DataValue, -0.55, 5, 0, 6.2086E-07, 7.52618E-07, -1.3933800000000002E-06, 6.2086E-07, 0.00078794669870493146, 2.6411834875822638E-09, 1.3933800000000002E-06
DataValue, -0.5, 5, 0, 6.3342E-07, 6.5984299999999994E-07, -1.28313E-06, 6.3342E-07, 0.00079587687489962914, 6.6787670270232436E-09, 1.28313E-06
DataValue, -0.45, 5, 0, 6.08048E-07, 5.72135E-07, -1.20749E-06, 6.08048E-07, 0.00077977432632781645, 4.64516868608554E-08, 1.20749E-06
DataValue, -0.4, 5, 0, 5.99578E-07, 4.83485E-07, -1.0919500000000002E-06, 5.99578E-07, 0.000774324221498979, 2.92026697866015E-10, 1.0919500000000002E-06
DataValue, -0.35000000000000003, 5, 0, 6.10716E-07, 4.04371E-07, -1.00192E-06, 6.10716E-07, 0.00078148320519381607, 1.4477607644216096E-09, 1.00192E-06
DataValue, -0.3, 5, 0, 6.05485E-07, 3.24678E-07, -9.36141E-07, 6.05485E-07, 0.000778129166655511, 1.092080569505338E-09, 9.36141E-07
DataValue, -0.25, 5, 0, 6.15892E-07, 2.5262099999999997E-07, -8.58435E-07, 6.15892E-07, 0.00078478786942714649, 7.20660201172363E-10, 8.58435E-07
DataValue, -0.2, 5, 0, 6.0967E-07, 1.84707E-07, -7.89279E-07, 6.0967E-07, 0.00078081367815888061, 3.4682097081902111E-11, 7.89279E-07
DataValue, -0.15, 5, 0, 6.14968E-07, 1.2475799999999999E-07, -7.35517E-07, 6.14968E-07, 0.0007841989543476834, 8.709807548088904E-09, 7.35517E-07
DataValue, -0.1, 5, 0, 5.95183E-07, 6.9708199999999989E-08, -6.67446E-07, 5.95183E-07, 0.000771481043189008, 6.5532654317850042E-09, 6.67446E-07
DataValue, -0.05, 5, 0, 6.02337E-07, 2.89967E-08, -6.3818299999999994E-07, 6.02337E-07, 0.00077610373018044442, 2.5303405190555604E-08, 6.3818299999999994E-07
DataValue, 0, 5, 0, 6.1998E-07, -4.13216E-10, -6.26197E-07, 6.1998E-07, 0.00078738808728606, 6.1643437417287776E-10, 6.26197E-07
DataValue, 0.05, 5, 0, 6.06197E-07, -1.5899E-08, -6.08425E-07, 6.06197E-07, 0.00077858653982714084, 2.4988133017962428E-09, 6.08425E-07
DataValue, 0.1, 5, 0, 6.27877E-07, -2.7496199999999998E-08, -5.95927E-07, 6.27877E-07, 0.00079238690044699752, 1.5315380684831197E-08, 5.95927E-07
DataValue, 0.15, 5, 0, 6.2562099999999993E-07, -3.6817699999999996E-08, -5.87141E-07, 6.2562099999999993E-07, 0.000790962072415612, 9.2589750575483238E-11, 5.87141E-07
DataValue, 0.2, 5, 0, 6.26353E-07, -4.8716799999999995E-08, -5.9913199999999994E-07, 6.26353E-07, 0.00079142466476601555, 8.7832151645773466E-08, 5.9913199999999994E-07
DataValue, 0.25, 5, 0, 6.73382E-07, -6.5731699999999993E-08, -5.93189E-07, 6.73382E-07, 0.00082059856202652468, 1.2437139963798152E-07, 5.93189E-07
DataValue, 0.3, 5, 0, 6.83418E-07, -8.83079E-08, -5.88778E-07, 6.83418E-07, 0.00082669099426569293, 1.7373036781746564E-07, 5.88778E-07
DataValue, 0.35000000000000003, 5, 0, 7.43526E-07, -1.2898299999999998E-07, -5.95215E-07, 7.43526E-07, 0.000862279537041208, 6.1950936744337161E-07, 5.95215E-07
DataValue, 0.4, 5, 0, 8.1974899999999994E-07, -2.00845E-07, -5.95205E-07, 8.1974899999999994E-07, 0.00090539991164125921, 7.4164108738820482E-07, 5.95205E-07
DataValue, 0.45, 5, 0, 8.99459E-07, -2.96967E-07, -5.95174E-07, 8.99459E-07, 0.00094839812315292984, 1.3372326326752272E-06, 5.95174E-07
DataValue, 0.5, 5, 0, 1.04252E-06, -4.11206E-07, -6.24987E-07, 1.04252E-06, 0.0010210386868282711, 1.8437184924480918E-06, 6.24987E-07
DataValue, 0.55, 5, 0, 1.1754500000000001E-06, -5.69888E-07, -5.99745E-07, 1.1754500000000001E-06, 0.0010841817190858736, 1.9827168737833066E-06, 5.99745E-07
DataValue, 0.6, 5, 0, 1.3498900000000001E-06, -7.63857E-07, -5.75503E-07, 1.3498900000000001E-06, 0.0011618476664348042, 2.6860849210118947E-06, 5.75503E-07
DataValue, 0.65, 5, 0, 1.55769E-06, -9.9836E-07, -5.63361E-07, 1.55769E-06, 0.0012480745170060962, 3.4122235588937979E-06, 5.63361E-07
DataValue, 0.70000000000000007, 5, 0, 1.8132500000000002E-06, -1.2419700000000002E-06, -5.50408E-07, 1.8132500000000002E-06, 0.0013465697159820579, 4.2017163032121033E-06, 5.50408E-07
DataValue, 0.75, 5, 0, 2.1113700000000003E-06, -1.5635800000000002E-06, -5.15956E-07, 2.1113700000000003E-06, 0.0014530554015590735, 4.6719036748585438E-06, 5.15956E-07
DataValue, 0.8, 5, 0, 2.44208E-06, -1.9307100000000003E-06, -5.05401E-07, 2.44208E-06, 0.001562715585127377, 5.3954630222410759E-06, 5.05401E-07
DataValue, 0.85000000000000009, 5, 0, 2.84036E-06, -2.33982E-06, -5.04906E-07, 2.84036E-06, 0.0016853367615998888, 6.43279975201088E-06, 5.04906E-07
DataValue, 0.9, 5, 0, 3.29911E-06, -2.8014000000000004E-06, -4.6602899999999997E-07, 3.29911E-06, 0.0018163452315019851, 6.8758340188523776E-06, 4.6602899999999997E-07
DataValue, 0.95000000000000007, 5, 0, 3.7929700000000004E-06, -3.31746E-06, -4.3425399999999997E-07, 3.7929700000000004E-06, 0.0019475548772756059, 6.8978557737515876E-06, 4.3425399999999997E-07
DataValue, 1, 5, 0, 4.32217E-06, -3.89172E-06, -3.95722E-07, 4.32217E-06, 0.0020789829244128007, 7.8868115099365742E-06, 3.95722E-07
DataValue, 1.05, 5, 0, 4.96572E-06, -4.53186E-06, -3.99795E-07, 4.96572E-06, 0.0022283895530180536, 8.8155899475285181E-06, 3.99795E-07
DataValue, 1.1, 5, 0, 5.64487E-06, -5.2372400000000007E-06, -3.57814E-07, 5.64487E-06, 0.0023758935161324046, 9.1088109742250839E-06, 3.57814E-07
DataValue, 1.1500000000000001, 5, 0, 6.4019000000000005E-06, -6.0205300000000006E-06, -3.40908E-07, 6.4019000000000005E-06, 0.0025301976207403247, 9.9277927954058587E-06, 3.40908E-07
DataValue, 1.2, 5, 0, 7.24136E-06, -6.87178E-06, -3.07978E-07, 7.24136E-06, 0.002690977517557514, 1.0115306570935491E-05, 3.07978E-07
DataValue, 1.25, 5, 0, 8.11249E-06, -7.79947E-06, -2.66553E-07, 8.11249E-06, 0.0028482433182577642, 1.0723384351848119E-05, 2.66553E-07
DataValue, 1.3, 5, 0, 9.1110000000000014E-06, -8.82468E-06, -2.19256E-07, 9.1110000000000014E-06, 0.0030184433074020127, 1.164657257028247E-05, 2.19256E-07
DataValue, 1.35, 5, 0, 1.0173E-05, -9.944450000000001E-06, -1.74454E-07, 1.0173E-05, 0.0031895140695723545, 1.1210694773204612E-05, 1.74454E-07
DataValue, 1.4000000000000001, 5, 0, 1.12444E-05, -1.1032400000000001E-05, -1.40068E-07, 1.12444E-05, 0.0033532670636261586, 1.1961231011057717E-05, 1.40068E-07
DataValue, 1.4500000000000002, 5, 0, 1.24988E-05, -1.2274E-05, -9.510009999999999E-08, 1.24988E-05, 0.0035353641962321222, 1.3254746981114283E-05, 9.510009999999999E-08
DataValue, 1.5, 5, 0, 1.38186E-05, -1.37092E-05, -4.51275E-08, 1.38186E-05, 0.0037173377570514088, 1.4397549918896537E-05, 4.51275E-08
DataValue, 1.55, 5, 0, 1.53257E-05, -1.5204400000000001E-05, -3.81781E-08, 1.53257E-05, 0.0039148052314259517, 1.4208281055426958E-05, 3.81781E-08
DataValue, 1.6, 5, 0, 1.6763100000000002E-05, -1.67122E-05, 1.3418499999999999E-08, 1.6763100000000002E-05, 0.0040942764928617124, 1.3585215942727312E-05, 1.3418499999999999E-08
DataValue, 1.6500000000000001, 5, 0, 1.83474E-05, -1.8346800000000002E-05, 8.24213E-08, 1.83474E-05, 0.0042833865106945458, 1.4418349156245303E-05, 8.24213E-08
DataValue, 1.7000000000000002, 5, 0, 2.00166E-05, -2.01319E-05, 1.61026E-07, 2.00166E-05, 0.0044739915064738334, 1.5836322267102007E-05, 1.61026E-07
DataValue, 1.75, 5, 0, 2.19149E-05, -2.21038E-05, 2.71567E-07, 2.19149E-05, 0.0046813352795970513, 1.7870224896047887E-05, 2.71567E-07
DataValue, 1.8, 5, 0, 2.39779E-05, -2.4263200000000002E-05, 3.76147E-07, 2.39779E-05, 0.004896723394270908, 1.8744452401022414E-05, 3.76147E-07
DataValue, 1.85, 5, 0, 2.61559E-05, -2.6559E-05, 5.07337E-07, 2.61559E-05, 0.0051142839185950558, 1.895535718595655E-05, 5.07337E-07
DataValue, 1.9000000000000001, 5, 0, 2.84313E-05, -2.89353E-05, 5.9555E-07, 2.84313E-05, 0.0053321008992703806, 1.8954243849027574E-05, 5.9555E-07
DataValue, 1.9500000000000002, 5, 0, 3.07986E-05, -3.14268E-05, 7.13304E-07, 3.07986E-05, 0.0055496486375265237, 1.9188465953972868E-05, 7.13304E-07
DataValue, 2, 5, 0, 3.32946E-05, -3.4031E-05, 8.25474E-07, 3.32946E-05, 0.0057701473118110247, 1.9393137733856752E-05, 8.25474E-07
DataValue, 2.05, 5, 0, 3.58804E-05, -3.67755E-05, 9.63838E-07, 3.58804E-05, 0.0059900250416838833, 1.8912314165431115E-05, 9.63838E-07
DataValue, 2.1, 5, 0, 3.85024E-05, -3.95375E-05, 1.1062800000000002E-06, 3.85024E-05, 0.0062050302174929007, 1.8949273667862288E-05, 1.1062800000000002E-06
DataValue, 2.15, 5, 0, 4.12849E-05, -4.2485300000000005E-05, 1.2643700000000001E-06, 4.12849E-05, 0.0064253326762121823, 1.9809179553211739E-05, 1.2643700000000001E-06
DataValue, 2.2, 5, 0, 4.42239E-05, -4.5576E-05, 1.4137700000000002E-06, 4.42239E-05, 0.0066501052623248007, 2.0178067160563788E-05, 1.4137700000000002E-06
DataValue, 2.25, 5, 0, 4.72592E-05, -4.87939E-05, 1.5868600000000002E-06, 4.72592E-05, 0.0068745327113920989, 2.0309016365720524E-05, 1.5868600000000002E-06
DataValue, 2.3000000000000003, 5, 0, 5.0420800000000004E-05, -5.21327E-05, 1.7734800000000001E-06, 5.0420800000000004E-05, 0.0071007605226482608, 2.0384267975409234E-05, 1.7734800000000001E-06
DataValue, 2.35, 5, 0, 5.36706E-05, -5.55621E-05, 1.93047E-06, 5.36706E-05, 0.00732602211298874, 2.0588130015990084E-05, 1.93047E-06
DataValue, 2.4, 5, 0, 5.70705E-05, -5.91279E-05, 2.12735E-06, 5.70705E-05, 0.0075545019690248282, 2.0738739840106385E-05, 2.12735E-06
DataValue, 2.45, 5, 0, 6.05505E-05, -6.28257E-05, 2.3331E-06, 6.05505E-05, 0.0077814201788619537, 2.06251861786213E-05, 2.3331E-06
