
SetupTitle, Transfer stab
PrimitiveTest, I/V Sweep
TestParameter, Context.MainFrame, 4155C
TestParameter, Channel.UnitType, SMU, SMU, SMU
TestParameter, Channel.Unit, SMU1:MP, SMU4:MP, SMU3:MP
TestParameter, Channel.IName, ID, IS, IG
TestParameter, Channel.VName, VD, VS, VG
TestParameter, Channel.Mode, V, COMMON, V
TestParameter, Channel.Func, CONST, CONST, VAR1
TestParameter, Channel.Index, 
TestParameter, Channel.Time, 
TestParameter, Measurement.Port.Unit, SMU1:MP, SMU4:MP, SMU3:MP
TestParameter, Measurement.Port.SeriesResistor, NONE, NONE, NONE
TestParameter, Measurement.Port.Filter, ON, ON, ON
TestParameter, Measurement.Primary.Locus, Single
TestParameter, Measurement.Primary.Scale, LINEAR
TestParameter, Measurement.Primary.Start, -2
TestParameter, Measurement.Primary.Stop, 3
TestParameter, Measurement.Primary.Step, 0.05
TestParameter, Measurement.Primary.Compliance, 0.1
TestParameter, Measurement.Primary.PowerCompliance, 0
TestParameter, Measurement.Aborting.Condition, CONTINUE AT ANY
TestParameter, Measurement.PostOutput.Value, START
TestParameter, Measurement.PostOutput.Retention, OFF
TestParameter, Measurement.Bias.Source, 3, 0, -2
TestParameter, Measurement.Bias.Compliance, 0.1, 0.1, 0.1
TestParameter, Measurement.Monitor.Unit, SMU1:MP, SMU4:MP, SMU3:MP
TestParameter, Measurement.Monitor.Adc, HR ADC, HR ADC, HR ADC
TestParameter, Measurement.Monitor.RangingMode, AUTO, AUTO, AUTO
TestParameter, Measurement.Monitor.RangeBoundary, , , 
TestParameter, Measurement.Monitor.RangeRating, BY FULL RANGE, BY FULL RANGE, BY FULL RANGE
TestParameter, Measurement.Monitor.RangeRatingCoeff, 50, 50, 50
TestParameter, Measurement.Timing.Hold, 0.5
TestParameter, Measurement.Timing.Delay, 0.05
TestParameter, Measurement.Adc.HighResolution.AutoZero, OFF
TestParameter, Measurement.Adc.HighResolution.Mode, AUTO
TestParameter, Measurement.Adc.HighResolution.Coeff, 1
TestParameter, Measurement.Ag16440ASelector.SemiconductorRelay.Channel1, DEFAULT
TestParameter, Measurement.Ag16440ASelector.SemiconductorRelay.Channel3, DEFAULT
TestParameter, Function.User.Name, absID, sqrtID, gm2, absIG
TestParameter, Function.User.Unit, A, A, A/V, A
TestParameter, Function.User.Definition, abs(ID), sqrt(abs(ID)), (delta(sqrtID)/delta(VG))^2, abs(IG)
TestParameter, Output.Graph.Enabled, true
TestParameter, Output.Graph.XAxis.Data, VG
TestParameter, Output.Graph.XAxis.Scale, Linear
TestParameter, Output.Graph.XAxis.Left, -5
TestParameter, Output.Graph.XAxis.Right, 7
TestParameter, Output.Graph.YAxis.Data, ID, absIG, gm2
TestParameter, Output.Graph.YAxis.Scale, Log, Log, Linear
TestParameter, Output.Graph.YAxis.Bottom, 1E-14, 1E-14, 0
TestParameter, Output.Graph.YAxis.Top, 0.01, 0.01, 1E-05
TestParameter, Output.Graph.YAxis.Group, , , 
TestParameter, Output.List.Data, VG, IG, VD, ID, VS, IS, sqrtID, gm2, absIG
TestParameter, AutoAnalysis.Interpolation, false
TestParameter, AutoAnalysis.Line1.Enabled, false
TestParameter, AutoAnalysis.Line1.Type, 1
TestParameter, AutoAnalysis.Line1.Fix, True
TestParameter, AutoAnalysis.Line1.YAxis, 0
TestParameter, AutoAnalysis.Line1.Point1.Type, 0
TestParameter, AutoAnalysis.Line1.Point1.XY.X, 
TestParameter, AutoAnalysis.Line1.Point1.XY.Y, 
TestParameter, AutoAnalysis.Line1.Point1.Data.Var, 
TestParameter, AutoAnalysis.Line1.Point1.Data.Condition, 
TestParameter, AutoAnalysis.Line1.Point1.Data.Start, false
TestParameter, AutoAnalysis.Line1.Point1.Data.StartVar, 
TestParameter, AutoAnalysis.Line1.Point1.Data.StartCondition, 
TestParameter, AutoAnalysis.Line1.Point2.Type, 0
TestParameter, AutoAnalysis.Line1.Point2.XY.X, 
TestParameter, AutoAnalysis.Line1.Point2.XY.Y, 
TestParameter, AutoAnalysis.Line1.Point2.Data.Var, 
TestParameter, AutoAnalysis.Line1.Point2.Data.Condition, 
TestParameter, AutoAnalysis.Line1.Point2.Data.Start, false
TestParameter, AutoAnalysis.Line1.Point2.Data.StartVar, 
TestParameter, AutoAnalysis.Line1.Point2.Data.StartCondition, 
TestParameter, AutoAnalysis.Line1.GradientExpr, 0
TestParameter, AutoAnalysis.Line2.Enabled, false
TestParameter, AutoAnalysis.Line2.Type, 1
TestParameter, AutoAnalysis.Line2.Fix, True
TestParameter, AutoAnalysis.Line2.YAxis, 0
TestParameter, AutoAnalysis.Line2.Point1.Type, 0
TestParameter, AutoAnalysis.Line2.Point1.XY.X, 
TestParameter, AutoAnalysis.Line2.Point1.XY.Y, 
TestParameter, AutoAnalysis.Line2.Point1.Data.Var, 
TestParameter, AutoAnalysis.Line2.Point1.Data.Condition, 
TestParameter, AutoAnalysis.Line2.Point1.Data.Start, false
TestParameter, AutoAnalysis.Line2.Point1.Data.StartVar, 
TestParameter, AutoAnalysis.Line2.Point1.Data.StartCondition, 
TestParameter, AutoAnalysis.Line2.Point2.Type, 0
TestParameter, AutoAnalysis.Line2.Point2.XY.X, 
TestParameter, AutoAnalysis.Line2.Point2.XY.Y, 
TestParameter, AutoAnalysis.Line2.Point2.Data.Var, 
TestParameter, AutoAnalysis.Line2.Point2.Data.Condition, 
TestParameter, AutoAnalysis.Line2.Point2.Data.Start, false
TestParameter, AutoAnalysis.Line2.Point2.Data.StartVar, 
TestParameter, AutoAnalysis.Line2.Point2.Data.StartCondition, 
TestParameter, AutoAnalysis.Line2.GradientExpr, 0
TestParameter, AutoAnalysis.Marker.Enabled, false
TestParameter, AutoAnalysis.Marker.Data.Var, 
TestParameter, AutoAnalysis.Marker.Data.Condition, 
TestParameter, AutoAnalysis.Marker.Data.Start, false
TestParameter, AutoAnalysis.Marker.Data.StartVar, 
TestParameter, AutoAnalysis.Marker.Data.StartCondition, 
MetaData, TestRecord.EntryPoint, true
MetaData, TestRecord.RecordTime, 04/24/2019 16:10:32
MetaData, TestRecord.TestTarget, 33
MetaData, TestRecord.IterationIndex, 1
MetaData, TestRecord.Preservation, true
MetaData, TestRecord.Flag, 
MetaData, TestRecord.Remarks, 350-180-G33 redone
MetaData, TestRecord.LinkKey, d2c2c114-4097-4833-99b9-f6bcee848a45
Dimension1, 101, 101, 101, 101, 101, 101, 101, 101, 101, 101
Dimension2, 1, 1, 1, 1, 1, 1, 1, 1, 1, 1
DataName, VG, VD, VS, ID, IS, IG, absID, sqrtID, gm2, absIG
DataValue, -2, 3, 0, 3.2428799999999995E-08, 1.8240000000000003E-12, -3.0479099999999997E-08, 3.2428799999999995E-08, 0.00018007998223011905, 1.0766202248453823E-08, 3.0479099999999997E-08
DataValue, -1.9500000000000002, 3, 0, 3.05872E-08, -2.24E-13, -6.2120999999999991E-08, 3.05872E-08, 0.00017489196665370312, 2.3080466575311606E-07, 6.2120999999999991E-08
DataValue, -1.9000000000000001, 3, 0, 5.2039699999999992E-08, -4.01E-13, -4.8824999999999995E-08, 5.2039699999999992E-08, 0.00022812211642013141, 1.6497567639972398E-07, 4.8824999999999995E-08
DataValue, -1.85, 3, 0, 4.6444199999999993E-08, 2.7500000000000004E-13, -5.2283899999999995E-08, 4.6444199999999993E-08, 0.00021550916453830912, 7.2227922868047793E-08, 5.2283899999999995E-08
DataValue, -1.8, 3, 0, 4.0500299999999995E-08, -6.4700000000000007E-13, -4.9668999999999993E-08, 4.0500299999999995E-08, 0.00020124686332959328, 1.4931877582362411E-09, 4.9668999999999993E-08
DataValue, -1.75, 3, 0, 4.4793599999999996E-08, -2.347E-12, -3.66004E-08, 4.4793599999999996E-08, 0.00021164498576625905, 1.1718495986685317E-11, 3.66004E-08
DataValue, -1.7000000000000002, 3, 0, 4.0638199999999994E-08, -1.4010000000000002E-12, -3.48008E-08, 4.0638199999999994E-08, 0.00020158918621791198, 6.122362092062005E-08, 3.48008E-08
DataValue, -1.6500000000000001, 3, 0, 3.4932199999999996E-08, 1.8570000000000003E-12, -3.54423E-08, 3.4932199999999996E-08, 0.00018690157837749792, 3.6871361269318234E-09, 3.54423E-08
DataValue, -1.6, 3, 0, 3.82269E-08, 3.5870000000000004E-12, -3.1413299999999994E-08, 3.82269E-08, 0.00019551700693290085, 8.36156512119177E-09, 3.1413299999999994E-08
DataValue, -1.55, 3, 0, 3.15977E-08, -1.364E-12, -3.5549699999999994E-08, 3.15977E-08, 0.0001777574189731613, 2.5365785238620187E-08, 3.5549699999999994E-08
DataValue, -1.5, 3, 0, 3.2252699999999995E-08, -1.6300000000000001E-12, -3.03729E-08, 3.2252699999999995E-08, 0.00017959036722497117, 3.9963328227935178E-10, 3.03729E-08
DataValue, -1.4500000000000002, 3, 0, 3.23124E-08, 1.021E-12, -3.1906499999999995E-08, 3.23124E-08, 0.00017975650196863535, 4.5988922436448176E-09, 3.1906499999999995E-08
DataValue, -1.4000000000000001, 3, 0, 2.9862899999999995E-08, 8.9700000000000012E-13, -3.09887E-08, 2.9862899999999995E-08, 0.00017280885393983723, 8.84448728035621E-09, 3.09887E-08
DataValue, -1.35, 3, 0, 2.9019799999999997E-08, 2.1000000000000002E-14, -2.8529199999999998E-08, 2.9019799999999997E-08, 0.00017035198854137277, 2.1461990888835826E-11, 2.8529199999999998E-08
DataValue, -1.3, 3, 0, 2.9702999999999998E-08, 1.1980000000000002E-12, -2.87211E-08, 2.9702999999999998E-08, 0.00017234558305915471, 6.3051130064121938E-09, 2.87211E-08
DataValue, -1.25, 3, 0, 2.6377499999999996E-08, -6.83E-13, -2.8630399999999997E-08, 2.6377499999999996E-08, 0.00016241151437013324, 3.1797808041139867E-09, 2.8630399999999997E-08
DataValue, -1.2, 3, 0, 2.7791099999999996E-08, -1.623E-12, -2.7340599999999998E-08, 2.7791099999999996E-08, 0.00016670662854247878, 1.2968187905488017E-08, 2.7340599999999998E-08
DataValue, -1.1500000000000001, 3, 0, 3.02062E-08, 1.7960000000000002E-12, -2.6150799999999996E-08, 3.02062E-08, 0.00017379930954983681, 9.6974173827421659E-11, 2.6150799999999996E-08
DataValue, -1.1, 3, 0, 2.8120399999999998E-08, -3.77E-13, -2.6325699999999997E-08, 2.8120399999999998E-08, 0.00016769138320140364, 3.1308530617445959E-08, 2.6325699999999997E-08
DataValue, -1.05, 3, 0, 2.4368799999999997E-08, -1.2290000000000001E-12, -2.2243099999999998E-08, 2.4368799999999997E-08, 0.00015610509280609649, 1.9984083064238379E-08, 2.2243099999999998E-08
DataValue, -1, 3, 0, 2.3579099999999998E-08, -6.5100000000000005E-13, -2.4405099999999998E-08, 2.3579099999999998E-08, 0.00015355487618437909, 6.2636735831057153E-09, 2.4405099999999998E-08
DataValue, -0.95000000000000007, 3, 0, 2.1960499999999997E-08, -4.68E-13, -2.31866E-08, 2.1960499999999997E-08, 0.00014819075544716004, 2.496378670795374E-09, 2.31866E-08
DataValue, -0.9, 3, 0, 2.5138499999999997E-08, 5.57E-13, -2.4138899999999997E-08, 2.5138499999999997E-08, 0.00015855125354282128, 8.9182204466519954E-11, 2.4138899999999997E-08
DataValue, -0.85000000000000009, 3, 0, 2.1681499999999998E-08, 3.5600000000000005E-13, -2.19732E-08, 2.1681499999999998E-08, 0.00014724639214595378, 7.8527503326062908E-09, 2.19732E-08
DataValue, -0.8, 3, 0, 2.2406999999999997E-08, -6.1900000000000009E-13, -2.1522099999999998E-08, 2.2406999999999997E-08, 0.00014968967900292924, 1.3082746623910476E-09, 2.1522099999999998E-08
DataValue, -0.75, 3, 0, 2.0629399999999997E-08, 1.078E-12, -2.06727E-08, 2.0629399999999997E-08, 0.00014362938418025748, 1.1450007510123639E-08, 2.06727E-08
DataValue, -0.70000000000000007, 3, 0, 1.9317999999999998E-08, -1.58E-13, -1.88317E-08, 1.9317999999999998E-08, 0.00013898920821416315, 1.0215221478949077E-09, 1.88317E-08
DataValue, -0.65, 3, 0, 1.97215E-08, 2.72E-13, -2.07493E-08, 1.97215E-08, 0.00014043325816913885, 6.2112477443445459E-11, 2.07493E-08
DataValue, -0.6, 3, 0, 1.95377E-08, 9.97E-13, -2.0047799999999998E-08, 1.95377E-08, 0.00013977732291040631, 1.6557086428515652E-09, 2.0047799999999998E-08
DataValue, -0.55, 3, 0, 1.85952E-08, 7.72E-13, -1.85977E-08, 1.85952E-08, 0.00013636421818057697, 3.4210612229504385E-09, 1.85977E-08
DataValue, -0.5, 3, 0, 1.79368E-08, 1.52E-13, -1.5641499999999998E-08, 1.79368E-08, 0.00013392833904741743, 1.3258851806360965E-08, 1.5641499999999998E-08
DataValue, -0.45, 3, 0, 1.5587399999999998E-08, -2.064E-12, -1.5536299999999997E-08, 1.5587399999999998E-08, 0.00012484950941032968, 2.2225361292321209E-08, 1.5536299999999997E-08
DataValue, -0.4, 3, 0, 1.4165799999999998E-08, -1.2570000000000002E-12, -1.36886E-08, 1.4165799999999998E-08, 0.00011902016635847892, 1.8981453894285647E-09, 1.36886E-08
DataValue, -0.35000000000000003, 3, 0, 1.4518499999999999E-08, -1.001E-12, -1.4042999999999999E-08, 1.4518499999999999E-08, 0.00012049273837040968, 1.04051730548899E-08, 1.4042999999999999E-08
DataValue, -0.3, 3, 0, 1.6698E-08, -1.64E-12, -1.62027E-08, 1.6698E-08, 0.00012922074136917803, 4.2420958801301131E-10, 1.62027E-08
DataValue, -0.25, 3, 0, 1.40264E-08, -2.1500000000000002E-13, -1.54768E-08, 1.40264E-08, 0.00011843310348040366, 1.5470712866568471E-10, 1.54768E-08
DataValue, -0.2, 3, 0, 1.7020999999999997E-08, -6.58E-13, -1.54011E-08, 1.7020999999999997E-08, 0.00013046455457326329, 7.8580763292762374E-09, 1.54011E-08
DataValue, -0.15, 3, 0, 1.62047E-08, -1.138E-12, -1.6844899999999998E-08, 1.62047E-08, 0.00012729768261834148, 5.2628803463077309E-09, 1.6844899999999998E-08
DataValue, -0.1, 3, 0, 1.51807E-08, -4.0600000000000004E-13, -1.8452599999999998E-08, 1.51807E-08, 0.00012320998336173898, 3.9874500930958352E-09, 1.8452599999999998E-08
DataValue, -0.05, 3, 0, 1.4636899999999999E-08, -9.59E-13, -1.4935599999999997E-08, 1.4636899999999999E-08, 0.00012098305666497271, 1.8431148713135775E-10, 1.4935599999999997E-08
DataValue, 0, 3, 0, 1.4847999999999998E-08, -4.291E-12, -1.66517E-08, 1.4847999999999998E-08, 0.00012185236969382252, 2.2327077562311312E-09, 1.66517E-08
DataValue, 0.05, 3, 0, 1.3515899999999998E-08, -1.9502E-11, -1.1244899999999999E-08, 1.3515899999999998E-08, 0.00011625790295717533, 1.4766790385139343E-08, 1.1244899999999999E-08
DataValue, 0.1, 3, 0, 1.20342E-08, -6.8115E-11, -1.12212E-08, 1.20342E-08, 0.00010970050136621983, 8.2271969690701467E-10, 1.12212E-08
DataValue, 0.15, 3, 0, 1.2857199999999998E-08, -2.2170600000000002E-10, -1.2999499999999998E-08, 1.2857199999999998E-08, 0.00011338959387880352, 6.0104771970952672E-10, 1.2999499999999998E-08
DataValue, 0.2, 3, 0, 1.2578099999999999E-08, -6.63726E-10, -1.22289E-08, 1.2578099999999999E-08, 0.00011215212882509185, 2.5373412704188912E-10, 1.22289E-08
DataValue, 0.25, 3, 0, 1.24985E-08, -1.66601E-09, -1.0896299999999998E-08, 1.24985E-08, 0.00011179669046979879, 6.5746501615614442E-09, 1.0896299999999998E-08
DataValue, 0.3, 3, 0, 1.4462599999999998E-08, -4.38163E-09, -1.009146E-08, 1.4462599999999998E-08, 0.00012026055047271319, 7.05477024038943E-08, 1.009146E-08
DataValue, 0.35000000000000003, 3, 0, 1.9142799999999997E-08, -8.31651E-09, -1.2787199999999998E-08, 1.9142799999999997E-08, 0.00013835750792783166, 2.6024664281412271E-07, 1.2787199999999998E-08
DataValue, 0.4, 3, 0, 2.9335099999999996E-08, -1.6279E-08, -1.1701699999999998E-08, 2.9335099999999996E-08, 0.00017127492519338608, 4.6178652505724122E-07, 1.1701699999999998E-08
DataValue, 0.45, 3, 0, 4.2564799999999993E-08, -2.9588499999999997E-08, -1.1724399999999998E-08, 4.2564799999999993E-08, 0.00020631238450466322, 5.23648140993973E-07, 1.1724399999999998E-08
DataValue, 0.5, 3, 0, 5.9359699999999994E-08, -4.70005E-08, -1.13062E-08, 5.9359699999999994E-08, 0.00024363846165989474, 5.8997260167529913E-07, 1.13062E-08
DataValue, 0.55, 3, 0, 8.0158099999999988E-08, -6.7935699999999991E-08, -1.0096099999999999E-08, 8.0158099999999988E-08, 0.00028312205848361586, 4.262383733447943E-07, 1.0096099999999999E-08
DataValue, 0.6, 3, 0, 9.5434899999999989E-08, -8.13125E-08, -1.1004799999999999E-08, 9.5434899999999989E-08, 0.00030892539552455054, 3.4456351049736211E-07, 1.1004799999999999E-08
DataValue, 0.65, 3, 0, 1.16842E-07, -1.01774E-07, -1.0794799999999999E-08, 1.16842E-07, 0.000341821590892091, 6.9878554927922375E-07, 1.0794799999999999E-08
DataValue, 0.70000000000000007, 3, 0, 1.54071E-07, -1.39509E-07, -1.1461E-08, 1.54071E-07, 0.00039251878935918469, 1.0024383726561977E-06, 1.1461E-08
DataValue, 0.75, 3, 0, 1.95314E-07, -1.79658E-07, -1.0218999999999999E-08, 1.95314E-07, 0.00044194343529460871, 9.69193085202229E-07, 1.0218999999999999E-08
DataValue, 0.8, 3, 0, 2.41048E-07, -2.24362E-07, -9.419E-09, 2.41048E-07, 0.00049096639396194934, 1.0612714759138087E-06, 9.419E-09
DataValue, 0.85000000000000009, 3, 0, 2.96983E-07, -2.7666499999999997E-07, -1.0162099999999999E-08, 2.96983E-07, 0.00054496146652768026, 1.1331718716346893E-06, 1.0162099999999999E-08
DataValue, 0.9, 3, 0, 3.56907E-07, -3.37511E-07, -9.1833E-09, 3.56907E-07, 0.00059741693983348017, 1.1797517759716489E-06, 9.1833E-09
DataValue, 0.95000000000000007, 3, 0, 4.2716399999999997E-07, -4.06461E-07, -8.8598E-09, 4.2716399999999997E-07, 0.0006535778454017547, 1.0157190573278863E-06, 8.8598E-09
DataValue, 1, 3, 0, 4.8748299999999995E-07, -4.67407E-07, -9.11503E-09, 4.8748299999999995E-07, 0.00069819982812945459, 1.1651833282112993E-06, 9.11503E-09
DataValue, 1.05, 3, 0, 5.7991499999999994E-07, -5.5858099999999994E-07, -8.66714E-09, 5.7991499999999994E-07, 0.00076152150330768722, 1.7590524809413869E-06, 8.66714E-09
DataValue, 1.1, 3, 0, 6.90277E-07, -6.65254E-07, -8.9076E-09, 6.90277E-07, 0.00083082910396783765, 1.9745890076635861E-06, 8.9076E-09
DataValue, 1.1500000000000001, 3, 0, 8.13679E-07, -7.87697E-07, -8.53941E-09, 8.13679E-07, 0.00090204157332131872, 1.4653632982825095E-06, 8.53941E-09
DataValue, 1.2, 3, 0, 9.06078E-07, -8.8523199999999994E-07, -5.83905E-09, 9.06078E-07, 0.00095188129512035276, 1.2567169316613365E-06, 5.83905E-09
DataValue, 1.25, 3, 0, 1.0284900000000001E-06, -9.9567E-07, -5.51971E-09, 1.0284900000000001E-06, 0.0010141449600525559, 2.6850299679698443E-06, 5.51971E-09
DataValue, 1.3, 3, 0, 1.2448800000000002E-06, -1.2136700000000002E-06, -4.77094E-09, 1.2448800000000002E-06, 0.001115741905639472, 3.8759872328301906E-06, 4.77094E-09
DataValue, 1.35, 3, 0, 1.46657E-06, -1.43432E-06, -5.34025E-09, 1.46657E-06, 0.0012110202310448824, 3.7521449704501479E-06, 5.34025E-09
DataValue, 1.4000000000000001, 3, 0, 1.7146500000000002E-06, -1.6794600000000001E-06, -4.37975E-09, 1.7146500000000002E-06, 0.0013094464479313386, 4.0412227343095482E-06, 4.37975E-09
DataValue, 1.4500000000000002, 3, 0, 1.9938800000000004E-06, -1.95142E-06, -3.40432E-09, 1.9938800000000004E-06, 0.001412048157818989, 4.2323520142284551E-06, 3.40432E-09
DataValue, 1.5, 3, 0, 2.2957500000000004E-06, -2.2498400000000003E-06, -3.80096E-09, 2.2957500000000004E-06, 0.0015151732574197581, 4.4571021165127655E-06, 3.80096E-09
DataValue, 1.55, 3, 0, 2.6346700000000004E-06, -2.58653E-06, -3.86842E-09, 2.6346700000000004E-06, 0.0016231666581100045, 4.8218051749293761E-06, 3.86842E-09
DataValue, 1.6, 3, 0, 3.0093900000000005E-06, -2.95413E-06, -3.37889E-09, 3.0093900000000005E-06, 0.0017347593493046811, 5.1404330201032464E-06, 3.37889E-09
DataValue, 1.6500000000000001, 3, 0, 3.4221000000000002E-06, -3.3688500000000004E-06, -3.27359E-09, 3.4221000000000002E-06, 0.0018498918887329605, 5.5353688192922628E-06, 3.27359E-09
DataValue, 1.7000000000000002, 3, 0, 3.88103E-06, -3.8246100000000005E-06, -4.39783E-09, 3.88103E-06, 0.0019700329946475514, 5.8771043575104183E-06, 4.39783E-09
DataValue, 1.75, 3, 0, 4.3778000000000007E-06, -4.3149200000000005E-06, -3.64232E-09, 4.3778000000000007E-06, 0.0020923192872981887, 6.253418186750803E-06, 3.64232E-09
DataValue, 1.8, 3, 0, 4.92885E-06, -4.85775E-06, -3.25145E-09, 4.92885E-06, 0.0022201013490379218, 6.574507664513934E-06, 3.25145E-09
DataValue, 1.85, 3, 0, 5.51652E-06, -5.44599E-06, -2.775E-09, 5.51652E-06, 0.0023487273149516525, 6.9112630204395206E-06, 2.775E-09
DataValue, 1.9000000000000001, 3, 0, 6.1652600000000007E-06, -6.09062E-06, -2.84411E-09, 6.1652600000000007E-06, 0.0024829941602831046, 7.3190727835468648E-06, 2.84411E-09
DataValue, 1.9500000000000002, 3, 0, 6.8605500000000007E-06, -6.7773200000000009E-06, -2.97594E-09, 6.8605500000000007E-06, 0.0026192651641252364, 7.627218470313751E-06, 2.97594E-09
DataValue, 2, 3, 0, 7.6130100000000005E-06, -7.5201200000000008E-06, -3.02175E-09, 7.6130100000000005E-06, 0.0027591683529643494, 7.8848837894526638E-06, 3.02175E-09
DataValue, 2.05, 3, 0, 8.41038E-06, -8.32691E-06, -2.3173E-09, 8.41038E-06, 0.0029000655165013082, 8.2675307803318238E-06, 2.3173E-09
DataValue, 2.1, 3, 0, 9.28239E-06, -9.1848100000000013E-06, -2.54275E-09, 9.28239E-06, 0.0030467014950598622, 8.7989150415983733E-06, 2.54275E-09
DataValue, 2.15, 3, 0, 1.021886E-05, -1.011987E-05, -1.83302E-09, 1.021886E-05, 0.0031966951684513178, 7.5740877061043791E-06, 1.83302E-09
