
SetupTitle, Transfer stab
PrimitiveTest, I/V Sweep
TestParameter, Context.MainFrame, 4155C
TestParameter, Channel.UnitType, SMU, SMU, SMU
TestParameter, Channel.Unit, SMU3:MP, SMU4:MP, SMU1:MP
TestParameter, Channel.IName, ID, IS, IG
TestParameter, Channel.VName, VD, VS, VG
TestParameter, Channel.Mode, V, COMMON, V
TestParameter, Channel.Func, CONST, CONST, VAR1
TestParameter, Channel.Index, 
TestParameter, Channel.Time, 
TestParameter, Measurement.Port.Unit, SMU3:MP, SMU4:MP, SMU1:MP
TestParameter, Measurement.Port.SeriesResistor, NONE, NONE, NONE
TestParameter, Measurement.Port.Filter, ON, ON, ON
TestParameter, Measurement.Primary.Locus, Single
TestParameter, Measurement.Primary.Scale, LINEAR
TestParameter, Measurement.Primary.Start, -2
TestParameter, Measurement.Primary.Stop, 3
TestParameter, Measurement.Primary.Step, 0.05
TestParameter, Measurement.Primary.Compliance, 0.1
TestParameter, Measurement.Primary.PowerCompliance, 0
TestParameter, Measurement.Aborting.Condition, CONTINUE AT ANY
TestParameter, Measurement.PostOutput.Value, START
TestParameter, Measurement.PostOutput.Retention, OFF
TestParameter, Measurement.Bias.Source, 3, 0, -2
TestParameter, Measurement.Bias.Compliance, 0.1, 0.1, 0.1
TestParameter, Measurement.Monitor.Unit, SMU3:MP, SMU4:MP, SMU1:MP
TestParameter, Measurement.Monitor.Adc, HR ADC, HR ADC, HR ADC
TestParameter, Measurement.Monitor.RangingMode, AUTO, AUTO, AUTO
TestParameter, Measurement.Monitor.RangeBoundary, , , 
TestParameter, Measurement.Monitor.RangeRating, BY FULL RANGE, BY FULL RANGE, BY FULL RANGE
TestParameter, Measurement.Monitor.RangeRatingCoeff, 50, 50, 50
TestParameter, Measurement.Timing.Hold, 0.5
TestParameter, Measurement.Timing.Delay, 0.05
TestParameter, Measurement.Adc.HighResolution.AutoZero, OFF
TestParameter, Measurement.Adc.HighResolution.Mode, AUTO
TestParameter, Measurement.Adc.HighResolution.Coeff, 1
TestParameter, Measurement.Ag16440ASelector.SemiconductorRelay.Channel1, DEFAULT
TestParameter, Measurement.Ag16440ASelector.SemiconductorRelay.Channel3, DEFAULT
TestParameter, Function.User.Name, absID, sqrtID, gm2, absIG
TestParameter, Function.User.Unit, A, A, A/V, A
TestParameter, Function.User.Definition, abs(ID), sqrt(abs(ID)), (delta(sqrtID)/delta(VG))^2, abs(IG)
TestParameter, Output.Graph.Enabled, true
TestParameter, Output.Graph.XAxis.Data, VG
TestParameter, Output.Graph.XAxis.Scale, Linear
TestParameter, Output.Graph.XAxis.Left, -5
TestParameter, Output.Graph.XAxis.Right, 7
TestParameter, Output.Graph.YAxis.Data, ID, absIG, gm2
TestParameter, Output.Graph.YAxis.Scale, Log, Log, Linear
TestParameter, Output.Graph.YAxis.Bottom, 1E-14, 1E-14, 0
TestParameter, Output.Graph.YAxis.Top, 0.01, 0.01, 1E-05
TestParameter, Output.Graph.YAxis.Group, , , 
TestParameter, Output.List.Data, VG, IG, VD, ID, VS, IS, sqrtID, gm2, absIG
TestParameter, AutoAnalysis.Interpolation, false
TestParameter, AutoAnalysis.Line1.Enabled, false
TestParameter, AutoAnalysis.Line1.Type, 1
TestParameter, AutoAnalysis.Line1.Fix, True
TestParameter, AutoAnalysis.Line1.YAxis, 0
TestParameter, AutoAnalysis.Line1.Point1.Type, 0
TestParameter, AutoAnalysis.Line1.Point1.XY.X, 
TestParameter, AutoAnalysis.Line1.Point1.XY.Y, 
TestParameter, AutoAnalysis.Line1.Point1.Data.Var, 
TestParameter, AutoAnalysis.Line1.Point1.Data.Condition, 
TestParameter, AutoAnalysis.Line1.Point1.Data.Start, false
TestParameter, AutoAnalysis.Line1.Point1.Data.StartVar, 
TestParameter, AutoAnalysis.Line1.Point1.Data.StartCondition, 
TestParameter, AutoAnalysis.Line1.Point2.Type, 0
TestParameter, AutoAnalysis.Line1.Point2.XY.X, 
TestParameter, AutoAnalysis.Line1.Point2.XY.Y, 
TestParameter, AutoAnalysis.Line1.Point2.Data.Var, 
TestParameter, AutoAnalysis.Line1.Point2.Data.Condition, 
TestParameter, AutoAnalysis.Line1.Point2.Data.Start, false
TestParameter, AutoAnalysis.Line1.Point2.Data.StartVar, 
TestParameter, AutoAnalysis.Line1.Point2.Data.StartCondition, 
TestParameter, AutoAnalysis.Line1.GradientExpr, 0
TestParameter, AutoAnalysis.Line2.Enabled, false
TestParameter, AutoAnalysis.Line2.Type, 1
TestParameter, AutoAnalysis.Line2.Fix, True
TestParameter, AutoAnalysis.Line2.YAxis, 0
TestParameter, AutoAnalysis.Line2.Point1.Type, 0
TestParameter, AutoAnalysis.Line2.Point1.XY.X, 
TestParameter, AutoAnalysis.Line2.Point1.XY.Y, 
TestParameter, AutoAnalysis.Line2.Point1.Data.Var, 
TestParameter, AutoAnalysis.Line2.Point1.Data.Condition, 
TestParameter, AutoAnalysis.Line2.Point1.Data.Start, false
TestParameter, AutoAnalysis.Line2.Point1.Data.StartVar, 
TestParameter, AutoAnalysis.Line2.Point1.Data.StartCondition, 
TestParameter, AutoAnalysis.Line2.Point2.Type, 0
TestParameter, AutoAnalysis.Line2.Point2.XY.X, 
TestParameter, AutoAnalysis.Line2.Point2.XY.Y, 
TestParameter, AutoAnalysis.Line2.Point2.Data.Var, 
TestParameter, AutoAnalysis.Line2.Point2.Data.Condition, 
TestParameter, AutoAnalysis.Line2.Point2.Data.Start, false
TestParameter, AutoAnalysis.Line2.Point2.Data.StartVar, 
TestParameter, AutoAnalysis.Line2.Point2.Data.StartCondition, 
TestParameter, AutoAnalysis.Line2.GradientExpr, 0
TestParameter, AutoAnalysis.Marker.Enabled, false
TestParameter, AutoAnalysis.Marker.Data.Var, 
TestParameter, AutoAnalysis.Marker.Data.Condition, 
TestParameter, AutoAnalysis.Marker.Data.Start, false
TestParameter, AutoAnalysis.Marker.Data.StartVar, 
TestParameter, AutoAnalysis.Marker.Data.StartCondition, 
MetaData, TestRecord.EntryPoint, true
MetaData, TestRecord.RecordTime, 05/27/2019 12:10:46
MetaData, TestRecord.TestTarget, 350-180-G28-2
MetaData, TestRecord.IterationIndex, 1
MetaData, TestRecord.Preservation, true
MetaData, TestRecord.Flag, 
MetaData, TestRecord.Remarks, MEH-GOOD
MetaData, TestRecord.LinkKey, 75076a6e-b4f6-4ad1-9f3c-27dc88efdf29
Dimension1, 101, 101, 101, 101, 101, 101, 101, 101, 101, 101
Dimension2, 1, 1, 1, 1, 1, 1, 1, 1, 1, 1
DataName, VG, VD, VS, ID, IS, IG, absID, sqrtID, gm2, absIG
DataValue, -2, 3, 0, -7.2100000000000006E-13, 4.5190000000000004E-12, -1.6060000000000002E-12, 7.2100000000000006E-13, 8.4911718861415123E-07, 3.083670649014344E-10, 1.6060000000000002E-12
DataValue, -1.9500000000000002, 3, 0, 2.983E-12, 1.535E-12, -7.5480000000000014E-12, 2.983E-12, 1.7271363582531635E-06, 3.6708357081830959E-11, 7.5480000000000014E-12
DataValue, -1.9000000000000001, 3, 0, 2.117E-12, 1.4900000000000002E-13, -2.7140000000000004E-12, 2.117E-12, 1.4549914089093447E-06, 6.2428932402044793E-11, 2.7140000000000004E-12
DataValue, -1.85, 3, 0, 8.780000000000001E-13, -4.0400000000000005E-13, -1.092E-12, 8.780000000000001E-13, 9.3701654200979833E-07, 1.7648410264863421E-11, 1.092E-12
DataValue, -1.8, 3, 0, 1.0710000000000002E-12, 1.2664000000000002E-11, -5.046E-12, 1.0710000000000002E-12, 1.0348912986396204E-06, 6.0757781808486487E-13, 5.046E-12
DataValue, -1.75, 3, 0, 7.3800000000000009E-13, -1.7180000000000002E-12, 3.9100000000000005E-13, 7.3800000000000009E-13, 8.5906926379658128E-07, 1.4666683135705921E-11, 3.9100000000000005E-13
DataValue, -1.7000000000000002, 3, 0, -4.2500000000000006E-13, 1.1830000000000001E-12, -4.959E-12, 4.2500000000000006E-13, 6.519202405202649E-07, 4.1936329315989295E-11, 4.959E-12
DataValue, -1.6500000000000001, 3, 0, 2.2700000000000002E-12, -4.4E-14, -1.1270000000000002E-12, 2.2700000000000002E-12, 1.5066519173319364E-06, 1.0280193371026505E-10, 1.1270000000000002E-12
DataValue, -1.6, 3, 0, 2.775E-12, -1.6640000000000002E-12, -7.9320000000000013E-12, 2.775E-12, 1.6658331248957681E-06, 1.219168601989541E-10, 7.9320000000000013E-12
DataValue, -1.55, 3, 0, -1.6200000000000002E-13, -8.2870000000000013E-12, 1.4070000000000002E-12, 1.6200000000000002E-13, 4.0249223594996217E-07, 5.5375346000634895E-11, 1.4070000000000002E-12
DataValue, -1.5, 3, 0, -5.808E-12, -5.48E-12, 9.06E-12, 5.808E-12, 2.4099792530227308E-06, 5.9931866259315511E-12, 9.06E-12
DataValue, -1.4500000000000002, 3, 0, 4.1900000000000003E-13, 5.067E-12, 1.9610000000000002E-12, 4.1900000000000003E-13, 6.4730209330729032E-07, 2.5210677522824154E-10, 1.9610000000000002E-12
DataValue, -1.4000000000000001, 3, 0, 6.76E-13, 5.8800000000000008E-12, -3.225E-12, 6.76E-13, 8.221921916437787E-07, 2.0097128848550487E-10, 3.225E-12
DataValue, -1.35, 3, 0, 4.2640000000000004E-12, -2.1500000000000002E-13, -4.6190000000000004E-12, 4.2640000000000004E-12, 2.0649455198624493E-06, 6.6288150964007949E-14, 4.6190000000000004E-12
DataValue, -1.3, 3, 0, -7.1900000000000007E-13, -1.713E-12, -2.081E-12, 7.1900000000000007E-13, 8.4793867702800309E-07, 4.4120337436137646E-11, 2.081E-12
DataValue, -1.25, 3, 0, 1.9620000000000003E-12, 1.001E-12, -2.3330000000000003E-12, 1.9620000000000003E-12, 1.4007141035914503E-06, 6.0161372125159192E-11, 2.3330000000000003E-12
DataValue, -1.2, 3, 0, 2.636E-12, -2.7800000000000003E-13, -2.2030000000000002E-12, 2.636E-12, 1.6235762994081923E-06, 5.7939959812462806E-11, 2.2030000000000002E-12
DataValue, -1.1500000000000001, 3, 0, -4.09E-13, -7.31E-13, -3.0430000000000003E-12, 4.09E-13, 6.3953107821277928E-07, 2.9003496504791913E-12, 3.0430000000000003E-12
DataValue, -1.1, 3, 0, 2.1120000000000003E-12, 9.53E-13, -1.26E-12, 2.1120000000000003E-12, 1.4532721699667961E-06, 2.1305021411970998E-12, 1.26E-12
DataValue, -1.05, 3, 0, 6.170000000000001E-13, -4.8680000000000007E-12, -2.1670000000000004E-12, 6.170000000000001E-13, 7.854934754662193E-07, 6.3708770134239168E-14, 2.1670000000000004E-12
DataValue, -1, 3, 0, -2.186E-12, -2.59E-13, -1.9780000000000003E-12, 2.186E-12, 1.4785127662620977E-06, 7.7540757302170964E-12, 1.9780000000000003E-12
DataValue, -0.95000000000000007, 3, 0, 1.132E-12, -2.5300000000000003E-13, -1.6200000000000002E-13, 1.132E-12, 1.0639548862616308E-06, 3.656422826585012E-12, 1.6200000000000002E-13
DataValue, -0.9, 3, 0, 2.7880000000000002E-12, 1.4860000000000001E-12, -1.318E-12, 2.7880000000000002E-12, 1.6697305171793441E-06, 1.4317855787625608E-11, 1.318E-12
DataValue, -0.85000000000000009, 3, 0, 4.7E-13, 5.2500000000000009E-13, -1.3340000000000002E-12, 4.7E-13, 6.8556546004010438E-07, 3.9450607302528144E-11, 1.3340000000000002E-12
DataValue, -0.8, 3, 0, 1.0850000000000001E-12, -1.71E-13, -1.6510000000000001E-12, 1.0850000000000001E-12, 1.0416333327999829E-06, 1.678568517337495E-10, 1.6510000000000001E-12
DataValue, -0.75, 3, 0, -3.925E-12, -2.43E-13, -1.299E-12, 3.925E-12, 1.981161275615895E-06, 1.8171568632353302E-12, 1.299E-12
DataValue, -0.70000000000000007, 3, 0, 1.3840000000000002E-12, 2.71E-13, -1.093E-12, 1.3840000000000002E-12, 1.1764352935882196E-06, 1.089124497375451E-10, 1.093E-12
DataValue, -0.65, 3, 0, 8.7900000000000009E-13, -5.6E-13, -7.2200000000000005E-13, 8.7900000000000009E-13, 9.3754999866673777E-07, 2.61775382827834E-13, 7.2200000000000005E-13
DataValue, -0.6, 3, 0, -1.5070000000000001E-12, -1.34E-13, -1.143E-12, 1.5070000000000001E-12, 1.2275992831539126E-06, 1.1736274925787518E-10, 1.143E-12
DataValue, -0.55, 3, 0, 4.084E-12, -3.64E-13, -4.5100000000000005E-13, 4.084E-12, 2.0208908926510604E-06, 6.0036156957399169E-11, 4.5100000000000005E-13
DataValue, -0.5, 3, 0, 2.05E-13, 2.17E-13, -5.36E-13, 2.05E-13, 4.5276925690687085E-07, 1.001626525225607E-11, 5.36E-13
DataValue, -0.45, 3, 0, -2.9050000000000002E-12, -1.24E-13, 3.3400000000000004E-13, 2.9050000000000002E-12, 1.7044060549059313E-06, 7.8367618843698023E-13, 3.3400000000000004E-13
DataValue, -0.4, 3, 0, -2.93E-13, 5.9500000000000009E-13, 4.2000000000000004E-14, 2.93E-13, 5.4129474410897439E-07, 6.5510942769902234E-12, 4.2000000000000004E-14
DataValue, -0.35000000000000003, 3, 0, 3.8430000000000005E-12, 6.0000000000000007E-13, -6.4500000000000008E-13, 3.8430000000000005E-12, 1.9603571103245449E-06, 2.8602103023273407E-11, 6.4500000000000008E-13
DataValue, -0.3, 3, 0, 1.1580000000000001E-12, -1.69E-13, -3.7900000000000005E-13, 1.1580000000000001E-12, 1.0761040841851686E-06, 1.8827667073775887E-10, 3.7900000000000005E-13
DataValue, -0.25, 3, 0, 3.4600000000000004E-13, -1.7990000000000001E-12, 1.35E-13, 3.4600000000000004E-13, 5.8821764679410979E-07, 9.1466667936701475E-11, 1.35E-13
DataValue, -0.2, 3, 0, 4.131E-12, -3.3990000000000004E-12, 1.22E-13, 4.131E-12, 2.0324861623145186E-06, 6.2143190485230287E-10, 1.22E-13
DataValue, -0.15, 3, 0, 9.4930000000000008E-12, -9.118E-12, -4.4900000000000006E-13, 9.4930000000000008E-12, 3.0810712422792177E-06, 1.179834234234417E-09, 4.4900000000000006E-13
DataValue, -0.1, 3, 0, 2.9892000000000004E-11, -2.7699000000000003E-11, 1.3360000000000002E-12, 2.9892000000000004E-11, 5.4673576799035206E-06, 3.2847222870280379E-09, 1.3360000000000002E-12
DataValue, -0.05, 3, 0, 7.7657E-11, -7.3540000000000012E-11, -3.4600000000000004E-13, 7.7657E-11, 8.8123209201662649E-06, 6.6688083284165989E-09, 3.4600000000000004E-13
DataValue, 0, 3, 0, 1.8587600000000003E-10, -1.7801600000000001E-10, -5.18E-13, 1.8587600000000003E-10, 1.3633634878490769E-05, 1.2448882984434167E-08, 5.18E-13
DataValue, 0.05, 3, 0, 3.9879200000000004E-10, -3.8306400000000005E-10, -3.04E-13, 3.9879200000000004E-10, 1.9969777164505369E-05, 2.0179907206429009E-08, 3.04E-13
DataValue, 0.1, 3, 0, 7.7502300000000011E-10, -7.5005E-10, 9.8000000000000012E-14, 7.7502300000000011E-10, 2.7839234903279942E-05, 2.6723867636145244E-08, 9.8000000000000012E-14
DataValue, 0.15, 3, 0, 1.31894E-09, -1.26592E-09, 2.0960000000000004E-12, 1.31894E-09, 3.6317213549500184E-05, 4.0451732024515308E-08, 2.0960000000000004E-12
DataValue, 0.2, 3, 0, 2.29938E-09, -2.26363E-09, 9.6000000000000007E-14, 2.29938E-09, 4.7951850850618892E-05, 6.140323781030046E-08, 9.6000000000000007E-14
DataValue, 0.25, 3, 0, 3.73283E-09, -3.67628E-09, 9.615E-12, 3.73283E-09, 6.1096890264562563E-05, 7.5667945946172078E-08, 9.615E-12
DataValue, 0.3, 3, 0, 5.69416E-09, -5.61507E-09, 7.0800000000000005E-12, 5.69416E-09, 7.5459658096230461E-05, 8.9209372654430163E-08, 7.0800000000000005E-12
DataValue, 0.35000000000000003, 3, 0, 8.2746E-09, -8.16387E-09, 2.2056E-11, 8.2746E-09, 9.0964828367891729E-05, 8.5061978174711342E-08, 2.2056E-11
DataValue, 0.4, 3, 0, 1.09464E-08, -1.06638E-08, 4.0615E-11, 1.09464E-08, 0.00010462504480285779, 1.0165285608043001E-07, 4.0615E-11
DataValue, 0.45, 3, 0, 1.50916E-08, -1.4963399999999998E-08, 8.106E-11, 1.50916E-08, 0.0001228478734044672, 1.4213645985832455E-07, 8.106E-11
DataValue, 0.5, 3, 0, 2.0256699999999998E-08, -2.01278E-08, 1.4228E-10, 2.0256699999999998E-08, 0.00014232603416100654, 1.5670359867411233E-07, 1.4228E-10
DataValue, 0.55, 3, 0, 2.6384699999999998E-08, -2.62605E-08, 2.2711300000000003E-10, 2.6384699999999998E-08, 0.00016243367877383065, 1.7323276935196705E-07, 2.2711300000000003E-10
DataValue, 0.6, 3, 0, 3.38366E-08, -3.37895E-08, 3.7178800000000005E-10, 3.38366E-08, 0.00018394727505456556, 1.928659763961212E-07, 3.7178800000000005E-10
DataValue, 0.65, 3, 0, 4.2580399999999997E-08, -4.25924E-08, 5.5543800000000008E-10, 4.2580399999999997E-08, 0.00020635018778765381, 2.1011277034425643E-07, 5.5543800000000008E-10
DataValue, 0.70000000000000007, 3, 0, 5.2801299999999994E-08, -5.2931899999999995E-08, 7.5057500000000007E-10, 5.2801299999999994E-08, 0.00022978533460601874, 2.1346600098418372E-07, 7.5057500000000007E-10
DataValue, 0.75, 3, 0, 6.37828E-08, -6.41316E-08, 1.04217E-09, 6.37828E-08, 0.00025255256878519371, 2.2314068317760554E-07, 1.04217E-09
DataValue, 0.8, 3, 0, 7.6741799999999989E-08, -7.7347E-08, 1.46982E-09, 7.6741799999999989E-08, 0.00027702310372963479, 2.8010997993823575E-07, 1.46982E-09
DataValue, 0.85000000000000009, 3, 0, 9.331679999999999E-08, -9.41831E-08, 1.87255E-09, 9.331679999999999E-08, 0.00030547798611356593, 2.658299272313303E-07, 1.87255E-09
DataValue, 0.9, 3, 0, 1.07966E-07, -1.0794599999999999E-07, 2.29298E-09, 1.07966E-07, 0.00032858180107851379, 2.7900339449869374E-07, 2.29298E-09
DataValue, 0.95000000000000007, 3, 0, 1.2837799999999999E-07, -1.30109E-07, 3.01245E-09, 1.2837799999999999E-07, 0.00035829875802184967, 3.7848026241100562E-07, 3.01245E-09
DataValue, 1, 3, 0, 1.5218E-07, -1.5447399999999998E-07, 3.8548E-09, 1.5218E-07, 0.00039010255061970562, 4.1090056443700588E-07, 3.8548E-09
DataValue, 1.05, 3, 0, 1.78422E-07, -1.81376E-07, 4.71243E-09, 1.78422E-07, 0.00042240028409081356, 4.2643075085271618E-07, 4.71243E-09
DataValue, 1.1, 3, 0, 2.0739299999999998E-07, -2.1115299999999999E-07, 5.73542E-09, 2.0739299999999998E-07, 0.00045540421605426532, 4.45692714335791E-07, 5.73542E-09
DataValue, 1.1500000000000001, 3, 0, 2.39278E-07, -2.43969E-07, 7.00964E-09, 2.39278E-07, 0.00048916050535585968, 4.6757062545709666E-07, 7.00964E-09
DataValue, 1.2, 3, 0, 2.74349E-07, -2.80336E-07, 8.40128E-09, 2.74349E-07, 0.00052378335216003193, 4.9152242925095884E-07, 8.40128E-09
DataValue, 1.25, 3, 0, 3.12782E-07, -3.19815E-07, 9.81286E-09, 3.12782E-07, 0.0005592691659657271, 4.7784621841867658E-07, 9.81286E-09
DataValue, 1.3, 3, 0, 3.51542E-07, -3.60366E-07, 1.14167E-08, 3.51542E-07, 0.00059290977391168037, 5.0132969371845737E-07, 1.14167E-08
DataValue, 1.35, 3, 0, 3.96993E-07, -4.06978E-07, 1.3447799999999998E-08, 3.96993E-07, 0.00063007380520062881, 6.1097262040022481E-07, 1.3447799999999998E-08
DataValue, 1.4000000000000001, 3, 0, 4.5034099999999997E-07, -4.6210299999999997E-07, 1.58096E-08, 4.5034099999999997E-07, 0.00067107451151120321, 6.7900002027123186E-07, 1.58096E-08
DataValue, 1.4500000000000002, 3, 0, 5.07621E-07, -5.21493E-07, 1.8242899999999998E-08, 5.07621E-07, 0.00071247526272846828, 6.9544780093938115E-07, 1.8242899999999998E-08
DataValue, 1.5, 3, 0, 5.69222E-07, -5.85164E-07, 2.1009399999999998E-08, 5.69222E-07, 0.00075446802450468366, 7.2021220208115466E-07, 2.1009399999999998E-08
DataValue, 1.55, 3, 0, 6.35752E-07, -6.5405499999999994E-07, 2.3497699999999997E-08, 6.35752E-07, 0.00079734057967721672, 7.4224719421113E-07, 2.3497699999999997E-08
DataValue, 1.6, 3, 0, 7.06645E-07, -7.27475E-07, 2.6594699999999998E-08, 7.06645E-07, 0.00084062179367418264, 7.6214917893964241E-07, 2.6594699999999998E-08
DataValue, 1.6500000000000001, 3, 0, 7.82591E-07, -8.0658499999999994E-07, 3.04199E-08, 7.82591E-07, 0.0008846417353934868, 7.8668313705601752E-07, 3.04199E-08
DataValue, 1.7000000000000002, 3, 0, 8.6363E-07, -8.91078E-07, 3.39804E-08, 8.6363E-07, 0.00092931695346636176, 8.1658207998873727E-07, 3.39804E-08
DataValue, 1.75, 3, 0, 9.5063799999999994E-07, -9.81735E-07, 3.81339E-08, 9.5063799999999994E-07, 0.00097500666664387481, 8.43867607028696E-07, 3.81339E-08
DataValue, 1.8, 3, 0, 1.042807E-06, -1.077489E-06, 4.2245299999999995E-08, 1.042807E-06, 0.001021179220313457, 6.2507432891886494E-07, 4.2245299999999995E-08
DataValue, 1.85, 3, 0, 1.1110600000000002E-06, -1.1428500000000002E-06, 4.5895999999999996E-08, 1.1110600000000002E-06, 0.001054068308981918, 6.4498052861501311E-07, 4.5895999999999996E-08
DataValue, 1.9000000000000001, 3, 0, 1.2132800000000002E-06, -1.2560000000000001E-06, 5.0834E-08, 1.2132800000000002E-06, 0.0011014899000898737, 9.5554514516345763E-07, 5.0834E-08
DataValue, 1.9500000000000002, 3, 0, 1.32669E-06, -1.37479E-06, 5.6490499999999992E-08, 1.32669E-06, 0.0011518202984840994, 1.0127882459517625E-06, 5.6490499999999992E-08
DataValue, 2, 3, 0, 1.4451100000000002E-06, -1.49793E-06, 6.221E-08, 1.4451100000000002E-06, 0.0012021272811146083, 1.0215620852117035E-06, 6.221E-08
DataValue, 2.05, 3, 0, 1.5697400000000002E-06, -1.6280200000000003E-06, 6.8600999999999993E-08, 1.5697400000000002E-06, 0.0012528926530233945, 1.0411981869835864E-06, 6.8600999999999993E-08
DataValue, 2.1, 3, 0, 1.7008500000000002E-06, -1.7645300000000002E-06, 7.470959999999999E-08, 1.7008500000000002E-06, 0.0013041664004259581, 1.0603311971262641E-06, 7.470959999999999E-08
DataValue, 2.15, 3, 0, 1.8383700000000003E-06, -1.9085100000000003E-06, 8.1677799999999988E-08, 1.8383700000000003E-06, 0.0013558650375313909, 1.0739861125108448E-06, 8.1677799999999988E-08
DataValue, 2.2, 3, 0, 1.9819E-06, -2.0585300000000003E-06, 8.84151E-08, 1.9819E-06, 0.0014077997016621363, 1.0947024639669735E-06, 8.84151E-08
