
SetupTitle, Transfer lin
PrimitiveTest, I/V Sweep
TestParameter, Context.MainFrame, 4155C
TestParameter, Channel.UnitType, SMU, SMU, SMU
TestParameter, Channel.Unit, SMU3:MP, SMU4:MP, SMU1:MP
TestParameter, Channel.IName, ID, IS, IG
TestParameter, Channel.VName, VD, VS, VG
TestParameter, Channel.Mode, V, COMMON, V
TestParameter, Channel.Func, CONST, CONST, VAR1
TestParameter, Channel.Index, 
TestParameter, Channel.Time, 
TestParameter, Measurement.Port.Unit, SMU3:MP, SMU4:MP, SMU1:MP
TestParameter, Measurement.Port.SeriesResistor, NONE, NONE, NONE
TestParameter, Measurement.Port.Filter, ON, ON, ON
TestParameter, Measurement.Primary.Locus, Double
TestParameter, Measurement.Primary.Scale, LINEAR
TestParameter, Measurement.Primary.Start, -2
TestParameter, Measurement.Primary.Stop, 3
TestParameter, Measurement.Primary.Step, 0.05
TestParameter, Measurement.Primary.Compliance, 0.001
TestParameter, Measurement.Primary.PowerCompliance, 0
TestParameter, Measurement.Aborting.Condition, CONTINUE AT ANY
TestParameter, Measurement.PostOutput.Value, START
TestParameter, Measurement.PostOutput.Retention, OFF
TestParameter, Measurement.Bias.Source, 0.1, 0, -2
TestParameter, Measurement.Bias.Compliance, 0.001, 0.1, 0.001
TestParameter, Measurement.Monitor.Unit, SMU3:MP, SMU4:MP, SMU1:MP
TestParameter, Measurement.Monitor.Adc, HR ADC, HR ADC, HR ADC
TestParameter, Measurement.Monitor.RangingMode, AUTO, AUTO, AUTO
TestParameter, Measurement.Monitor.RangeBoundary, , , 
TestParameter, Measurement.Monitor.RangeRating, BY FULL RANGE, BY FULL RANGE, BY FULL RANGE
TestParameter, Measurement.Monitor.RangeRatingCoeff, 50, 50, 50
TestParameter, Measurement.Timing.Hold, 0.5
TestParameter, Measurement.Timing.Delay, 0.05
TestParameter, Measurement.Adc.HighResolution.AutoZero, OFF
TestParameter, Measurement.Adc.HighResolution.Mode, AUTO
TestParameter, Measurement.Adc.HighResolution.Coeff, 1
TestParameter, Measurement.Ag16440ASelector.SemiconductorRelay.Channel1, DEFAULT
TestParameter, Measurement.Ag16440ASelector.SemiconductorRelay.Channel3, DEFAULT
TestParameter, Function.User.Name, absID, sqrtID, gm2, absIG
TestParameter, Function.User.Unit, A, A, A/V, A
TestParameter, Function.User.Definition, abs(ID), sqrt(abs(ID)), (delta(sqrtID)/delta(VG))^2, abs(IG)
TestParameter, Output.Graph.Enabled, true
TestParameter, Output.Graph.XAxis.Data, VG
TestParameter, Output.Graph.XAxis.Scale, Linear
TestParameter, Output.Graph.XAxis.Left, -5
TestParameter, Output.Graph.XAxis.Right, 7
TestParameter, Output.Graph.YAxis.Data, ID, absIG, gm2
TestParameter, Output.Graph.YAxis.Scale, Log, Log, Linear
TestParameter, Output.Graph.YAxis.Bottom, 1E-14, 1E-14, 0
TestParameter, Output.Graph.YAxis.Top, 0.01, 0.01, 1E-05
TestParameter, Output.Graph.YAxis.Group, , , 
TestParameter, Output.List.Data, VG, IG, VD, ID, VS, IS, sqrtID, gm2, absIG
TestParameter, AutoAnalysis.Interpolation, false
TestParameter, AutoAnalysis.Line1.Enabled, false
TestParameter, AutoAnalysis.Line1.Type, 1
TestParameter, AutoAnalysis.Line1.Fix, True
TestParameter, AutoAnalysis.Line1.YAxis, 0
TestParameter, AutoAnalysis.Line1.Point1.Type, 0
TestParameter, AutoAnalysis.Line1.Point1.XY.X, 
TestParameter, AutoAnalysis.Line1.Point1.XY.Y, 
TestParameter, AutoAnalysis.Line1.Point1.Data.Var, 
TestParameter, AutoAnalysis.Line1.Point1.Data.Condition, 
TestParameter, AutoAnalysis.Line1.Point1.Data.Start, false
TestParameter, AutoAnalysis.Line1.Point1.Data.StartVar, 
TestParameter, AutoAnalysis.Line1.Point1.Data.StartCondition, 
TestParameter, AutoAnalysis.Line1.Point2.Type, 0
TestParameter, AutoAnalysis.Line1.Point2.XY.X, 
TestParameter, AutoAnalysis.Line1.Point2.XY.Y, 
TestParameter, AutoAnalysis.Line1.Point2.Data.Var, 
TestParameter, AutoAnalysis.Line1.Point2.Data.Condition, 
TestParameter, AutoAnalysis.Line1.Point2.Data.Start, false
TestParameter, AutoAnalysis.Line1.Point2.Data.StartVar, 
TestParameter, AutoAnalysis.Line1.Point2.Data.StartCondition, 
TestParameter, AutoAnalysis.Line1.GradientExpr, 0
TestParameter, AutoAnalysis.Line2.Enabled, false
TestParameter, AutoAnalysis.Line2.Type, 1
TestParameter, AutoAnalysis.Line2.Fix, True
TestParameter, AutoAnalysis.Line2.YAxis, 0
TestParameter, AutoAnalysis.Line2.Point1.Type, 0
TestParameter, AutoAnalysis.Line2.Point1.XY.X, 
TestParameter, AutoAnalysis.Line2.Point1.XY.Y, 
TestParameter, AutoAnalysis.Line2.Point1.Data.Var, 
TestParameter, AutoAnalysis.Line2.Point1.Data.Condition, 
TestParameter, AutoAnalysis.Line2.Point1.Data.Start, false
TestParameter, AutoAnalysis.Line2.Point1.Data.StartVar, 
TestParameter, AutoAnalysis.Line2.Point1.Data.StartCondition, 
TestParameter, AutoAnalysis.Line2.Point2.Type, 0
TestParameter, AutoAnalysis.Line2.Point2.XY.X, 
TestParameter, AutoAnalysis.Line2.Point2.XY.Y, 
TestParameter, AutoAnalysis.Line2.Point2.Data.Var, 
TestParameter, AutoAnalysis.Line2.Point2.Data.Condition, 
TestParameter, AutoAnalysis.Line2.Point2.Data.Start, false
TestParameter, AutoAnalysis.Line2.Point2.Data.StartVar, 
TestParameter, AutoAnalysis.Line2.Point2.Data.StartCondition, 
TestParameter, AutoAnalysis.Line2.GradientExpr, 0
TestParameter, AutoAnalysis.Marker.Enabled, false
TestParameter, AutoAnalysis.Marker.Data.Var, 
TestParameter, AutoAnalysis.Marker.Data.Condition, 
TestParameter, AutoAnalysis.Marker.Data.Start, false
TestParameter, AutoAnalysis.Marker.Data.StartVar, 
TestParameter, AutoAnalysis.Marker.Data.StartCondition, 
MetaData, TestRecord.EntryPoint, true
MetaData, TestRecord.RecordTime, 05/27/2019 11:01:53
MetaData, TestRecord.TestTarget, 350-180-G27
MetaData, TestRecord.IterationIndex, 1
MetaData, TestRecord.Preservation, true
MetaData, TestRecord.Flag, 
MetaData, TestRecord.Remarks, GOOD
MetaData, TestRecord.LinkKey, 2698e4bb-a0af-442a-aabb-9f2ac963123d
Dimension1, 202, 202, 202, 202, 202, 202, 202, 202, 202, 202
Dimension2, 1, 1, 1, 1, 1, 1, 1, 1, 1, 1
DataName, VG, VD, VS, ID, IS, IG, absID, sqrtID, gm2, absIG
DataValue, -2, 0.1, 0, 9.634E-12, 5.9430000000000008E-12, -6.5110000000000008E-12, 9.634E-12, 3.1038685539178362E-06, 9.5314941280599937E-11, 6.5110000000000008E-12
DataValue, -1.9500000000000002, 0.1, 0, 6.842E-12, -4.323E-12, -1.6284E-11, 6.842E-12, 2.6157216977346808E-06, 1.9396286444233293E-11, 1.6284E-11
DataValue, -1.9000000000000001, 0.1, 0, 7.094E-12, -6.05E-13, -8.672E-12, 7.094E-12, 2.6634564009947676E-06, 3.4680500980954271E-11, 8.672E-12
DataValue, -1.85, 0.1, 0, 4.1080000000000007E-12, 7.734E-12, -8.7250000000000009E-12, 4.1080000000000007E-12, 2.0268201696253174E-06, 2.915293057714782E-10, 8.7250000000000009E-12
DataValue, -1.8, 0.1, 0, 9.1400000000000014E-13, 4.5950000000000005E-12, -7.91E-12, 9.1400000000000014E-13, 9.5603347221736974E-07, 1.7061598318851897E-11, 7.91E-12
DataValue, -1.75, 0.1, 0, 5.953E-12, 1.4634E-11, -1.2873000000000001E-11, 5.953E-12, 2.4398770460824456E-06, 6.2202304875795639E-10, 1.2873000000000001E-11
DataValue, -1.7000000000000002, 0.1, 0, 1.1903E-11, 2.2648000000000003E-11, 1.7510000000000001E-12, 1.1903E-11, 3.450072463007118E-06, 2.4075256374042377E-10, 1.7510000000000001E-12
DataValue, -1.6500000000000001, 0.1, 0, 7.8900000000000007E-13, 2.0486000000000003E-11, -5.4600000000000006E-12, 7.8900000000000007E-13, 8.882567196480982E-07, 1.8557267830989657E-10, 5.4600000000000006E-12
DataValue, -1.6, 0.1, 0, 4.359E-12, 1.7571000000000003E-11, -1.3716000000000002E-11, 4.359E-12, 2.087821831478922E-06, 3.5430637956186326E-10, 1.3716000000000002E-11
DataValue, -1.55, 0.1, 0, 7.6760000000000008E-12, 1.1867E-11, -1.5189000000000002E-11, 7.6760000000000008E-12, 2.7705595102794672E-06, 1.397793843229383E-10, 1.5189000000000002E-11
DataValue, -1.5, 0.1, 0, 8.2E-13, 3.5700000000000004E-13, -8.723E-12, 8.2E-13, 9.0553851381374169E-07, 1.0395021772741458E-10, 8.723E-12
DataValue, -1.4500000000000002, 0.1, 0, 3.066E-12, -5.8760000000000004E-12, -2.8860000000000004E-12, 3.066E-12, 1.7509997144488632E-06, 7.6940278139251514E-11, 2.8860000000000004E-12
DataValue, -1.4000000000000001, 0.1, 0, -3.1780000000000004E-12, -3.0780000000000004E-12, -3.4770000000000002E-12, 3.1780000000000004E-12, 1.7826945896591486E-06, 4.0519485497930546E-11, 3.4770000000000002E-12
DataValue, -1.35, 0.1, 0, 1.2420000000000002E-12, 6.2310000000000004E-12, -1.1986000000000002E-11, 1.2420000000000002E-12, 1.1144505372604026E-06, 2.0900576008221723E-11, 1.1986000000000002E-11
DataValue, -1.3, 0.1, 0, -5.017E-12, -7.2350000000000006E-12, -1.592E-12, 5.017E-12, 2.2398660674245683E-06, 1.6703902820665672E-11, 1.592E-12
DataValue, -1.25, 0.1, 0, -2.3200000000000002E-12, 1.191E-12, 3.392E-12, 2.3200000000000002E-12, 1.5231546211727817E-06, 2.3385521835594629E-10, 3.392E-12
DataValue, -1.2, 0.1, 0, -5.0500000000000007E-13, 1.3900000000000001E-12, -3.288E-12, 5.0500000000000007E-13, 7.1063352017759482E-07, 7.47131793066622E-11, 3.288E-12
DataValue, -1.1500000000000001, 0.1, 0, 4.34E-13, 1.5930000000000002E-12, -1.343E-12, 4.34E-13, 6.587867636800242E-07, 1.8243276633725789E-10, 1.343E-12
DataValue, -1.1, 0.1, 0, 4.249E-12, -9.3900000000000014E-13, -4.35E-13, 4.249E-12, 2.0613102629153138E-06, 1.4716374962305291E-10, 4.35E-13
DataValue, -1.05, 0.1, 0, -3.5040000000000004E-12, 3.6311000000000004E-11, -8.624E-12, 3.5040000000000004E-12, 1.8718974330876145E-06, 7.4411574841205879E-12, 8.624E-12
DataValue, -1, 0.1, 0, 5.448E-12, -4.418E-12, -6.042E-12, 5.448E-12, 2.3340951137432254E-06, 1.3083377347711443E-11, 6.042E-12
DataValue, -0.95000000000000007, 0.1, 0, 4.9890000000000007E-12, -3.3780000000000003E-12, -1.863E-12, 4.9890000000000007E-12, 2.2336069484132613E-06, 3.9740716997298282E-10, 1.863E-12
DataValue, -0.9, 0.1, 0, 1.16E-13, -6.81E-13, 3.986E-12, 1.16E-13, 3.4058772731852803E-07, 2.8987453762296112E-10, 3.986E-12
DataValue, -0.85000000000000009, 0.1, 0, 2.82E-13, 5.225E-12, -3.572E-12, 2.82E-13, 5.3103672189407016E-07, 1.0717956466170256E-10, 3.572E-12
DataValue, -0.8, 0.1, 0, 1.893E-12, -2.3870000000000002E-12, -5.7300000000000008E-13, 1.893E-12, 1.3758633653092155E-06, 2.7402857179301193E-11, 5.7300000000000008E-13
DataValue, -0.75, 0.1, 0, -1.1120000000000001E-12, 4.2840000000000007E-12, -1.028E-12, 1.1120000000000001E-12, 1.0545141061171256E-06, 3.4420959239732284E-13, 1.028E-12
DataValue, -0.70000000000000007, 0.1, 0, -1.7350000000000002E-12, -8.8600000000000006E-13, -8.23E-13, 1.7350000000000002E-12, 1.3171939872319491E-06, 8.3525472483384244E-12, 8.23E-13
DataValue, -0.65, 0.1, 0, 5.86E-13, 6.9700000000000006E-13, -1.322E-12, 5.86E-13, 7.6550636836018555E-07, 2.4442531847227893E-11, 1.322E-12
DataValue, -0.6, 0.1, 0, -6.77E-13, -8.3200000000000009E-13, -1.8000000000000002E-14, 6.77E-13, 8.2280009722896848E-07, 3.9576228132984618E-12, 1.8000000000000002E-14
DataValue, -0.55, 0.1, 0, 3.2100000000000005E-13, 5.13E-13, 7.7E-14, 3.2100000000000005E-13, 5.6656861896861181E-07, 2.0986334889460388E-11, 7.7E-14
DataValue, -0.5, 0.1, 0, 1.3300000000000001E-13, 5.2E-13, 4.45E-13, 1.3300000000000001E-13, 3.6469165057620938E-07, 2.3209596347179612E-11, 4.45E-13
DataValue, -0.45, 0.1, 0, -1.099E-12, -1.9200000000000002E-13, 3.2400000000000003E-13, 1.099E-12, 1.0483320084782302E-06, 2.1265126380144217E-11, 3.2400000000000003E-13
DataValue, -0.4, 0.1, 0, 6.82E-13, -8.42E-13, -2.9E-14, 6.82E-13, 8.2583291288250315E-07, 2.0536472149333184E-12, 2.9E-14
DataValue, -0.35000000000000003, 0.1, 0, -1.4200000000000002E-12, -1.48E-13, 4.2000000000000004E-14, 1.4200000000000002E-12, 1.1916375287812987E-06, 3.5556178202324792E-12, 4.2000000000000004E-14
DataValue, -0.3, 0.1, 0, 1.0290000000000002E-12, -1.659E-12, 6.0400000000000005E-13, 1.0290000000000002E-12, 1.0143963722332608E-06, 2.0128700352474181E-12, 6.0400000000000005E-13
DataValue, -0.25, 0.1, 0, 1.1020000000000002E-12, -1.028E-12, 3.5500000000000005E-13, 1.1020000000000002E-12, 1.0497618777608569E-06, 1.0055674715396966E-10, 3.5500000000000005E-13
DataValue, -0.2, 0.1, 0, 4.0690000000000005E-12, -2.089E-12, 1.12E-13, 4.0690000000000005E-12, 2.0171762441591466E-06, 2.2019074503021595E-11, 1.12E-13
DataValue, -0.15, 0.1, 0, 3.3700000000000003E-13, -1.811E-12, 6.32E-13, 3.3700000000000003E-13, 5.8051701094799977E-07, 2.4928348141424831E-11, 6.32E-13
DataValue, -0.1, 0.1, 0, 2.3040000000000003E-12, -2.4220000000000004E-12, 2.8700000000000004E-13, 2.3040000000000003E-12, 1.5178932768808222E-06, 1.4297342557274537E-10, 2.8700000000000004E-13
DataValue, -0.05, 0.1, 0, 3.155E-12, -4.5290000000000006E-12, 7.53E-13, 3.155E-12, 1.7762319668331613E-06, 3.0671768800286724E-11, 7.53E-13
DataValue, 0, 0.1, 0, 4.2920000000000007E-12, -5.5360000000000006E-12, 6.06E-13, 4.2920000000000007E-12, 2.07171426601257E-06, 5.4629969168616313E-11, 6.06E-13
DataValue, 0.05, 0.1, 0, 6.3270000000000008E-12, -7.0530000000000007E-12, 6.83E-13, 6.3270000000000008E-12, 2.51535285795055E-06, 8.2242408766206169E-11, 6.83E-13
DataValue, 0.1, 0.1, 0, 8.872E-12, -1.0852000000000001E-11, 5.38E-13, 8.872E-12, 2.9785902705810343E-06, 1.2658818394114324E-10, 5.38E-13
DataValue, 0.15, 0.1, 0, 1.3253000000000001E-11, -1.3977000000000002E-11, 1.214E-12, 1.3253000000000001E-11, 3.6404670030093669E-06, 2.1996919578405901E-10, 1.214E-12
DataValue, 0.2, 0.1, 0, 1.9907000000000002E-11, -2.0185000000000003E-11, 9.71E-13, 1.9907000000000002E-11, 4.4617261233742268E-06, 2.91308184582101E-10, 9.71E-13
DataValue, 0.25, 0.1, 0, 2.8593E-11, -2.8365000000000004E-11, 9.6600000000000012E-13, 2.8593E-11, 5.3472422799046617E-06, 3.7185117346100832E-10, 9.6600000000000012E-13
DataValue, 0.3, 0.1, 0, 4.0833E-11, -4.0348000000000004E-11, 7.580000000000001E-13, 4.0833E-11, 6.3900704221471615E-06, 4.0584156505872203E-10, 7.580000000000001E-13
DataValue, 0.35000000000000003, 0.1, 0, 5.4196E-11, -5.5901000000000004E-11, 1.003E-12, 5.4196E-11, 7.3617932597975067E-06, 6.0161287330509352E-10, 1.003E-12
DataValue, 0.4, 0.1, 0, 7.8196E-11, -7.6261000000000012E-11, 1.418E-12, 7.8196E-11, 8.8428502192449234E-06, 8.0704483564140078E-10, 1.418E-12
DataValue, 0.45, 0.1, 0, 1.0409400000000001E-10, -1.0676600000000001E-10, 1.73E-12, 1.0409400000000001E-10, 1.0202646715436147E-05, 1.0495382651684767E-09, 1.73E-12
DataValue, 0.5, 0.1, 0, 1.45987E-10, -1.42366E-10, 1.8740000000000003E-12, 1.45987E-10, 1.2082508017791671E-05, 1.3917278890932817E-09, 1.8740000000000003E-12
DataValue, 0.55, 0.1, 0, 1.9413500000000002E-10, -1.8991600000000002E-10, 2.0950000000000003E-12, 1.9413500000000002E-10, 1.3933233651956033E-05, 1.6217166817404889E-09, 2.0950000000000003E-12
DataValue, 0.6, 0.1, 0, 2.5951800000000003E-10, -2.5198500000000004E-10, 1.429E-12, 2.5951800000000003E-10, 1.6109562377668737E-05, 1.9414399825028481E-09, 1.429E-12
DataValue, 0.65, 0.1, 0, 3.3633400000000005E-10, -3.29912E-10, 1.3360000000000002E-12, 3.3633400000000005E-10, 1.8339411113773529E-05, 2.3505782609406703E-09, 1.3360000000000002E-12
DataValue, 0.70000000000000007, 0.1, 0, 4.3923100000000005E-10, -4.2618200000000004E-10, 9.2200000000000011E-13, 4.3923100000000005E-10, 2.0957838629018978E-05, 2.9635386268315208E-09, 9.2200000000000011E-13
DataValue, 0.75, 0.1, 0, 5.65643E-10, -5.5066300000000007E-10, 1.322E-12, 5.65643E-10, 2.3783250408638431E-05, 3.4582160138114827E-09, 1.322E-12
DataValue, 0.8, 0.1, 0, 7.20305E-10, -7.0162700000000006E-10, 1.5320000000000001E-12, 7.20305E-10, 2.6838498467686303E-05, 4.1127304095600451E-09, 1.5320000000000001E-12
DataValue, 0.85000000000000009, 0.1, 0, 9.11817E-10, -8.8727000000000008E-10, 6.28E-13, 9.11817E-10, 3.0196307721309239E-05, 4.0804582924539552E-09, 6.28E-13
DataValue, 0.9, 0.1, 0, 1.10399E-09, -1.06413E-09, 2.0570000000000002E-12, 1.10399E-09, 3.3226344969015176E-05, 5.4832382111678383E-09, 2.0570000000000002E-12
DataValue, 0.95000000000000007, 0.1, 0, 1.41385E-09, -1.39867E-09, 1.5820000000000001E-12, 1.41385E-09, 3.7601196789464032E-05, 8.75817373886911E-09, 1.5820000000000001E-12
DataValue, 1, 0.1, 0, 1.81347E-09, -1.79339E-09, 2.415E-12, 1.81347E-09, 4.25848564633016E-05, 1.0633423909129843E-08, 2.415E-12
DataValue, 1.05, 0.1, 0, 2.29566E-09, -2.26497E-09, 3.0550000000000002E-12, 2.29566E-09, 4.7913046240037793E-05, 1.2451038568590085E-08, 3.0550000000000002E-12
DataValue, 1.1, 0.1, 0, 2.88834E-09, -2.84381E-09, 1.0620000000000001E-12, 2.88834E-09, 5.3743278649520447E-05, 1.4192438617835556E-08, 1.0620000000000001E-12
DataValue, 1.1500000000000001, 0.1, 0, 3.57918E-09, -3.52719E-09, 5.703E-12, 3.57918E-09, 5.9826248419903449E-05, 1.5592709021996972E-08, 5.703E-12
DataValue, 1.2, 0.1, 0, 4.38646E-09, -4.34856E-09, 1.023E-12, 4.38646E-09, 6.6230355578088208E-05, 1.7927033149704867E-08, 1.023E-12
DataValue, 1.25, 0.1, 0, 5.3605E-09, -5.30764E-09, 1.1040000000000001E-12, 5.3605E-09, 7.3215435531040862E-05, 2.0603582618532508E-08, 1.1040000000000001E-12
DataValue, 1.3, 0.1, 0, 6.49383E-09, -6.42151E-09, 1.3980000000000001E-12, 6.49383E-09, 8.0584303682541055E-05, 2.3026189600570098E-08, 1.3980000000000001E-12
DataValue, 1.35, 0.1, 0, 7.81276E-09, -7.73133E-09, 3.1360000000000004E-12, 7.81276E-09, 8.83898184181866E-05, 2.5629034888636024E-08, 3.1360000000000004E-12
DataValue, 1.4000000000000001, 0.1, 0, 9.33028E-09, -9.23262E-09, 1.825E-12, 9.33028E-09, 9.6593374513990351E-05, 2.6034630370371237E-08, 1.825E-12
DataValue, 1.4500000000000002, 0.1, 0, 1.092549E-08, -1.0664299999999998E-08, 4.617E-12, 1.092549E-08, 0.0001045250687634311, 2.3434613387856665E-08, 4.617E-12
DataValue, 1.5, 0.1, 0, 1.2522E-08, -1.24326E-08, 7.8400000000000009E-13, 1.2522E-08, 0.00011190174261377702, 3.0527296277550741E-08, 7.8400000000000009E-13
DataValue, 1.55, 0.1, 0, 1.4883299999999998E-08, -1.4750799999999998E-08, 3.718E-12, 1.4883299999999998E-08, 0.00012199713111380939, 4.0164360570520495E-08, 3.718E-12
DataValue, 1.6, 0.1, 0, 1.74089E-08, -1.7267299999999998E-08, 3.3790000000000004E-12, 1.74089E-08, 0.00013194279063291029, 4.0837757189324454E-08, 3.3790000000000004E-12
DataValue, 1.6500000000000001, 0.1, 0, 2.02224E-08, -2.00567E-08, 1.675E-12, 2.02224E-08, 0.00014220548512627773, 4.2973547988317622E-08, 1.675E-12
DataValue, 1.7000000000000002, 0.1, 0, 2.3308999999999997E-08, -2.3117599999999997E-08, 2.878E-12, 2.3308999999999997E-08, 0.00015267285285865329, 4.542315896414046E-08, 2.878E-12
DataValue, 1.75, 0.1, 0, 2.67382E-08, -2.6538099999999998E-08, 3.5580000000000004E-12, 2.67382E-08, 0.00016351819470627725, 4.792611872732898E-08, 3.5580000000000004E-12
DataValue, 1.8, 0.1, 0, 3.04729E-08, -3.02492E-08, 2.925E-12, 3.04729E-08, 0.00017456488764926352, 5.0364408625672452E-08, 2.925E-12
DataValue, 1.85, 0.1, 0, 3.4581199999999995E-08, -3.43415E-08, 3.0780000000000004E-12, 3.4581199999999995E-08, 0.00018596021079790158, 5.3246435930313705E-08, 3.0780000000000004E-12
DataValue, 1.9000000000000001, 0.1, 0, 3.9061599999999994E-08, -3.8816499999999996E-08, 3.647E-12, 3.9061599999999994E-08, 0.00019764007690749362, 5.6327309740389886E-08, 3.647E-12
DataValue, 1.9500000000000002, 0.1, 0, 4.39714E-08, -4.3676999999999995E-08, 3.7240000000000007E-12, 4.39714E-08, 0.00020969358597725397, 5.8767936551614749E-08, 3.7240000000000007E-12
DataValue, 2, 0.1, 0, 4.92317E-08, -4.89298E-08, 3.4280000000000003E-12, 4.92317E-08, 0.00022188217594029493, 6.1233079479168178E-08, 3.4280000000000003E-12
DataValue, 2.05, 0.1, 0, 5.49616E-08, -5.4623199999999996E-08, 3.4770000000000002E-12, 5.49616E-08, 0.00023443890462122535, 6.4185893743231269E-08, 3.4770000000000002E-12
DataValue, 2.1, 0.1, 0, 6.1116299999999993E-08, -6.077309999999999E-08, 4.209E-12, 6.1116299999999993E-08, 0.00024721711105827606, 6.6688100789697843E-08, 4.209E-12
DataValue, 2.15, 0.1, 0, 6.77368E-08, -6.7340699999999991E-08, 4.144E-12, 6.77368E-08, 0.00026026294396244731, 6.8755996433213581E-08, 4.144E-12
DataValue, 2.2, 0.1, 0, 7.4768599999999991E-08, -7.43879E-08, 4.257E-12, 7.4768599999999991E-08, 0.00027343847571254486, 7.1538263141860631E-08, 4.257E-12
DataValue, 2.25, 0.1, 0, 8.23745E-08, -8.1941399999999988E-08, 4.6400000000000004E-12, 8.23745E-08, 0.00028700958172158644, 7.4587735917584119E-08, 4.6400000000000004E-12
