
SetupTitle, Transfer stab
PrimitiveTest, I/V Sweep
TestParameter, Context.MainFrame, 4155C
TestParameter, Channel.UnitType, SMU, SMU, SMU
TestParameter, Channel.Unit, SMU3:MP, SMU4:MP, SMU1:MP
TestParameter, Channel.IName, ID, IS, IG
TestParameter, Channel.VName, VD, VS, VG
TestParameter, Channel.Mode, V, COMMON, V
TestParameter, Channel.Func, CONST, CONST, VAR1
TestParameter, Channel.Index, 
TestParameter, Channel.Time, 
TestParameter, Measurement.Port.Unit, SMU3:MP, SMU4:MP, SMU1:MP
TestParameter, Measurement.Port.SeriesResistor, NONE, NONE, NONE
TestParameter, Measurement.Port.Filter, ON, ON, ON
TestParameter, Measurement.Primary.Locus, Single
TestParameter, Measurement.Primary.Scale, LINEAR
TestParameter, Measurement.Primary.Start, -2
TestParameter, Measurement.Primary.Stop, 3
TestParameter, Measurement.Primary.Step, 0.05
TestParameter, Measurement.Primary.Compliance, 0.1
TestParameter, Measurement.Primary.PowerCompliance, 0
TestParameter, Measurement.Aborting.Condition, CONTINUE AT ANY
TestParameter, Measurement.PostOutput.Value, START
TestParameter, Measurement.PostOutput.Retention, OFF
TestParameter, Measurement.Bias.Source, 3, 0, -2
TestParameter, Measurement.Bias.Compliance, 0.1, 0.1, 0.1
TestParameter, Measurement.Monitor.Unit, SMU3:MP, SMU4:MP, SMU1:MP
TestParameter, Measurement.Monitor.Adc, HR ADC, HR ADC, HR ADC
TestParameter, Measurement.Monitor.RangingMode, AUTO, AUTO, AUTO
TestParameter, Measurement.Monitor.RangeBoundary, , , 
TestParameter, Measurement.Monitor.RangeRating, BY FULL RANGE, BY FULL RANGE, BY FULL RANGE
TestParameter, Measurement.Monitor.RangeRatingCoeff, 50, 50, 50
TestParameter, Measurement.Timing.Hold, 0.5
TestParameter, Measurement.Timing.Delay, 0.05
TestParameter, Measurement.Adc.HighResolution.AutoZero, OFF
TestParameter, Measurement.Adc.HighResolution.Mode, AUTO
TestParameter, Measurement.Adc.HighResolution.Coeff, 1
TestParameter, Measurement.Ag16440ASelector.SemiconductorRelay.Channel1, DEFAULT
TestParameter, Measurement.Ag16440ASelector.SemiconductorRelay.Channel3, DEFAULT
TestParameter, Function.User.Name, absID, sqrtID, gm2, absIG
TestParameter, Function.User.Unit, A, A, A/V, A
TestParameter, Function.User.Definition, abs(ID), sqrt(abs(ID)), (delta(sqrtID)/delta(VG))^2, abs(IG)
TestParameter, Output.Graph.Enabled, true
TestParameter, Output.Graph.XAxis.Data, VG
TestParameter, Output.Graph.XAxis.Scale, Linear
TestParameter, Output.Graph.XAxis.Left, -5
TestParameter, Output.Graph.XAxis.Right, 7
TestParameter, Output.Graph.YAxis.Data, ID, absIG, gm2
TestParameter, Output.Graph.YAxis.Scale, Log, Log, Linear
TestParameter, Output.Graph.YAxis.Bottom, 1E-14, 1E-14, 0
TestParameter, Output.Graph.YAxis.Top, 0.01, 0.01, 1E-05
TestParameter, Output.Graph.YAxis.Group, , , 
TestParameter, Output.List.Data, VG, IG, VD, ID, VS, IS, sqrtID, gm2, absIG
TestParameter, AutoAnalysis.Interpolation, false
TestParameter, AutoAnalysis.Line1.Enabled, false
TestParameter, AutoAnalysis.Line1.Type, 1
TestParameter, AutoAnalysis.Line1.Fix, True
TestParameter, AutoAnalysis.Line1.YAxis, 0
TestParameter, AutoAnalysis.Line1.Point1.Type, 0
TestParameter, AutoAnalysis.Line1.Point1.XY.X, 
TestParameter, AutoAnalysis.Line1.Point1.XY.Y, 
TestParameter, AutoAnalysis.Line1.Point1.Data.Var, 
TestParameter, AutoAnalysis.Line1.Point1.Data.Condition, 
TestParameter, AutoAnalysis.Line1.Point1.Data.Start, false
TestParameter, AutoAnalysis.Line1.Point1.Data.StartVar, 
TestParameter, AutoAnalysis.Line1.Point1.Data.StartCondition, 
TestParameter, AutoAnalysis.Line1.Point2.Type, 0
TestParameter, AutoAnalysis.Line1.Point2.XY.X, 
TestParameter, AutoAnalysis.Line1.Point2.XY.Y, 
TestParameter, AutoAnalysis.Line1.Point2.Data.Var, 
TestParameter, AutoAnalysis.Line1.Point2.Data.Condition, 
TestParameter, AutoAnalysis.Line1.Point2.Data.Start, false
TestParameter, AutoAnalysis.Line1.Point2.Data.StartVar, 
TestParameter, AutoAnalysis.Line1.Point2.Data.StartCondition, 
TestParameter, AutoAnalysis.Line1.GradientExpr, 0
TestParameter, AutoAnalysis.Line2.Enabled, false
TestParameter, AutoAnalysis.Line2.Type, 1
TestParameter, AutoAnalysis.Line2.Fix, True
TestParameter, AutoAnalysis.Line2.YAxis, 0
TestParameter, AutoAnalysis.Line2.Point1.Type, 0
TestParameter, AutoAnalysis.Line2.Point1.XY.X, 
TestParameter, AutoAnalysis.Line2.Point1.XY.Y, 
TestParameter, AutoAnalysis.Line2.Point1.Data.Var, 
TestParameter, AutoAnalysis.Line2.Point1.Data.Condition, 
TestParameter, AutoAnalysis.Line2.Point1.Data.Start, false
TestParameter, AutoAnalysis.Line2.Point1.Data.StartVar, 
TestParameter, AutoAnalysis.Line2.Point1.Data.StartCondition, 
TestParameter, AutoAnalysis.Line2.Point2.Type, 0
TestParameter, AutoAnalysis.Line2.Point2.XY.X, 
TestParameter, AutoAnalysis.Line2.Point2.XY.Y, 
TestParameter, AutoAnalysis.Line2.Point2.Data.Var, 
TestParameter, AutoAnalysis.Line2.Point2.Data.Condition, 
TestParameter, AutoAnalysis.Line2.Point2.Data.Start, false
TestParameter, AutoAnalysis.Line2.Point2.Data.StartVar, 
TestParameter, AutoAnalysis.Line2.Point2.Data.StartCondition, 
TestParameter, AutoAnalysis.Line2.GradientExpr, 0
TestParameter, AutoAnalysis.Marker.Enabled, false
TestParameter, AutoAnalysis.Marker.Data.Var, 
TestParameter, AutoAnalysis.Marker.Data.Condition, 
TestParameter, AutoAnalysis.Marker.Data.Start, false
TestParameter, AutoAnalysis.Marker.Data.StartVar, 
TestParameter, AutoAnalysis.Marker.Data.StartCondition, 
MetaData, TestRecord.EntryPoint, true
MetaData, TestRecord.RecordTime, 05/27/2019 10:35:18
MetaData, TestRecord.TestTarget, 150-300-G12-2
MetaData, TestRecord.IterationIndex, 1
MetaData, TestRecord.Preservation, true
MetaData, TestRecord.Flag, 
MetaData, TestRecord.Remarks, BAD
MetaData, TestRecord.LinkKey, 6bb48bfd-dba8-4380-84ab-d64d4a21c9e3
Dimension1, 101, 101, 101, 101, 101, 101, 101, 101, 101, 101
Dimension2, 1, 1, 1, 1, 1, 1, 1, 1, 1, 1
DataName, VG, VD, VS, ID, IS, IG, absID, sqrtID, gm2, absIG
DataValue, -2, 3, 0, 1.8201899999999999E-09, 0.0048307, -0.00482988, 1.8201899999999999E-09, 4.2663684791635142E-05, 8.9303518500811944E-09, 0.00482988
DataValue, -1.9500000000000002, 3, 0, 2.24569E-09, 0.00470885, -0.0047085, 2.24569E-09, 4.7388711736024224E-05, 6.9025691862184669E-09, 0.0047085
DataValue, -1.9000000000000001, 3, 0, 2.59813E-09, 0.00458799, -0.00458729, 2.59813E-09, 5.097185497899797E-05, 4.4225900684425618E-09, 0.00458729
DataValue, -1.85, 3, 0, 2.92021E-09, 0.00446689, -0.00446611, 2.92021E-09, 5.4038967421667121E-05, 3.3465145906194237E-09, 0.00446611
DataValue, -1.8, 3, 0, 3.22133E-09, 0.00434569, -0.0043447600000000005, 3.22133E-09, 5.67567617117115E-05, 2.7109803260897953E-09, 0.0043447600000000005
DataValue, -1.75, 3, 0, 3.51005E-09, 0.00422386, -0.0042232, 3.51005E-09, 5.9245674947628033E-05, 2.2712415875233885E-09, 0.0042232
DataValue, -1.7000000000000002, 3, 0, 3.78502E-09, 0.00410242, -0.0041021, 3.78502E-09, 6.1522516203419377E-05, 1.8444498884992641E-09, 0.0041021
DataValue, -1.6500000000000001, 3, 0, 4.03738E-09, 0.00398179, -0.00398105, 4.03738E-09, 6.3540380861307408E-05, 1.4825098785649944E-09, 0.00398105
DataValue, -1.6, 3, 0, 4.27361E-09, 0.0038606400000000003, -0.00386, 4.27361E-09, 6.5372853693257114E-05, 1.28075727269252E-09, 0.00386
DataValue, -1.55, 3, 0, 4.50498E-09, 0.0037391300000000002, -0.00373843, 4.50498E-09, 6.7119147789583853E-05, 1.1946391425662782E-09, 0.00373843
DataValue, -1.5, 3, 0, 4.73746E-09, 0.0036181300000000002, -0.00361779, 4.73746E-09, 6.8829208915982754E-05, 9.9246011295180351E-10, 0.00361779
DataValue, -1.4500000000000002, 3, 0, 4.9378E-09, 0.00349742, -0.00349702, 4.9378E-09, 7.0269481284551967E-05, 7.7828890678300331E-10, 0.00349702
DataValue, -1.4000000000000001, 3, 0, 5.12928E-09, 0.00337623, -0.00337557, 5.12928E-09, 7.1618991894608513E-05, 6.8067723730122593E-10, 0.00337557
DataValue, -1.35, 3, 0, 5.31127E-09, 0.0032549000000000002, -0.00325452, 5.31127E-09, 7.2878460466725E-05, 6.4469400131499457E-10, 0.00325452
DataValue, -1.3, 3, 0, 5.49942E-09, 0.00313417, -0.00313373, 5.49942E-09, 7.4158074408657625E-05, 6.0113837136148979E-10, 0.00313373
DataValue, -1.25, 3, 0, 5.67465E-09, 0.00301343, -0.00301287, 5.67465E-09, 7.533027279918744E-05, 5.1716115950768422E-10, 0.00301287
DataValue, -1.2, 3, 0, 5.84188E-09, 0.00289267, -0.00289199, 5.84188E-09, 7.6432192170576926E-05, 4.3600416713464647E-10, 0.00289199
DataValue, -1.1500000000000001, 3, 0, 5.9936E-09, 0.0027732300000000002, -0.00277273, 5.9936E-09, 7.7418344079423451E-05, 3.5654479979252653E-10, 0.00277273
DataValue, -1.1, 3, 0, 6.13409E-09, 0.0026527400000000002, -0.00265212, 6.13409E-09, 7.83204315616302E-05, 3.7188287322741243E-10, 0.00265212
DataValue, -1.05, 3, 0, 6.29591E-09, 0.0025318100000000002, -0.00253114, 6.29591E-09, 7.93467705707044E-05, 3.8216618368574882E-10, 0.00253114
DataValue, -1, 3, 0, 6.44413E-09, 0.002411, -0.00241057, 6.44413E-09, 8.027533867882465E-05, 2.929164094801314E-10, 0.00241057
DataValue, -0.95000000000000007, 3, 0, 6.57044E-09, 0.00228998, -0.00228956, 6.57044E-09, 8.1058250659633656E-05, 1.8339972453177777E-10, 0.00228956
DataValue, -0.9, 3, 0, 6.66339E-09, 0.00216949, -0.00216894, 6.66339E-09, 8.1629590223153759E-05, 2.1781730685679597E-10, 0.00216894
DataValue, -0.85000000000000009, 3, 0, 6.81188E-09, 0.00204873, -0.00204825, 6.81188E-09, 8.25341141589343E-05, 2.3752910220642987E-10, 0.00204825
DataValue, -0.8, 3, 0, 6.91738E-09, 0.0019279100000000001, -0.00192741, 6.91738E-09, 8.3170788141029428E-05, 1.7225825863059718E-10, 0.00192741
DataValue, -0.75, 3, 0, 7.03025E-09, 0.00180719, -0.00180664, 7.03025E-09, 8.3846586096274672E-05, 1.4246811522695939E-10, 0.00180664
DataValue, -0.70000000000000007, 3, 0, 7.11735E-09, 0.00168677, -0.0016863100000000001, 7.11735E-09, 8.4364388221571312E-05, 9.3264625669283993E-11, 0.0016863100000000001
DataValue, -0.65, 3, 0, 7.19313E-09, 0.00156603, -0.00156547, 7.19313E-09, 8.481232221794189E-05, 7.3409697143126462E-11, 0.00156547
DataValue, -0.6, 3, 0, 7.26265E-09, 0.00144549, -0.00144503, 7.26265E-09, 8.5221182812725613E-05, 7.5243541105080112E-11, 0.00144503
DataValue, -0.55, 3, 0, 7.34102E-09, 0.00132464, -0.00132423, 7.34102E-09, 8.5679752567336469E-05, 9.6627606418731241E-11, 0.00132423
DataValue, -0.5, 3, 0, 7.43116E-09, 0.00120397, -0.00120353, 7.43116E-09, 8.6204176232941289E-05, 6.3218284649459249E-11, 0.00120353
DataValue, -0.45, 3, 0, 7.4779E-09, 0.00108338, -0.00108287, 7.4779E-09, 8.647485183566376E-05, 4.0937197741461573E-11, 0.00108287
DataValue, -0.4, 3, 0, 7.54188E-09, 0.000962452, -0.00096244100000000008, 7.54188E-09, 8.684399806549674E-05, 3.7433487296821675E-11, 0.00096244100000000008
DataValue, -0.35000000000000003, 3, 0, 7.58409E-09, 0.00084180600000000006, -0.00084179400000000009, 7.58409E-09, 8.708668095638965E-05, 2.4304205077638985E-11, 0.00084179400000000009
DataValue, -0.3, 3, 0, 7.62775E-09, 0.00072132400000000008, -0.000721322, 7.62775E-09, 8.7336991017552233E-05, 4.6247526453270007E-11, 0.000721322
DataValue, -0.25, 3, 0, 7.703E-09, 0.000600845, -0.000600763, 7.703E-09, 8.7766736295706018E-05, 3.4712268744873769E-11, 0.000600763
DataValue, -0.2, 3, 0, 7.73101E-09, 0.00047998, -0.00047993000000000005, 7.73101E-09, 8.7926162204431512E-05, 5.6310199726640128E-12, 0.00047993000000000005
DataValue, -0.15, 3, 0, 7.74471E-09, 0.000359452, -0.000359427, 7.74471E-09, 8.8004033998448038E-05, 9.97872895061914E-12, 0.000359427
DataValue, -0.1, 3, 0, 7.78666E-09, 0.00023881700000000003, -0.000238778, 7.78666E-09, 8.8242053466587E-05, 1.4579002436661164E-11, 0.000238778
DataValue, -0.05, 3, 0, 7.81206E-09, 0.000118339, -0.00011831100000000001, 7.81206E-09, 8.8385858597402338E-05, 9.1684162386719433E-12, 0.00011831100000000001
DataValue, 0, 3, 0, 7.84019E-09, -3.04529E-07, 3.18096E-07, 7.84019E-09, 8.8544847393848963E-05, 2.3704590588536306E-12, 3.18096E-07
DataValue, 0.05, 3, 0, 7.8393E-09, -0.000120785, 0.00012080800000000001, 7.8393E-09, 8.853982154940228E-05, 6.5102852425667888E-12, 0.00012080800000000001
DataValue, 0.1, 3, 0, 7.88544E-09, -0.000241264, 0.00024129700000000002, 7.88544E-09, 8.88E-05, 4.4850758591328463E-11, 0.00024129700000000002
DataValue, 0.15, 3, 0, 7.95834E-09, -0.000361601, 0.00036165300000000003, 7.95834E-09, 8.9209528639041686E-05, 1.3123796200912847E-11, 0.00036165300000000003
DataValue, 0.2, 3, 0, 7.94991E-09, -0.00048221900000000004, 0.000482203, 7.94991E-09, 8.9162267804267963E-05, 4.7949999463041706E-13, 0.000482203
DataValue, 0.25, 3, 0, 7.94599E-09, -0.000602525, 0.00060255600000000008, 7.94599E-09, 8.9140282700920348E-05, 1.3775678875253527E-13, 0.00060255600000000008
DataValue, 0.3, 3, 0, 7.95653E-09, -0.0007229230000000001, 0.000722999, 7.95653E-09, 8.9199383405940647E-05, 1.0956133042381629E-13, 0.000722999
DataValue, 0.35000000000000003, 3, 0, 7.94009E-09, -0.000843361, 0.0008433510000000001, 7.94009E-09, 8.9107182651007423E-05, 1.6645634978003286E-12, 0.0008433510000000001
DataValue, 0.4, 3, 0, 7.93353E-09, -0.000963863, 0.0009638750000000001, 7.93353E-09, 8.9070365442160392E-05, 5.8456992489806162E-12, 0.0009638750000000001
DataValue, 0.45, 3, 0, 7.89706E-09, -0.001084125, 0.001084083, 7.89706E-09, 8.886540384199016E-05, 1.5248379826457344E-11, 0.001084083
DataValue, 0.5, 3, 0, 7.86412E-09, -0.00120444, 0.00120472, 7.86412E-09, 8.86798737031126E-05, 1.6021564614488868E-11, 0.00120472
DataValue, 0.55, 3, 0, 7.82608E-09, -0.00132276, 0.00132326, 7.82608E-09, 8.8465134375074572E-05, 4.4453325340313141E-12, 0.00132326
DataValue, 0.6, 3, 0, 7.82677E-09, -0.0014436, 0.00144391, 7.82677E-09, 8.8469034130592839E-05, 3.971488579940262E-12, 0.00144391
DataValue, 0.65, 3, 0, 7.79086E-09, -0.00156375, 0.00156402, 7.79086E-09, 8.8265848435281012E-05, 1.436586969407523E-11, 0.00156402
DataValue, 0.70000000000000007, 3, 0, 7.75985E-09, -0.00168425, 0.0016845900000000001, 7.75985E-09, 8.8090010784424357E-05, 2.1887578532678988E-11, 0.0016845900000000001
DataValue, 0.75, 3, 0, 7.70849E-09, -0.00180463, 0.0018049700000000001, 7.70849E-09, 8.7798006811088818E-05, 3.05608502599656E-11, 0.0018049700000000001
DataValue, 0.8, 3, 0, 7.66276E-09, -0.0019249500000000001, 0.00192516, 7.66276E-09, 8.753719209570295E-05, 3.4584708464657822E-11, 0.00192516
DataValue, 0.85000000000000009, 3, 0, 7.60557E-09, -0.00204518, 0.00204557, 7.60557E-09, 8.720991916060925E-05, 3.2047480989364721E-11, 0.00204557
DataValue, 0.9, 3, 0, 7.56397E-09, -0.00216569, 0.00216605, 7.56397E-09, 8.69710871496959E-05, 3.590176267296313E-11, 0.00216605
DataValue, 0.95000000000000007, 3, 0, 7.50142E-09, -0.0022860800000000002, 0.00228614, 7.50142E-09, 8.6610738364246723E-05, 3.4914045510126175E-11, 0.00228614
DataValue, 1, 3, 0, 7.46154E-09, -0.00240648, 0.00240668, 7.46154E-09, 8.6380206065973241E-05, 4.0106820996583031E-11, 0.00240668
DataValue, 1.05, 3, 0, 7.39212E-09, -0.00252725, 0.0025276, 7.39212E-09, 8.597743890114429E-05, 4.2552480152526225E-11, 0.0025276
DataValue, 1.1, 3, 0, 7.34927E-09, -0.00264758, 0.00264797, 7.34927E-09, 8.5727883445236184E-05, 5.1688850974417391E-11, 0.00264797
DataValue, 1.1500000000000001, 3, 0, 7.26901E-09, -0.0027679000000000002, 0.00276799, 7.26901E-09, 8.5258489313381577E-05, 6.7229059584058753E-11, 0.00276799
DataValue, 1.2, 3, 0, 7.20936E-09, -0.00288829, 0.00288847, 7.20936E-09, 8.4907950157803245E-05, 5.0315190638369558E-11, 0.00288847
DataValue, 1.25, 3, 0, 7.14856E-09, -0.0030087, 0.00300886, 7.14856E-09, 8.454915729917124E-05, 6.1847358142501285E-11, 0.00300886
DataValue, 1.3, 3, 0, 7.07643E-09, -0.00312898, 0.0031295200000000002, 7.07643E-09, 8.4121519244483446E-05, 9.5412543622852885E-11, 0.0031295200000000002
DataValue, 1.35, 3, 0, 6.98434E-09, -0.00324939, 0.00324966, 6.98434E-09, 8.35723638531303E-05, 1.0782083623026896E-10, 0.00324966
DataValue, 1.4000000000000001, 3, 0, 6.90281E-09, -0.00337038, 0.00337091, 6.90281E-09, 8.3083151119826929E-05, 8.7472182966182888E-11, 0.00337091
DataValue, 1.4500000000000002, 3, 0, 6.82889E-09, -0.0034909100000000003, 0.0034913500000000003, 6.82889E-09, 8.2637098206556116E-05, 8.71253842402038E-11, 0.0034913500000000003
DataValue, 1.5, 3, 0, 6.74858E-09, -0.00361137, 0.00361168, 6.74858E-09, 8.214974132643389E-05, 1.0523158546023541E-10, 0.00361168
DataValue, 1.55, 3, 0, 6.6604E-09, -0.00373217, 0.00373237, 6.6604E-09, 8.1611273731023215E-05, 1.1791301924263498E-10, 0.00373237
DataValue, 1.6, 3, 0, 6.57135E-09, -0.00385255, 0.00385295, 6.57135E-09, 8.1063863712507554E-05, 1.2518291880361663E-10, 0.00385295
DataValue, 1.6500000000000001, 3, 0, 6.47903E-09, -0.00397386, 0.00397413, 6.47903E-09, 8.0492422003565028E-05, 1.1547961836315019E-10, 0.00397413
DataValue, 1.7000000000000002, 3, 0, 6.39828E-09, -0.00409437, 0.00409488, 6.39828E-09, 7.99892492776373E-05, 1.2815178674364406E-10, 0.00409488
DataValue, 1.75, 3, 0, 6.29807E-09, -0.00421525, 0.00421546, 6.29807E-09, 7.936038054344246E-05, 1.6977398713988289E-10, 0.00421546
DataValue, 1.8, 3, 0, 6.19153E-09, -0.00433543, 0.00433548, 6.19153E-09, 7.8686275804615378E-05, 1.5636452056429668E-10, 0.00433548
DataValue, 1.85, 3, 0, 6.10116E-09, -0.00445568, 0.00445594, 6.10116E-09, 7.8109922545090268E-05, 1.3834745323018042E-10, 0.00445594
DataValue, 1.9000000000000001, 3, 0, 6.00781E-09, -0.00457673, 0.00457724, 6.00781E-09, 7.7510063862701079E-05, 1.5632757562559894E-10, 0.00457724
DataValue, 1.9500000000000002, 3, 0, 5.9074E-09, -0.00469792, 0.00469759, 5.9074E-09, 7.685961228109337E-05, 1.5269315281474946E-10, 0.00469759
DataValue, 2, 3, 0, 5.81778E-09, -0.00481865, 0.00481888, 5.81778E-09, 7.62743731537664E-05, 1.7924401759821971E-10, 0.00481888
DataValue, 2.05, 3, 0, 5.70339E-09, -0.00493916, 0.00493929, 5.70339E-09, 7.5520791839069054E-05, 2.05427670590186E-10, 0.00493929
DataValue, 2.1, 3, 0, 5.60119E-09, -0.00505966, 0.00505988, 5.60119E-09, 7.4841098335072558E-05, 1.901367543622752E-10, 0.00505988
DataValue, 2.15, 3, 0, 5.49702E-09, -0.00518057, 0.00518088, 5.49702E-09, 7.4141890992879324E-05, 2.0202250894730248E-10, 0.00518088
DataValue, 2.2, 3, 0, 5.39046E-09, -0.00530178, 0.00530148, 5.39046E-09, 7.34197521107229E-05, 2.1686693774851409E-10, 0.00530148
DataValue, 2.25, 3, 0, 5.28082E-09, -0.00542257, 0.0054230400000000005, 5.28082E-09, 7.26692507185811E-05, 2.1952977475001493E-10, 0.0054230400000000005
DataValue, 2.3000000000000003, 3, 0, 5.17509E-09, -0.00554347, 0.0055435300000000005, 5.17509E-09, 7.1938098390213228E-05, 1.949134647816341E-10, 0.0055435300000000005
DataValue, 2.35, 3, 0, 5.07986E-09, -0.0056634400000000005, 0.0056634400000000005, 5.07986E-09, 7.1273136594371929E-05, 2.2054162389723413E-10, 0.0056634400000000005
DataValue, 2.4, 3, 0, 4.96363E-09, -0.00578401, 0.0057837800000000005, 4.96363E-09, 7.0453034001382789E-05, 2.3438647785661781E-10, 0.0057837800000000005
DataValue, 2.45, 3, 0, 4.86397E-09, -0.00590509, 0.00590511, 4.86397E-09, 6.974216801906864E-05, 2.5882036778883542E-10, 0.00590511
DataValue, 2.5, 3, 0, 4.73953E-09, -0.00602566, 0.00602554, 4.73953E-09, 6.8844244494365678E-05, 2.9785459635717183E-10, 0.00602554
DataValue, 2.5500000000000003, 3, 0, 4.62622E-09, -0.0061465, 0.0061467, 4.62622E-09, 6.8016321570634792E-05, 2.640548376517507E-10, 0.0061467
DataValue, 2.6, 3, 0, 4.51843E-09, -0.00626769, 0.00626766, 4.51843E-09, 6.7219268070992861E-05, 2.46073499430473E-10, 0.00626766
DataValue, 2.65, 3, 0, 4.41529E-09, -0.00638705, 0.00638664, 4.41529E-09, 6.6447648566371408E-05, 2.5592281442085819E-10, 0.00638664
DataValue, 2.7, 3, 0, 4.30592E-09, -0.00650755, 0.00650727, 4.30592E-09, 6.5619509294111614E-05, 2.7568660573978276E-10, 0.00650727
DataValue, 2.75, 3, 0, 4.19739E-09, -0.00662892, 0.00662861, 4.19739E-09, 6.47872672675735E-05, 2.9210339385010183E-10, 0.00662861
DataValue, 2.8000000000000003, 3, 0, 4.08454E-09, -0.00674839, 0.00674832, 4.08454E-09, 6.3910406038453541E-05, 3.2019887248653415E-10, 0.00674832
DataValue, 2.85, 3, 0, 3.96873E-09, -0.0068695, 0.00686993, 3.96873E-09, 6.2997857106412747E-05, 3.2874897828423683E-10, 0.00686993
DataValue, 2.9, 3, 0, 3.85607E-09, -0.00699007, 0.00699006, 3.85607E-09, 6.2097262419530223E-05, 3.0733674251636759E-10, 0.00699006
