
SetupTitle, Transfer lin
PrimitiveTest, I/V Sweep
TestParameter, Context.MainFrame, 4155C
TestParameter, Channel.UnitType, SMU, SMU, SMU
TestParameter, Channel.Unit, SMU1:MP, SMU4:MP, SMU3:MP
TestParameter, Channel.IName, ID, IS, IG
TestParameter, Channel.VName, VD, VS, VG
TestParameter, Channel.Mode, V, COMMON, V
TestParameter, Channel.Func, CONST, CONST, VAR1
TestParameter, Channel.Index, 
TestParameter, Channel.Time, 
TestParameter, Measurement.Port.Unit, SMU1:MP, SMU4:MP, SMU3:MP
TestParameter, Measurement.Port.SeriesResistor, NONE, NONE, NONE
TestParameter, Measurement.Port.Filter, ON, ON, ON
TestParameter, Measurement.Primary.Locus, Double
TestParameter, Measurement.Primary.Scale, LINEAR
TestParameter, Measurement.Primary.Start, -2
TestParameter, Measurement.Primary.Stop, 3
TestParameter, Measurement.Primary.Step, 0.05
TestParameter, Measurement.Primary.Compliance, 0.001
TestParameter, Measurement.Primary.PowerCompliance, 0
TestParameter, Measurement.Aborting.Condition, CONTINUE AT ANY
TestParameter, Measurement.PostOutput.Value, START
TestParameter, Measurement.PostOutput.Retention, OFF
TestParameter, Measurement.Bias.Source, 0.1, 0, -2
TestParameter, Measurement.Bias.Compliance, 0.001, 0.1, 0.001
TestParameter, Measurement.Monitor.Unit, SMU1:MP, SMU4:MP, SMU3:MP
TestParameter, Measurement.Monitor.Adc, HR ADC, HR ADC, HR ADC
TestParameter, Measurement.Monitor.RangingMode, AUTO, AUTO, AUTO
TestParameter, Measurement.Monitor.RangeBoundary, , , 
TestParameter, Measurement.Monitor.RangeRating, BY FULL RANGE, BY FULL RANGE, BY FULL RANGE
TestParameter, Measurement.Monitor.RangeRatingCoeff, 50, 50, 50
TestParameter, Measurement.Timing.Hold, 0.5
TestParameter, Measurement.Timing.Delay, 0.05
TestParameter, Measurement.Adc.HighResolution.AutoZero, OFF
TestParameter, Measurement.Adc.HighResolution.Mode, AUTO
TestParameter, Measurement.Adc.HighResolution.Coeff, 1
TestParameter, Measurement.Ag16440ASelector.SemiconductorRelay.Channel1, DEFAULT
TestParameter, Measurement.Ag16440ASelector.SemiconductorRelay.Channel3, DEFAULT
TestParameter, Function.User.Name, absID, sqrtID, gm2, absIG
TestParameter, Function.User.Unit, A, A, A/V, A
TestParameter, Function.User.Definition, abs(ID), sqrt(abs(ID)), (delta(sqrtID)/delta(VG))^2, abs(IG)
TestParameter, Output.Graph.Enabled, true
TestParameter, Output.Graph.XAxis.Data, VG
TestParameter, Output.Graph.XAxis.Scale, Linear
TestParameter, Output.Graph.XAxis.Left, -5
TestParameter, Output.Graph.XAxis.Right, 7
TestParameter, Output.Graph.YAxis.Data, ID, absIG, gm2
TestParameter, Output.Graph.YAxis.Scale, Log, Log, Linear
TestParameter, Output.Graph.YAxis.Bottom, 1E-14, 1E-14, 0
TestParameter, Output.Graph.YAxis.Top, 0.01, 0.01, 1E-05
TestParameter, Output.Graph.YAxis.Group, , , 
TestParameter, Output.List.Data, VG, IG, VD, ID, VS, IS, sqrtID, gm2, absIG
TestParameter, AutoAnalysis.Interpolation, false
TestParameter, AutoAnalysis.Line1.Enabled, false
TestParameter, AutoAnalysis.Line1.Type, 1
TestParameter, AutoAnalysis.Line1.Fix, True
TestParameter, AutoAnalysis.Line1.YAxis, 0
TestParameter, AutoAnalysis.Line1.Point1.Type, 0
TestParameter, AutoAnalysis.Line1.Point1.XY.X, 
TestParameter, AutoAnalysis.Line1.Point1.XY.Y, 
TestParameter, AutoAnalysis.Line1.Point1.Data.Var, 
TestParameter, AutoAnalysis.Line1.Point1.Data.Condition, 
TestParameter, AutoAnalysis.Line1.Point1.Data.Start, false
TestParameter, AutoAnalysis.Line1.Point1.Data.StartVar, 
TestParameter, AutoAnalysis.Line1.Point1.Data.StartCondition, 
TestParameter, AutoAnalysis.Line1.Point2.Type, 0
TestParameter, AutoAnalysis.Line1.Point2.XY.X, 
TestParameter, AutoAnalysis.Line1.Point2.XY.Y, 
TestParameter, AutoAnalysis.Line1.Point2.Data.Var, 
TestParameter, AutoAnalysis.Line1.Point2.Data.Condition, 
TestParameter, AutoAnalysis.Line1.Point2.Data.Start, false
TestParameter, AutoAnalysis.Line1.Point2.Data.StartVar, 
TestParameter, AutoAnalysis.Line1.Point2.Data.StartCondition, 
TestParameter, AutoAnalysis.Line1.GradientExpr, 0
TestParameter, AutoAnalysis.Line2.Enabled, false
TestParameter, AutoAnalysis.Line2.Type, 1
TestParameter, AutoAnalysis.Line2.Fix, True
TestParameter, AutoAnalysis.Line2.YAxis, 0
TestParameter, AutoAnalysis.Line2.Point1.Type, 0
TestParameter, AutoAnalysis.Line2.Point1.XY.X, 
TestParameter, AutoAnalysis.Line2.Point1.XY.Y, 
TestParameter, AutoAnalysis.Line2.Point1.Data.Var, 
TestParameter, AutoAnalysis.Line2.Point1.Data.Condition, 
TestParameter, AutoAnalysis.Line2.Point1.Data.Start, false
TestParameter, AutoAnalysis.Line2.Point1.Data.StartVar, 
TestParameter, AutoAnalysis.Line2.Point1.Data.StartCondition, 
TestParameter, AutoAnalysis.Line2.Point2.Type, 0
TestParameter, AutoAnalysis.Line2.Point2.XY.X, 
TestParameter, AutoAnalysis.Line2.Point2.XY.Y, 
TestParameter, AutoAnalysis.Line2.Point2.Data.Var, 
TestParameter, AutoAnalysis.Line2.Point2.Data.Condition, 
TestParameter, AutoAnalysis.Line2.Point2.Data.Start, false
TestParameter, AutoAnalysis.Line2.Point2.Data.StartVar, 
TestParameter, AutoAnalysis.Line2.Point2.Data.StartCondition, 
TestParameter, AutoAnalysis.Line2.GradientExpr, 0
TestParameter, AutoAnalysis.Marker.Enabled, false
TestParameter, AutoAnalysis.Marker.Data.Var, 
TestParameter, AutoAnalysis.Marker.Data.Condition, 
TestParameter, AutoAnalysis.Marker.Data.Start, false
TestParameter, AutoAnalysis.Marker.Data.StartVar, 
TestParameter, AutoAnalysis.Marker.Data.StartCondition, 
MetaData, TestRecord.EntryPoint, true
MetaData, TestRecord.RecordTime, 04/23/2019 16:16:26
MetaData, TestRecord.TestTarget, 35
MetaData, TestRecord.IterationIndex, 1
MetaData, TestRecord.Preservation, true
MetaData, TestRecord.Flag, 
MetaData, TestRecord.Remarks, 250-180-G35
MetaData, TestRecord.LinkKey, 2b0b2117-2e71-46d2-ba4a-0f016df18f68
Dimension1, 202, 202, 202, 202, 202, 202, 202, 202, 202, 202
Dimension2, 1, 1, 1, 1, 1, 1, 1, 1, 1, 1
DataName, VG, VD, VS, ID, IS, IG, absID, sqrtID, gm2, absIG
DataValue, -2, 0.1, 0, -4.6420000000000006E-12, -7.74E-13, 6.7500000000000005E-13, 4.6420000000000006E-12, 2.1545301111843393E-06, 5.3688425183433889E-10, 6.7500000000000005E-13
DataValue, -1.9500000000000002, 0.1, 0, 9.92E-13, -6.4780000000000005E-12, -2.264E-12, 9.92E-13, 9.9599196783909863E-07, 2.8230332683725104E-10, 2.264E-12
DataValue, -1.9000000000000001, 0.1, 0, 2.2500000000000003E-13, 3.9300000000000004E-13, -2.6810000000000004E-12, 2.2500000000000003E-13, 4.7434164902525693E-07, 8.99628342128784E-11, 2.6810000000000004E-12
DataValue, -1.85, 0.1, 0, 3.781E-12, 2.1300000000000003E-13, -1.268E-12, 3.781E-12, 1.9444793647657977E-06, 5.22350406155137E-11, 1.268E-12
DataValue, -1.8, 0.1, 0, -1.433E-12, -2.4160000000000002E-12, 1.81E-13, 1.433E-12, 1.1970797801316334E-06, 3.780008702379376E-11, 1.81E-13
DataValue, -1.75, 0.1, 0, 1.7680000000000001E-12, 6.8640000000000006E-12, -3.9300000000000004E-13, 1.7680000000000001E-12, 1.329661611087573E-06, 6.0831686706944084E-11, 3.9300000000000004E-13
DataValue, -1.7000000000000002, 0.1, 0, 1.7400000000000002E-13, 5.63E-12, -3.5500000000000005E-13, 1.7400000000000002E-13, 4.1713307229228423E-07, 1.0380609137748334E-11, 3.5500000000000005E-13
DataValue, -1.6500000000000001, 0.1, 0, -1.015E-12, -5.2580000000000004E-12, 1.3000000000000001E-14, 1.015E-12, 1.0074720839804942E-06, 1.4516667227871666E-12, 1.3000000000000001E-14
DataValue, -1.6, 0.1, 0, 8.8E-14, -8.0900000000000009E-13, 6.3000000000000009E-14, 8.8E-14, 2.9664793948382653E-07, 4.8152400260024835E-12, 6.3000000000000009E-14
DataValue, -1.55, 0.1, 0, -6.2100000000000008E-13, -4.023E-12, 9.76E-13, 6.2100000000000008E-13, 7.8803553219382184E-07, 5.9236740520267136E-11, 9.76E-13
DataValue, -1.5, 0.1, 0, 1.1370000000000001E-12, 1.1650000000000002E-12, -7.590000000000001E-13, 1.1370000000000001E-12, 1.0663020210053061E-06, 1.8857948515906898E-11, 7.590000000000001E-13
DataValue, -1.4500000000000002, 0.1, 0, 1.494E-12, -8.44E-13, 6.52E-13, 1.494E-12, 1.2222929272478018E-06, 8.19127930764945E-11, 6.52E-13
DataValue, -1.4000000000000001, 0.1, 0, -2.6000000000000003E-14, 4.1290000000000007E-12, -5.39E-13, 2.6000000000000003E-14, 1.61245154965971E-07, 1.4963666307877505E-11, 5.39E-13
DataValue, -1.35, 0.1, 0, -6.9800000000000006E-13, -8.1600000000000006E-13, -3.1030000000000004E-12, 6.9800000000000006E-13, 8.3546394296821694E-07, 5.168439841743559E-12, 3.1030000000000004E-12
DataValue, -1.3, 0.1, 0, -1.5100000000000001E-13, -4.819E-12, 1.6540000000000002E-12, 1.5100000000000001E-13, 3.8858718455450897E-07, 4.274952280536E-11, 1.6540000000000002E-12
DataValue, -1.25, 0.1, 0, -2.218E-12, -5.353E-12, 9.99E-13, 2.218E-12, 1.4892951352905172E-06, 8.2191463484062444E-12, 9.99E-13
DataValue, -1.2, 0.1, 0, 4.5600000000000008E-13, -3.4900000000000003E-12, 2.23E-13, 4.5600000000000008E-13, 6.7527772064536529E-07, 1.9166028169141136E-10, 2.23E-13
DataValue, -1.1500000000000001, 0.1, 0, 1.1E-14, -2.97E-12, 6.7500000000000005E-13, 1.1E-14, 1.0488088481701516E-07, 1.0887727383989331E-10, 6.7500000000000005E-13
DataValue, -1.1, 0.1, 0, 2.954E-12, -3.8010000000000005E-12, -2E-12, 2.954E-12, 1.7187204542915058E-06, 1.4016594739962187E-10, 2E-12
DataValue, -1.05, 0.1, 0, -1.661E-12, -3.2E-12, -8.8600000000000006E-13, 1.661E-12, 1.2887978895078934E-06, 6.6216345656027646E-11, 8.8600000000000006E-13
DataValue, -1, 0.1, 0, 8.19E-13, -3.2770000000000003E-12, 4.0500000000000004E-13, 8.19E-13, 9.0498618773990138E-07, 8.7733486350967577E-11, 4.0500000000000004E-13
DataValue, -0.95000000000000007, 0.1, 0, 1.24E-13, -3.4540000000000004E-12, 9.23E-13, 1.24E-13, 3.5213633723318021E-07, 2.9647105782175324E-12, 9.23E-13
DataValue, -0.9, 0.1, 0, -5.37E-13, 3.3400000000000003E-12, 9.3100000000000017E-13, 5.37E-13, 7.328028384224505E-07, 4.3989441339058207E-11, 9.3100000000000017E-13
DataValue, -0.85000000000000009, 0.1, 0, -1.0310000000000002E-12, 2.687E-12, 1.17E-12, 1.0310000000000002E-12, 1.015381701627521E-06, 2.8440198318709151E-11, 1.17E-12
DataValue, -0.8, 0.1, 0, -1.6030000000000001E-12, 1.5340000000000001E-12, -2.294E-12, 1.6030000000000001E-12, 1.2660963628413125E-06, 1.0433743432173834E-12, 2.294E-12
DataValue, -0.75, 0.1, 0, 8.3400000000000008E-13, -8.615E-12, 1.1310000000000001E-12, 8.3400000000000008E-13, 9.1323600454646992E-07, 8.79480657224378E-12, 1.1310000000000001E-12
DataValue, -0.70000000000000007, 0.1, 0, 9.4E-13, -4.165E-12, -4.13E-13, 9.4E-13, 9.69535971483266E-07, 3.4372979350671648E-12, 4.13E-13
DataValue, -0.65, 0.1, 0, -1.207E-12, -2.336E-12, 5.9600000000000009E-13, 1.207E-12, 1.0986355173577814E-06, 7.2456591360479926E-11, 5.9600000000000009E-13
DataValue, -0.6, 0.1, 0, -1.4E-14, -6.9430000000000006E-12, 1.59E-13, 1.4E-14, 1.1832159566199232E-07, 4.2727611259619929E-11, 1.59E-13
DataValue, -0.55, 0.1, 0, 1.9800000000000002E-13, -2.322E-12, 4.8000000000000008E-13, 1.9800000000000002E-13, 4.4497190922573977E-07, 2.5540596218003943E-11, 4.8000000000000008E-13
DataValue, -0.5, 0.1, 0, -3.89E-13, -3.658E-12, -4E-15, 3.89E-13, 6.2369864518050708E-07, 8.4817582653502441E-12, 4E-15
DataValue, -0.45, 0.1, 0, 5.42E-13, -1.8660000000000003E-12, 6.77E-13, 5.42E-13, 7.3620649277223844E-07, 1.0049772187802986E-12, 6.77E-13
DataValue, -0.4, 0.1, 0, 2.7400000000000004E-13, 1.7770000000000002E-12, -9.72E-13, 2.7400000000000004E-13, 5.23450093132096E-07, 1.901576778920374E-10, 9.72E-13
DataValue, -0.35000000000000003, 0.1, 0, 4.4740000000000005E-12, -4.1000000000000007E-12, 8.48E-13, 4.4740000000000005E-12, 2.1151832071950648E-06, 9.2252414241262836E-10, 8.48E-13
DataValue, -0.3, 0.1, 0, 1.2679000000000001E-11, -1.0559000000000001E-11, -1.8740000000000003E-12, 1.2679000000000001E-11, 3.5607583461953721E-06, 1.6213179124626384E-09, 1.8740000000000003E-12
DataValue, -0.25, 0.1, 0, 3.7721E-11, -3.2032E-11, -2.03E-12, 3.7721E-11, 6.1417424237751946E-06, 4.2309537696803342E-09, 2.03E-12
DataValue, -0.2, 0.1, 0, 1.01311E-10, -9.3041E-11, -1.03E-13, 1.01311E-10, 1.0065336556717814E-05, 9.9424264105409057E-09, 1.03E-13
DataValue, -0.15, 0.1, 0, 2.5962600000000003E-10, -2.4437300000000003E-10, -2.6600000000000003E-13, 2.5962600000000003E-10, 1.6112914075362037E-05, 2.2586980656719827E-08, 2.6600000000000003E-13
DataValue, -0.1, 0.1, 0, 6.29724E-10, -5.92614E-10, -1.7030000000000001E-12, 6.29724E-10, 2.5094302142119833E-05, 4.1744384402449252E-08, 1.7030000000000001E-12
DataValue, -0.05, 0.1, 0, 1.33549E-09, -1.25238E-09, 8.290000000000001E-13, 1.33549E-09, 3.6544356609468444E-05, 8.8688148521404962E-08, 8.290000000000001E-13
DataValue, 0, 0.1, 0, 3.01125E-09, -2.94361E-09, -4.0700000000000003E-13, 3.01125E-09, 5.4874857630794815E-05, 1.7306502495732384E-07, 4.0700000000000003E-13
DataValue, 0.05, 0.1, 0, 6.10671E-09, -5.9518399999999996E-09, 1.1310000000000001E-12, 6.10671E-09, 7.814544132577408E-05, 2.3093971328893175E-07, 1.1310000000000001E-12
DataValue, 0.1, 0.1, 0, 1.0594799999999999E-08, -1.0083399999999999E-08, -3.754E-12, 1.0594799999999999E-08, 0.00010293104487956974, 3.2404876044514196E-07, 3.754E-12
DataValue, 0.15, 0.1, 0, 1.82441E-08, -1.7844599999999997E-08, -7.79E-13, 1.82441E-08, 0.00013507072221617829, 4.39128458689914E-07, 7.79E-13
DataValue, 0.2, 0.1, 0, 2.8627899999999998E-08, -2.8088399999999998E-08, -8.7E-13, 2.8627899999999998E-08, 0.00016919781322463951, 4.7593907609649828E-07, 8.7E-13
DataValue, 0.25, 0.1, 0, 4.1640099999999993E-08, -4.09715E-08, -1.6780000000000001E-12, 4.1640099999999993E-08, 0.00020405906007820381, 4.8261900329854465E-07, 1.6780000000000001E-12
DataValue, 0.3, 0.1, 0, 5.6962699999999996E-08, -5.6235899999999996E-08, 2.775E-12, 5.6962699999999996E-08, 0.00023866859868864189, 4.7303726096939233E-07, 2.775E-12
DataValue, 0.35000000000000003, 0.1, 0, 7.4439899999999991E-08, -7.35625E-08, 4.7900000000000008E-13, 7.4439899999999991E-08, 0.00027283676438486068, 4.59969377127934E-07, 4.7900000000000008E-13
DataValue, 0.4, 0.1, 0, 9.39359E-08, -9.30021E-08, 1.6830000000000002E-12, 9.39359E-08, 0.000306489640934241, 3.9322392721796776E-07, 1.6830000000000002E-12
DataValue, 0.45, 0.1, 0, 1.1259E-07, -1.1174739999999998E-07, -1.5160000000000002E-12, 1.1259E-07, 0.00033554433388153051, 3.7438302824695872E-07, 1.5160000000000002E-12
DataValue, 0.5, 0.1, 0, 1.35186E-07, -1.32645E-07, 6.9900000000000005E-13, 1.35186E-07, 0.00036767648823388203, 3.9682750838003896E-07, 6.9900000000000005E-13
DataValue, 0.55, 0.1, 0, 1.58833E-07, -1.57701E-07, 2.6380000000000003E-12, 1.58833E-07, 0.00039853858031563266, 3.8205273953584246E-07, 2.6380000000000003E-12
DataValue, 0.6, 0.1, 0, 1.84459E-07, -1.83266E-07, 1.2600000000000002E-13, 1.84459E-07, 0.0004294869031763367, 3.7460307721918441E-07, 1.2600000000000002E-13
DataValue, 0.65, 0.1, 0, 2.1136399999999999E-07, -2.09952E-07, 3.0100000000000003E-12, 2.1136399999999999E-07, 0.00045974340669551747, 3.6201975376176078E-07, 3.0100000000000003E-12
DataValue, 0.70000000000000007, 0.1, 0, 2.3976199999999997E-07, -2.38359E-07, 5.9500000000000009E-13, 2.3976199999999997E-07, 0.00048965498057305609, 3.5194543872913188E-07, 5.9500000000000009E-13
DataValue, 0.75, 0.1, 0, 2.69432E-07, -2.6795799999999997E-07, 2.1710000000000003E-12, 2.69432E-07, 0.00051906839626392209, 3.4373250643513968E-07, 2.1710000000000003E-12
DataValue, 0.8, 0.1, 0, 3.0061499999999997E-07, -2.9919399999999997E-07, -3.5960000000000004E-12, 3.0061499999999997E-07, 0.00054828368569564425, 3.4365192041225375E-07, 3.5960000000000004E-12
DataValue, 0.85000000000000009, 0.1, 0, 3.33726E-07, -3.31937E-07, 2.7970000000000003E-12, 3.33726E-07, 0.00057769022840965551, 3.46416465198027E-07, 2.7970000000000003E-12
DataValue, 0.9, 0.1, 0, 3.6862E-07, -3.66923E-07, 1.28E-13, 3.6862E-07, 0.00060714084033278474, 3.4048901873882897E-07, 1.28E-13
DataValue, 0.95000000000000007, 0.1, 0, 4.04549E-07, -4.03054E-07, 7.8900000000000007E-13, 4.04549E-07, 0.00063604166530188883, 3.3489875673521226E-07, 7.8900000000000007E-13
DataValue, 1, 0.1, 0, 4.4223999999999997E-07, -4.4023599999999997E-07, -1.6800000000000001E-12, 4.4223999999999997E-07, 0.000665011278099853, 3.3700333480574172E-07, 1.6800000000000001E-12
DataValue, 1.05, 0.1, 0, 4.81766E-07, -4.79806E-07, -1.4550000000000002E-12, 4.81766E-07, 0.000694093653623198, 3.4393649740271207E-07, 1.4550000000000002E-12
DataValue, 1.1, 0.1, 0, 5.2368E-07, -5.21549E-07, -1.433E-12, 5.2368E-07, 0.000723657377492968, 3.44044521697936E-07, 1.433E-12
DataValue, 1.1500000000000001, 0.1, 0, 5.66631E-07, -5.64667E-07, -5.5500000000000006E-13, 5.66631E-07, 0.00075274896213810879, 3.391114879093037E-07, 5.5500000000000006E-13
DataValue, 1.2, 0.1, 0, 6.11353E-07, -6.09363E-07, 3.0610000000000004E-12, 6.11353E-07, 0.00078189065731724917, 3.4378512002212716E-07, 3.0610000000000004E-12
DataValue, 1.25, 0.1, 0, 6.58341E-07, -6.56854E-07, 2.2000000000000002E-13, 6.58341E-07, 0.00081138215410495691, 3.4998206168225251E-07, 2.2000000000000002E-13
DataValue, 1.3, 0.1, 0, 7.07365E-07, -7.05266E-07, -3.17E-13, 7.07365E-07, 0.00084104993906426273, 3.4999299238701033E-07, 3.17E-13
DataValue, 1.35, 0.1, 0, 7.57844E-07, -7.5609199999999994E-07, -1.0870000000000001E-12, 7.57844E-07, 0.00087054235968159525, 3.4648986935737646E-07, 1.0870000000000001E-12
DataValue, 1.4000000000000001, 0.1, 0, 8.09844E-07, -8.08308E-07, -1.1270000000000002E-12, 8.09844E-07, 0.000899913329160092, 3.5025482731217049E-07, 1.1270000000000002E-12
DataValue, 1.4500000000000002, 0.1, 0, 8.64388E-07, -8.62575E-07, 1.3700000000000002E-13, 8.64388E-07, 0.00092972469043260328, 3.5468306332844554E-07, 1.3700000000000002E-13
DataValue, 1.5, 0.1, 0, 9.2058E-07, -9.19155E-07, 6.2E-14, 9.2058E-07, 0.00095946860292559866, 3.5465990110857738E-07, 6.2E-14
DataValue, 1.55, 0.1, 0, 9.7867099999999988E-07, -9.76913E-07, 2.45E-13, 9.7867099999999988E-07, 0.00098927801956780583, 3.5118658954722291E-07, 2.45E-13
DataValue, 1.6, 0.1, 0, 1.03781E-06, -1.036133E-06, 1.088E-12, 1.03781E-06, 0.001018729601022764, 3.5099970017767705E-07, 1.088E-12
DataValue, 1.6500000000000001, 0.1, 0, 1.099401E-06, -1.0975159999999999E-06, 4.8200000000000007E-13, 1.099401E-06, 0.0010485232472387058, 3.4112010282970231E-07, 4.8200000000000007E-13
DataValue, 1.7000000000000002, 0.1, 0, 1.16022E-06, -1.15818E-06, -3.9000000000000004E-14, 1.16022E-06, 0.0010771350890208711, 3.4715373586112332E-07, 3.9000000000000004E-14
DataValue, 1.75, 0.1, 0, 1.2264300000000002E-06, -1.22509E-06, -8.01E-13, 1.2264300000000002E-06, 0.00110744300079056, 3.5617786989771284E-07, 8.01E-13
DataValue, 1.8, 0.1, 0, 1.2923500000000002E-06, -1.29078E-06, 8.96E-13, 1.2923500000000002E-06, 0.0011368157282515053, 3.51043258945839E-07, 8.96E-13
DataValue, 1.85, 0.1, 0, 1.3611700000000002E-06, -1.3596900000000002E-06, 1.3630000000000002E-12, 1.3611700000000002E-06, 0.0011666919044889272, 3.5237895984367522E-07, 1.3630000000000002E-12
DataValue, 1.9000000000000001, 0.1, 0, 1.4308400000000002E-06, -1.43016E-06, -2.8520000000000004E-12, 1.4308400000000002E-06, 0.0011961772443914824, 3.4684643470707779E-07, 2.8520000000000004E-12
DataValue, 1.9500000000000002, 0.1, 0, 1.5020600000000002E-06, -1.5010200000000002E-06, 3.6000000000000004E-14, 1.5020600000000002E-06, 0.0012255855743276355, 3.4140957458803688E-07, 3.6000000000000004E-14
DataValue, 2, 0.1, 0, 1.5740400000000001E-06, -1.5727000000000002E-06, -1.6E-14, 1.5740400000000001E-06, 0.0012546075083467339, 3.3702417350605759E-07, 1.6E-14
DataValue, 2.05, 0.1, 0, 1.64773E-06, -1.6460100000000003E-06, 5.0200000000000008E-13, 1.64773E-06, 0.0012836393574520845, 3.37822169378163E-07, 5.0200000000000008E-13
DataValue, 2.1, 0.1, 0, 1.7232600000000003E-06, -1.7218400000000002E-06, 4.0000000000000006E-14, 1.7232600000000003E-06, 0.0013127299798511498, 3.3111918746018165E-07, 4.0000000000000006E-14
DataValue, 2.15, 0.1, 0, 1.7987700000000003E-06, -1.7975800000000002E-06, 1.707E-12, 1.7987700000000003E-06, 0.0013411823142287554, 3.2502394750093762E-07, 1.707E-12
DataValue, 2.2, 0.1, 0, 1.8761900000000003E-06, -1.8752100000000001E-06, 1.74E-12, 1.8761900000000003E-06, 0.0013697408514021915, 3.2496611206808251E-07, 1.74E-12
