
SetupTitle, Transfer stab
PrimitiveTest, I/V Sweep
TestParameter, Context.MainFrame, 4155C
TestParameter, Channel.UnitType, SMU, SMU, SMU
TestParameter, Channel.Unit, SMU3:MP, SMU4:MP, SMU1:MP
TestParameter, Channel.IName, ID, IS, IG
TestParameter, Channel.VName, VD, VS, VG
TestParameter, Channel.Mode, V, COMMON, V
TestParameter, Channel.Func, CONST, CONST, VAR1
TestParameter, Channel.Index, 
TestParameter, Channel.Time, 
TestParameter, Measurement.Port.Unit, SMU3:MP, SMU4:MP, SMU1:MP
TestParameter, Measurement.Port.SeriesResistor, NONE, NONE, NONE
TestParameter, Measurement.Port.Filter, ON, ON, ON
TestParameter, Measurement.Primary.Locus, Single
TestParameter, Measurement.Primary.Scale, LINEAR
TestParameter, Measurement.Primary.Start, -2
TestParameter, Measurement.Primary.Stop, 3
TestParameter, Measurement.Primary.Step, 0.05
TestParameter, Measurement.Primary.Compliance, 0.1
TestParameter, Measurement.Primary.PowerCompliance, 0
TestParameter, Measurement.Aborting.Condition, CONTINUE AT ANY
TestParameter, Measurement.PostOutput.Value, START
TestParameter, Measurement.PostOutput.Retention, OFF
TestParameter, Measurement.Bias.Source, 3, 0, -2
TestParameter, Measurement.Bias.Compliance, 0.1, 0.1, 0.1
TestParameter, Measurement.Monitor.Unit, SMU3:MP, SMU4:MP, SMU1:MP
TestParameter, Measurement.Monitor.Adc, HR ADC, HR ADC, HR ADC
TestParameter, Measurement.Monitor.RangingMode, AUTO, AUTO, AUTO
TestParameter, Measurement.Monitor.RangeBoundary, , , 
TestParameter, Measurement.Monitor.RangeRating, BY FULL RANGE, BY FULL RANGE, BY FULL RANGE
TestParameter, Measurement.Monitor.RangeRatingCoeff, 50, 50, 50
TestParameter, Measurement.Timing.Hold, 0.5
TestParameter, Measurement.Timing.Delay, 0.05
TestParameter, Measurement.Adc.HighResolution.AutoZero, OFF
TestParameter, Measurement.Adc.HighResolution.Mode, AUTO
TestParameter, Measurement.Adc.HighResolution.Coeff, 1
TestParameter, Measurement.Ag16440ASelector.SemiconductorRelay.Channel1, DEFAULT
TestParameter, Measurement.Ag16440ASelector.SemiconductorRelay.Channel3, DEFAULT
TestParameter, Function.User.Name, absID, sqrtID, gm2, absIG
TestParameter, Function.User.Unit, A, A, A/V, A
TestParameter, Function.User.Definition, abs(ID), sqrt(abs(ID)), (delta(sqrtID)/delta(VG))^2, abs(IG)
TestParameter, Output.Graph.Enabled, true
TestParameter, Output.Graph.XAxis.Data, VG
TestParameter, Output.Graph.XAxis.Scale, Linear
TestParameter, Output.Graph.XAxis.Left, -5
TestParameter, Output.Graph.XAxis.Right, 7
TestParameter, Output.Graph.YAxis.Data, ID, absIG, gm2
TestParameter, Output.Graph.YAxis.Scale, Log, Log, Linear
TestParameter, Output.Graph.YAxis.Bottom, 1E-14, 1E-14, 0
TestParameter, Output.Graph.YAxis.Top, 0.01, 0.01, 1E-05
TestParameter, Output.Graph.YAxis.Group, , , 
TestParameter, Output.List.Data, VG, IG, VD, ID, VS, IS, sqrtID, gm2, absIG
TestParameter, AutoAnalysis.Interpolation, false
TestParameter, AutoAnalysis.Line1.Enabled, false
TestParameter, AutoAnalysis.Line1.Type, 1
TestParameter, AutoAnalysis.Line1.Fix, True
TestParameter, AutoAnalysis.Line1.YAxis, 0
TestParameter, AutoAnalysis.Line1.Point1.Type, 0
TestParameter, AutoAnalysis.Line1.Point1.XY.X, 
TestParameter, AutoAnalysis.Line1.Point1.XY.Y, 
TestParameter, AutoAnalysis.Line1.Point1.Data.Var, 
TestParameter, AutoAnalysis.Line1.Point1.Data.Condition, 
TestParameter, AutoAnalysis.Line1.Point1.Data.Start, false
TestParameter, AutoAnalysis.Line1.Point1.Data.StartVar, 
TestParameter, AutoAnalysis.Line1.Point1.Data.StartCondition, 
TestParameter, AutoAnalysis.Line1.Point2.Type, 0
TestParameter, AutoAnalysis.Line1.Point2.XY.X, 
TestParameter, AutoAnalysis.Line1.Point2.XY.Y, 
TestParameter, AutoAnalysis.Line1.Point2.Data.Var, 
TestParameter, AutoAnalysis.Line1.Point2.Data.Condition, 
TestParameter, AutoAnalysis.Line1.Point2.Data.Start, false
TestParameter, AutoAnalysis.Line1.Point2.Data.StartVar, 
TestParameter, AutoAnalysis.Line1.Point2.Data.StartCondition, 
TestParameter, AutoAnalysis.Line1.GradientExpr, 0
TestParameter, AutoAnalysis.Line2.Enabled, false
TestParameter, AutoAnalysis.Line2.Type, 1
TestParameter, AutoAnalysis.Line2.Fix, True
TestParameter, AutoAnalysis.Line2.YAxis, 0
TestParameter, AutoAnalysis.Line2.Point1.Type, 0
TestParameter, AutoAnalysis.Line2.Point1.XY.X, 
TestParameter, AutoAnalysis.Line2.Point1.XY.Y, 
TestParameter, AutoAnalysis.Line2.Point1.Data.Var, 
TestParameter, AutoAnalysis.Line2.Point1.Data.Condition, 
TestParameter, AutoAnalysis.Line2.Point1.Data.Start, false
TestParameter, AutoAnalysis.Line2.Point1.Data.StartVar, 
TestParameter, AutoAnalysis.Line2.Point1.Data.StartCondition, 
TestParameter, AutoAnalysis.Line2.Point2.Type, 0
TestParameter, AutoAnalysis.Line2.Point2.XY.X, 
TestParameter, AutoAnalysis.Line2.Point2.XY.Y, 
TestParameter, AutoAnalysis.Line2.Point2.Data.Var, 
TestParameter, AutoAnalysis.Line2.Point2.Data.Condition, 
TestParameter, AutoAnalysis.Line2.Point2.Data.Start, false
TestParameter, AutoAnalysis.Line2.Point2.Data.StartVar, 
TestParameter, AutoAnalysis.Line2.Point2.Data.StartCondition, 
TestParameter, AutoAnalysis.Line2.GradientExpr, 0
TestParameter, AutoAnalysis.Marker.Enabled, false
TestParameter, AutoAnalysis.Marker.Data.Var, 
TestParameter, AutoAnalysis.Marker.Data.Condition, 
TestParameter, AutoAnalysis.Marker.Data.Start, false
TestParameter, AutoAnalysis.Marker.Data.StartVar, 
TestParameter, AutoAnalysis.Marker.Data.StartCondition, 
MetaData, TestRecord.EntryPoint, true
MetaData, TestRecord.RecordTime, 05/27/2019 12:35:54
MetaData, TestRecord.TestTarget, 350-300-G48-2
MetaData, TestRecord.IterationIndex, 3
MetaData, TestRecord.Preservation, true
MetaData, TestRecord.Flag, 
MetaData, TestRecord.Remarks, MEH-GOOD
MetaData, TestRecord.LinkKey, eb52f7b5-6fc3-42ae-ba31-61fa6d945629
Dimension1, 101, 101, 101, 101, 101, 101, 101, 101, 101, 101
Dimension2, 1, 1, 1, 1, 1, 1, 1, 1, 1, 1
DataName, VG, VD, VS, ID, IS, IG, absID, sqrtID, gm2, absIG
DataValue, -2, 3, 0, 1.5315700000000002E-10, 7.1929000000000008E-11, -2.0303200000000001E-10, 1.5315700000000002E-10, 1.2375661598476261E-05, 3.8961951994947253E-10, 2.0303200000000001E-10
DataValue, -1.9500000000000002, 3, 0, 1.29703E-10, 4.5971000000000006E-11, -1.6889800000000002E-10, 1.29703E-10, 1.1388722492009365E-05, 1.4454187006210496E-10, 1.6889800000000002E-10
DataValue, -1.9000000000000001, 3, 0, 1.2484500000000002E-10, 3.1755000000000004E-11, -1.5040600000000002E-10, 1.2484500000000002E-10, 1.1173405926574046E-05, 7.4565756040424239E-11, 1.5040600000000002E-10
DataValue, -1.85, 3, 0, 1.1078E-10, 2.1214000000000002E-11, -1.32376E-10, 1.1078E-10, 1.0525207836427745E-05, 1.066970056090272E-10, 1.32376E-10
DataValue, -1.8, 3, 0, 1.0282900000000001E-10, 1.3177000000000002E-11, -1.1594500000000001E-10, 1.0282900000000001E-10, 1.0140463500254809E-05, 3.8159765281718867E-11, 1.1594500000000001E-10
DataValue, -1.75, 3, 0, 9.8158000000000009E-11, 7.5180000000000009E-12, -1.0439700000000001E-10, 9.8158000000000009E-11, 9.90747192779268E-06, 5.1779888424938153E-11, 1.0439700000000001E-10
DataValue, -1.7000000000000002, 3, 0, 8.8753E-11, 1.7500000000000002E-12, -9.4125000000000011E-11, 8.8753E-11, 9.42088106283059E-06, 2.9504238412150849E-11, 9.4125000000000011E-11
DataValue, -1.6500000000000001, 3, 0, 8.7690000000000009E-11, -1.821E-12, -8.5935000000000011E-11, 8.7690000000000009E-11, 9.3642938868875757E-06, 1.2801190711066459E-12, 8.5935000000000011E-11
DataValue, -1.6, 3, 0, 8.6634000000000011E-11, -7.4770000000000014E-12, -7.9809000000000011E-11, 8.6634000000000011E-11, 9.30773871571393E-06, 1.6636155883254931E-12, 7.9809000000000011E-11
DataValue, -1.55, 3, 0, 8.5291E-11, -1.3933E-11, -7.2391E-11, 8.5291E-11, 9.2353126639004487E-06, 2.3444079162972562E-13, 7.2391E-11
DataValue, -1.5, 3, 0, 8.5735E-11, -2.0105E-11, -6.5902E-11, 8.5735E-11, 9.2593196294328241E-06, 5.20995410336453E-13, 6.5902E-11
DataValue, -1.4500000000000002, 3, 0, 8.3963000000000013E-11, -2.9092E-11, -6.0067E-11, 8.3963000000000013E-11, 9.163132652101028E-06, 9.2286274342596845E-12, 6.0067E-11
DataValue, -1.4000000000000001, 3, 0, 9.1453E-11, -3.7707000000000005E-11, -5.4428E-11, 9.1453E-11, 9.5631061899364062E-06, 4.8254716202357365E-11, 5.4428E-11
DataValue, -1.35, 3, 0, 9.7176000000000012E-11, -4.9939E-11, -4.9979E-11, 9.7176000000000012E-11, 9.8577887987114028E-06, 4.6284990665106655E-11, 4.9979E-11
DataValue, -1.3, 3, 0, 1.04928E-10, -6.3783000000000011E-11, -4.5687000000000006E-11, 1.04928E-10, 1.0243436923220643E-05, 1.1727049357146948E-10, 4.5687000000000006E-11
DataValue, -1.25, 3, 0, 1.19699E-10, -8.2629000000000007E-11, -4.1888000000000006E-11, 1.19699E-10, 1.0940703816482741E-05, 2.5312948082022981E-10, 4.1888000000000006E-11
DataValue, -1.2, 3, 0, 1.40054E-10, -1.0390000000000001E-10, -3.8228E-11, 1.40054E-10, 1.1834441262687479E-05, 2.2843433774689177E-10, 3.8228E-11
DataValue, -1.1500000000000001, 3, 0, 1.5505500000000001E-10, -1.29291E-10, -3.4189000000000005E-11, 1.5505500000000001E-10, 1.2452108255231321E-05, 3.3509151498866934E-10, 3.4189000000000005E-11
DataValue, -1.1, 3, 0, 1.86732E-10, -1.58432E-10, -3.0413E-11, 1.86732E-10, 1.3664991767286214E-05, 5.6662558312922849E-10, 3.0413E-11
DataValue, -1.05, 3, 0, 2.2000300000000002E-10, -1.95869E-10, -2.7853000000000003E-11, 2.2000300000000002E-10, 1.4832498103825936E-05, 6.0822421462061419E-10, 2.7853000000000003E-11
DataValue, -1, 3, 0, 2.60216E-10, -2.37574E-10, -2.524E-11, 2.60216E-10, 1.6131211981745205E-05, 6.62027515530231E-10, 2.524E-11
DataValue, -0.95000000000000007, 3, 0, 3.0295100000000003E-10, -2.8596400000000005E-10, -2.2836000000000003E-11, 3.0295100000000003E-10, 1.7405487640396636E-05, 7.3901496907953381E-10, 2.2836000000000003E-11
DataValue, -0.9, 3, 0, 3.5531100000000005E-10, -3.4240800000000004E-10, -2.1144000000000003E-11, 3.5531100000000005E-10, 1.8849694957744013E-05, 1.0199482255903177E-09, 2.1144000000000003E-11
DataValue, -0.85000000000000009, 3, 0, 4.2432500000000003E-10, -4.07238E-10, -1.8805E-11, 4.2432500000000003E-10, 2.0599150467919788E-05, 1.1708793957306041E-09, 1.8805E-11
DataValue, -0.8, 3, 0, 4.9602E-10, -4.81458E-10, -1.6981E-11, 4.9602E-10, 2.22715064600489E-05, 1.2038736951612886E-09, 1.6981E-11
DataValue, -0.75, 3, 0, 5.79309E-10, -5.6561100000000009E-10, -1.5061E-11, 5.79309E-10, 2.4068838775478971E-05, 1.3654809797298643E-09, 1.5061E-11
DataValue, -0.70000000000000007, 3, 0, 6.74272E-10, -6.5993500000000006E-10, -1.3140000000000001E-11, 6.74272E-10, 2.59667479673524E-05, 1.5091959995170124E-09, 1.3140000000000001E-11
DataValue, -0.65, 3, 0, 7.8140800000000008E-10, -7.68758E-10, -1.1441E-11, 7.8140800000000008E-10, 2.7953675965783105E-05, 1.6299805495723567E-09, 1.1441E-11
DataValue, -0.6, 3, 0, 9.0024300000000011E-10, -8.95955E-10, -1.0719E-11, 9.0024300000000011E-10, 3.00040497266619E-05, 1.889860702390232E-09, 1.0719E-11
DataValue, -0.55, 3, 0, 1.04335E-09, -1.0403E-09, -9.8390000000000012E-12, 1.04335E-09, 3.2300928779216241E-05, 2.315847894001702E-09, 9.8390000000000012E-12
DataValue, -0.5, 3, 0, 1.21218E-09, -1.1989E-09, -6.8910000000000004E-12, 1.21218E-09, 3.4816375457534346E-05, 2.2348676895144508E-09, 6.8910000000000004E-12
DataValue, -0.45, 3, 0, 1.3711E-09, -1.37005E-09, -4.727E-12, 1.3711E-09, 3.7028367503847638E-05, 2.3131289548948458E-09, 4.727E-12
DataValue, -0.4, 3, 0, 1.5702099999999999E-09, -1.56357E-09, -2.9050000000000002E-12, 1.5702099999999999E-09, 3.9625875384652387E-05, 2.7403709792989288E-09, 2.9050000000000002E-12
DataValue, -0.35000000000000003, 3, 0, 1.78618E-09, -1.77489E-09, -9.75E-13, 1.78618E-09, 4.2263222782935043E-05, 2.7565519388399866E-09, 9.75E-13
DataValue, -0.3, 3, 0, 2.01387E-09, -2.00479E-09, 5.13E-13, 2.01387E-09, 4.4876162937577454E-05, 2.9192545656614788E-09, 5.13E-13
DataValue, -0.25, 3, 0, 2.27207E-09, -2.26857E-09, 2.0120000000000003E-12, 2.27207E-09, 4.7666235429284744E-05, 3.3396209857268153E-09, 2.0120000000000003E-12
DataValue, -0.2, 3, 0, 2.56594E-09, -2.55887E-09, 3.605E-12, 2.56594E-09, 5.0655108330749822E-05, 3.7265829774818155E-09, 3.605E-12
DataValue, -0.15, 3, 0, 2.8913E-09, -2.87608E-09, 4.599E-12, 2.8913E-09, 5.3770809925088539E-05, 3.8344815237730255E-09, 4.599E-12
DataValue, -0.1, 3, 0, 3.23163E-09, -3.23522E-09, 5.7780000000000006E-12, 3.23163E-09, 5.6847427382424264E-05, 4.2071086982779737E-09, 5.7780000000000006E-12
DataValue, -0.05, 3, 0, 3.63091E-09, -3.62409E-09, 7.0880000000000005E-12, 3.63091E-09, 6.0257032784563824E-05, 4.8120535973102933E-09, 7.0880000000000005E-12
DataValue, 0, 3, 0, 4.06844E-09, -4.05671E-09, 8.2150000000000008E-12, 4.06844E-09, 6.3784324092993258E-05, 5.1825989569715108E-09, 8.2150000000000008E-12
DataValue, 0.05, 3, 0, 4.55032E-09, -4.54624E-09, 8.9450000000000012E-12, 4.55032E-09, 6.7456059772269531E-05, 5.7101414393914342E-09, 8.9450000000000012E-12
DataValue, 0.1, 3, 0, 5.08952E-09, -5.08742E-09, 9.9650000000000013E-12, 5.08952E-09, 7.1340871875804821E-05, 6.2044003180851707E-09, 9.9650000000000013E-12
DataValue, 0.15, 3, 0, 5.67504E-09, -5.67603E-09, 1.0599E-11, 5.67504E-09, 7.5332861355453641E-05, 6.9734543830840464E-09, 1.0599E-11
DataValue, 0.2, 3, 0, 6.35075E-09, -6.35051E-09, 1.1571E-11, 6.35075E-09, 7.96915930321386E-05, 7.5877309664498738E-09, 1.1571E-11
DataValue, 0.25, 3, 0, 7.06333E-09, -7.06393E-09, 1.2261E-11, 7.06333E-09, 8.4043619626953243E-05, 8.0006402466070262E-09, 1.2261E-11
DataValue, 0.3, 3, 0, 7.85638E-09, -7.85404E-09, 1.2967000000000002E-11, 7.85638E-09, 8.8636222843711023E-05, 8.93068553345405E-09, 1.2967000000000002E-11
DataValue, 0.35000000000000003, 3, 0, 8.7411E-09, -8.72466E-09, 1.3827E-11, 8.7411E-09, 9.3493850065124609E-05, 9.7484449237670251E-09, 1.3827E-11
DataValue, 0.4, 3, 0, 9.70415E-09, -9.70809E-09, 1.4172E-11, 9.70415E-09, 9.8509644197915973E-05, 1.0715088775340924E-08, 1.4172E-11
DataValue, 0.45, 3, 0, 1.078383E-08, -1.078339E-08, 1.4928000000000003E-11, 1.078383E-08, 0.00010384522136333477, 1.1070288815847171E-08, 1.4928000000000003E-11
DataValue, 0.5, 3, 0, 1.18878E-08, -1.18424E-08, 1.3453000000000001E-11, 1.18878E-08, 0.00010903118819860673, 1.2911438899521241E-08, 1.3453000000000001E-11
DataValue, 0.55, 3, 0, 1.3272899999999999E-08, -1.3229899999999998E-08, 1.4714000000000002E-11, 1.3272899999999999E-08, 0.00011520807263382197, 1.5022145790959042E-08, 1.4714000000000002E-11
DataValue, 0.6, 3, 0, 1.4710699999999999E-08, -1.4686999999999998E-08, 1.5293000000000003E-11, 1.4710699999999999E-08, 0.000121287674559289, 1.5574611001050477E-08, 1.5293000000000003E-11
DataValue, 0.65, 3, 0, 1.63042E-08, -1.6275399999999997E-08, 1.5966000000000002E-11, 1.63042E-08, 0.00012768790075805929, 1.7607635370737841E-08, 1.5966000000000002E-11
DataValue, 0.70000000000000007, 3, 0, 1.81056E-08, -1.80552E-08, 1.6573E-11, 1.81056E-08, 0.00013455705109729479, 1.92353456995622E-08, 1.6573E-11
DataValue, 0.75, 3, 0, 2.00384E-08, -1.99905E-08, 1.7035000000000002E-11, 2.00384E-08, 0.00014155705563482167, 2.0447831271150226E-08, 1.7035000000000002E-11
DataValue, 0.8, 3, 0, 2.21583E-08, -2.2095799999999997E-08, 1.7748000000000002E-11, 2.21583E-08, 0.00014885664244500477, 2.1507812104871271E-08, 1.7748000000000002E-11
DataValue, 0.85000000000000009, 3, 0, 2.4405499999999996E-08, -2.43725E-08, 1.8091E-11, 2.4405499999999996E-08, 0.0001562225975971466, 2.3100461503046935E-08, 1.8091E-11
DataValue, 0.9, 3, 0, 2.6914199999999996E-08, -2.6818899999999998E-08, 1.8561E-11, 2.6914199999999996E-08, 0.00016405547842117312, 2.5505104015550998E-08, 1.8561E-11
DataValue, 0.95000000000000007, 3, 0, 2.9650399999999996E-08, -2.9549599999999998E-08, 1.8986000000000002E-11, 2.9650399999999996E-08, 0.00017219291506911658, 2.8901067898504188E-08, 1.8986000000000002E-11
DataValue, 1, 3, 0, 3.27812E-08, -3.2709299999999995E-08, 1.9405000000000003E-11, 3.27812E-08, 0.00018105579250606702, 3.1912898477411304E-08, 1.9405000000000003E-11
DataValue, 1.05, 3, 0, 3.6121699999999994E-08, -3.60584E-08, 1.9906E-11, 3.6121699999999994E-08, 0.00019005709668412803, 3.2997413952739751E-08, 1.9906E-11
DataValue, 1.1, 3, 0, 3.9689E-08, -3.9594099999999996E-08, 2.0487000000000002E-11, 3.9689E-08, 0.00019922098283062454, 3.5967695000982479E-08, 2.0487000000000002E-11
DataValue, 1.1500000000000001, 3, 0, 4.3690299999999993E-08, -4.3573199999999993E-08, 2.059E-11, 4.3690299999999993E-08, 0.00020902224761972107, 3.94539536657662E-08, 2.059E-11
DataValue, 1.2, 3, 0, 4.7997799999999993E-08, -4.79072E-08, 2.1045E-11, 4.7997799999999993E-08, 0.00021908400215442476, 4.2276657965429587E-08, 2.1045E-11
DataValue, 1.25, 3, 0, 5.27086E-08, -5.2602699999999995E-08, 2.1317E-11, 5.27086E-08, 0.00022958353599507087, 4.647139312119351E-08, 2.1317E-11
DataValue, 1.3, 3, 0, 5.7908199999999996E-08, -5.78742E-08, 2.1637000000000002E-11, 5.7908199999999996E-08, 0.00024064122672559662, 5.0518754631232529E-08, 2.1637000000000002E-11
DataValue, 1.35, 3, 0, 6.3534199999999989E-08, -6.32614E-08, 2.2063000000000002E-11, 6.3534199999999989E-08, 0.00025205991351264086, 5.3924346978441888E-08, 2.2063000000000002E-11
DataValue, 1.4000000000000001, 3, 0, 6.96236E-08, -6.9378799999999991E-08, 2.2276E-11, 6.96236E-08, 0.0002638628431590928, 5.6783051742770126E-08, 2.2276E-11
DataValue, 1.4500000000000002, 3, 0, 7.6114799999999993E-08, -7.58446E-08, 2.2851000000000003E-11, 7.6114799999999993E-08, 0.00027588910815760741, 6.0804457436016519E-08, 2.2851000000000003E-11
DataValue, 1.5, 3, 0, 8.32446E-08, -8.2936599999999988E-08, 2.3051000000000003E-11, 8.32446E-08, 0.0002885214030189095, 6.6687044821638682E-08, 2.3051000000000003E-11
DataValue, 1.55, 3, 0, 9.1030699999999987E-08, -9.0666999999999987E-08, 2.3463000000000002E-11, 9.1030699999999987E-08, 0.00030171294304354922, 7.1184572263267866E-08, 2.3463000000000002E-11
DataValue, 1.6, 3, 0, 9.9352199999999986E-08, -9.8956799999999993E-08, 2.3864E-11, 9.9352199999999986E-08, 0.00031520184009615169, 6.9695168103595984E-08, 2.3864E-11
DataValue, 1.6500000000000001, 3, 0, 1.07658E-07, -1.0753649999999999E-07, 2.3048000000000003E-11, 1.07658E-07, 0.00032811278548694196, 7.4804141041082151E-08, 2.3048000000000003E-11
DataValue, 1.7000000000000002, 3, 0, 1.1734199999999999E-07, -1.16846E-07, 2.2911E-11, 1.1734199999999999E-07, 0.00034255218580531637, 8.7397365326755637E-08, 2.2911E-11
DataValue, 1.75, 3, 0, 1.27932E-07, -1.27659E-07, 2.3452E-11, 1.27932E-07, 0.00035767583088601332, 9.2943803325078819E-08, 2.3452E-11
DataValue, 1.8, 3, 0, 1.39158E-07, -1.38713E-07, 2.3672000000000002E-11, 1.39158E-07, 0.0003730388719691287, 9.9461253367189826E-08, 2.3672000000000002E-11
DataValue, 1.85, 3, 0, 1.5148699999999999E-07, -1.51071E-07, 2.4164000000000002E-11, 1.5148699999999999E-07, 0.00038921330912495785, 1.0283900519321259E-07, 2.4164000000000002E-11
DataValue, 1.9000000000000001, 3, 0, 1.64112E-07, -1.63693E-07, 2.4489000000000002E-11, 1.64112E-07, 0.00040510739316877443, 1.0640380550992606E-07, 2.4489000000000002E-11
DataValue, 1.9500000000000002, 3, 0, 1.77943E-07, -1.77503E-07, 2.5047000000000003E-11, 1.77943E-07, 0.00042183290530730294, 1.1555120279371465E-07, 2.5047000000000003E-11
DataValue, 2, 3, 0, 1.92809E-07, -1.92308E-07, 2.5334000000000003E-11, 1.92809E-07, 0.000439100216351575, 1.1986767721010149E-07, 2.5334000000000003E-11
DataValue, 2.05, 3, 0, 2.0835099999999998E-07, -2.07821E-07, 2.5667E-11, 2.0835099999999998E-07, 0.0004564548170410736, 1.2747723174544126E-07, 2.5667E-11
DataValue, 2.1, 3, 0, 2.2543899999999999E-07, -2.24637E-07, 2.6178000000000003E-11, 2.2543899999999999E-07, 0.00047480417015860336, 1.3708258787200948E-07, 2.6178000000000003E-11
DataValue, 2.15, 3, 0, 2.43522E-07, -2.43006E-07, 2.6306000000000002E-11, 2.43522E-07, 0.00049347948285617714, 1.4268470338074305E-07, 2.6306000000000002E-11
DataValue, 2.2, 3, 0, 2.62736E-07, -2.62079E-07, 2.662E-11, 2.62736E-07, 0.00051257779897299492, 1.4899182084841027E-07, 2.662E-11
DataValue, 2.25, 3, 0, 2.83108E-07, -2.82392E-07, 2.7155000000000002E-11, 2.83108E-07, 0.00053207894151150164, 1.5771132635440313E-07, 2.7155000000000002E-11
