
SetupTitle, Transfer stab
PrimitiveTest, I/V Sweep
TestParameter, Context.MainFrame, 4155C
TestParameter, Channel.UnitType, SMU, SMU, SMU
TestParameter, Channel.Unit, SMU3:MP, SMU4:MP, SMU1:MP
TestParameter, Channel.IName, ID, IS, IG
TestParameter, Channel.VName, VD, VS, VG
TestParameter, Channel.Mode, V, COMMON, V
TestParameter, Channel.Func, CONST, CONST, VAR1
TestParameter, Channel.Index, 
TestParameter, Channel.Time, 
TestParameter, Measurement.Port.Unit, SMU3:MP, SMU4:MP, SMU1:MP
TestParameter, Measurement.Port.SeriesResistor, NONE, NONE, NONE
TestParameter, Measurement.Port.Filter, ON, ON, ON
TestParameter, Measurement.Primary.Locus, Single
TestParameter, Measurement.Primary.Scale, LINEAR
TestParameter, Measurement.Primary.Start, -2
TestParameter, Measurement.Primary.Stop, 3
TestParameter, Measurement.Primary.Step, 0.05
TestParameter, Measurement.Primary.Compliance, 0.1
TestParameter, Measurement.Primary.PowerCompliance, 0
TestParameter, Measurement.Aborting.Condition, CONTINUE AT ANY
TestParameter, Measurement.PostOutput.Value, START
TestParameter, Measurement.PostOutput.Retention, OFF
TestParameter, Measurement.Bias.Source, 3, 0, -2
TestParameter, Measurement.Bias.Compliance, 0.1, 0.1, 0.1
TestParameter, Measurement.Monitor.Unit, SMU3:MP, SMU4:MP, SMU1:MP
TestParameter, Measurement.Monitor.Adc, HR ADC, HR ADC, HR ADC
TestParameter, Measurement.Monitor.RangingMode, AUTO, AUTO, AUTO
TestParameter, Measurement.Monitor.RangeBoundary, , , 
TestParameter, Measurement.Monitor.RangeRating, BY FULL RANGE, BY FULL RANGE, BY FULL RANGE
TestParameter, Measurement.Monitor.RangeRatingCoeff, 50, 50, 50
TestParameter, Measurement.Timing.Hold, 0.5
TestParameter, Measurement.Timing.Delay, 0.05
TestParameter, Measurement.Adc.HighResolution.AutoZero, OFF
TestParameter, Measurement.Adc.HighResolution.Mode, AUTO
TestParameter, Measurement.Adc.HighResolution.Coeff, 1
TestParameter, Measurement.Ag16440ASelector.SemiconductorRelay.Channel1, DEFAULT
TestParameter, Measurement.Ag16440ASelector.SemiconductorRelay.Channel3, DEFAULT
TestParameter, Function.User.Name, absID, sqrtID, gm2, absIG
TestParameter, Function.User.Unit, A, A, A/V, A
TestParameter, Function.User.Definition, abs(ID), sqrt(abs(ID)), (delta(sqrtID)/delta(VG))^2, abs(IG)
TestParameter, Output.Graph.Enabled, true
TestParameter, Output.Graph.XAxis.Data, VG
TestParameter, Output.Graph.XAxis.Scale, Linear
TestParameter, Output.Graph.XAxis.Left, -5
TestParameter, Output.Graph.XAxis.Right, 7
TestParameter, Output.Graph.YAxis.Data, ID, absIG, gm2
TestParameter, Output.Graph.YAxis.Scale, Log, Log, Linear
TestParameter, Output.Graph.YAxis.Bottom, 1E-14, 1E-14, 0
TestParameter, Output.Graph.YAxis.Top, 0.01, 0.01, 1E-05
TestParameter, Output.Graph.YAxis.Group, , , 
TestParameter, Output.List.Data, VG, IG, VD, ID, VS, IS, sqrtID, gm2, absIG
TestParameter, AutoAnalysis.Interpolation, false
TestParameter, AutoAnalysis.Line1.Enabled, false
TestParameter, AutoAnalysis.Line1.Type, 1
TestParameter, AutoAnalysis.Line1.Fix, True
TestParameter, AutoAnalysis.Line1.YAxis, 0
TestParameter, AutoAnalysis.Line1.Point1.Type, 0
TestParameter, AutoAnalysis.Line1.Point1.XY.X, 
TestParameter, AutoAnalysis.Line1.Point1.XY.Y, 
TestParameter, AutoAnalysis.Line1.Point1.Data.Var, 
TestParameter, AutoAnalysis.Line1.Point1.Data.Condition, 
TestParameter, AutoAnalysis.Line1.Point1.Data.Start, false
TestParameter, AutoAnalysis.Line1.Point1.Data.StartVar, 
TestParameter, AutoAnalysis.Line1.Point1.Data.StartCondition, 
TestParameter, AutoAnalysis.Line1.Point2.Type, 0
TestParameter, AutoAnalysis.Line1.Point2.XY.X, 
TestParameter, AutoAnalysis.Line1.Point2.XY.Y, 
TestParameter, AutoAnalysis.Line1.Point2.Data.Var, 
TestParameter, AutoAnalysis.Line1.Point2.Data.Condition, 
TestParameter, AutoAnalysis.Line1.Point2.Data.Start, false
TestParameter, AutoAnalysis.Line1.Point2.Data.StartVar, 
TestParameter, AutoAnalysis.Line1.Point2.Data.StartCondition, 
TestParameter, AutoAnalysis.Line1.GradientExpr, 0
TestParameter, AutoAnalysis.Line2.Enabled, false
TestParameter, AutoAnalysis.Line2.Type, 1
TestParameter, AutoAnalysis.Line2.Fix, True
TestParameter, AutoAnalysis.Line2.YAxis, 0
TestParameter, AutoAnalysis.Line2.Point1.Type, 0
TestParameter, AutoAnalysis.Line2.Point1.XY.X, 
TestParameter, AutoAnalysis.Line2.Point1.XY.Y, 
TestParameter, AutoAnalysis.Line2.Point1.Data.Var, 
TestParameter, AutoAnalysis.Line2.Point1.Data.Condition, 
TestParameter, AutoAnalysis.Line2.Point1.Data.Start, false
TestParameter, AutoAnalysis.Line2.Point1.Data.StartVar, 
TestParameter, AutoAnalysis.Line2.Point1.Data.StartCondition, 
TestParameter, AutoAnalysis.Line2.Point2.Type, 0
TestParameter, AutoAnalysis.Line2.Point2.XY.X, 
TestParameter, AutoAnalysis.Line2.Point2.XY.Y, 
TestParameter, AutoAnalysis.Line2.Point2.Data.Var, 
TestParameter, AutoAnalysis.Line2.Point2.Data.Condition, 
TestParameter, AutoAnalysis.Line2.Point2.Data.Start, false
TestParameter, AutoAnalysis.Line2.Point2.Data.StartVar, 
TestParameter, AutoAnalysis.Line2.Point2.Data.StartCondition, 
TestParameter, AutoAnalysis.Line2.GradientExpr, 0
TestParameter, AutoAnalysis.Marker.Enabled, false
TestParameter, AutoAnalysis.Marker.Data.Var, 
TestParameter, AutoAnalysis.Marker.Data.Condition, 
TestParameter, AutoAnalysis.Marker.Data.Start, false
TestParameter, AutoAnalysis.Marker.Data.StartVar, 
TestParameter, AutoAnalysis.Marker.Data.StartCondition, 
MetaData, TestRecord.EntryPoint, true
MetaData, TestRecord.RecordTime, 05/27/2019 11:25:40
MetaData, TestRecord.TestTarget, 250-180-G13-2
MetaData, TestRecord.IterationIndex, 2
MetaData, TestRecord.Preservation, true
MetaData, TestRecord.Flag, 
MetaData, TestRecord.Remarks, MEH
MetaData, TestRecord.LinkKey, 1ae07f9f-e8ea-42bc-acaf-2d425a219378
Dimension1, 101, 101, 101, 101, 101, 101, 101, 101, 101, 101
Dimension2, 1, 1, 1, 1, 1, 1, 1, 1, 1, 1
DataName, VG, VD, VS, ID, IS, IG, absID, sqrtID, gm2, absIG
DataValue, -2, 3, 0, 1.1300000000000001E-10, -3.9466000000000005E-11, -1.2817100000000002E-10, 1.1300000000000001E-10, 1.063014581273465E-05, 7.129859437814004E-09, 1.2817100000000002E-10
DataValue, -1.9500000000000002, 3, 0, 2.20584E-10, -7.7742000000000012E-11, -1.5285900000000002E-10, 2.20584E-10, 1.4852070562719529E-05, 2.0290965540391247E-09, 1.5285900000000002E-10
DataValue, -1.9000000000000001, 3, 0, 2.2905900000000003E-10, -1.12808E-10, -1.38882E-10, 2.2905900000000003E-10, 1.5134695239746324E-05, 3.0789902085995048E-10, 1.38882E-10
DataValue, -1.85, 3, 0, 2.7578500000000005E-10, -1.44631E-10, -1.31379E-10, 2.7578500000000005E-10, 1.660677572558864E-05, 5.6716652022444876E-10, 1.31379E-10
DataValue, -1.8, 3, 0, 3.06818E-10, -1.9095900000000002E-10, -1.25232E-10, 3.06818E-10, 1.7516221053640537E-05, 7.2837655082710747E-10, 1.25232E-10
DataValue, -1.75, 3, 0, 3.72707E-10, -2.45077E-10, -1.2711000000000001E-10, 3.72707E-10, 1.9305620943134671E-05, 1.1576861404316716E-09, 1.2711000000000001E-10
DataValue, -1.7000000000000002, 3, 0, 4.3759200000000005E-10, -3.066E-10, -1.35462E-10, 4.3759200000000005E-10, 2.0918699768389049E-05, 1.1208432766452755E-09, 1.35462E-10
DataValue, -1.6500000000000001, 3, 0, 5.13182E-10, -3.72753E-10, -1.36824E-10, 5.13182E-10, 2.2653520697675228E-05, 1.0596538451756216E-09, 1.36824E-10
DataValue, -1.6, 3, 0, 5.84379E-10, -4.4926900000000003E-10, -1.2896700000000002E-10, 5.84379E-10, 2.4173932241155969E-05, 8.9453296852444566E-10, 1.2896700000000002E-10
DataValue, -1.55, 3, 0, 6.5763500000000008E-10, -5.22274E-10, -1.2648700000000002E-10, 6.5763500000000008E-10, 2.5644395099124489E-05, 9.3014371993514251E-10, 1.2648700000000002E-10
DataValue, -1.5, 3, 0, 7.41133E-10, -6.1299100000000008E-10, -1.2259100000000002E-10, 7.41133E-10, 2.722375800656478E-05, 9.0998081918536868E-10, 1.2259100000000002E-10
DataValue, -1.4500000000000002, 3, 0, 8.2145200000000011E-10, -6.9694200000000009E-10, -1.1296500000000001E-10, 8.2145200000000011E-10, 2.8660983932865949E-05, 9.6704724810313448E-10, 1.1296500000000001E-10
DataValue, -1.4000000000000001, 3, 0, 9.20121E-10, -7.9628200000000008E-10, -9.5556000000000008E-11, 9.20121E-10, 3.033349633655837E-05, 8.169401930203E-10, 9.5556000000000008E-11
DataValue, -1.35, 3, 0, 9.9346E-10, -9.00474E-10, -9.2534000000000011E-11, 9.9346E-10, 3.1519200497474554E-05, 1.1727979679961494E-09, 9.2534000000000011E-11
DataValue, -1.3, 3, 0, 1.13961E-09, -1.02017E-09, -8.8391000000000013E-11, 1.13961E-09, 3.3758110136676788E-05, 1.6172304759646962E-09, 8.8391000000000013E-11
DataValue, -1.25, 3, 0, 1.26314E-09, -1.17852E-09, -7.9566000000000007E-11, 1.26314E-09, 3.5540680916380878E-05, 1.2957264051439237E-09, 7.9566000000000007E-11
DataValue, -1.2, 3, 0, 1.3956E-09, -1.30494E-09, -7.7119E-11, 1.3956E-09, 3.7357730123764211E-05, 1.2973532624416346E-09, 7.7119E-11
DataValue, -1.1500000000000001, 3, 0, 1.53214E-09, -1.46044E-09, -6.6333E-11, 1.53214E-09, 3.914255995716172E-05, 1.2182060368063564E-09, 6.6333E-11
DataValue, -1.1, 3, 0, 1.66856E-09, -1.59586E-09, -5.8482E-11, 1.66856E-09, 4.0848010967487754E-05, 1.1096871095527572E-09, 5.8482E-11
DataValue, -1.05, 3, 0, 1.80402E-09, -1.72236E-09, -5.1572000000000007E-11, 1.80402E-09, 4.2473756603342727E-05, 8.8495191402917914E-10, 5.1572000000000007E-11
DataValue, -1, 3, 0, 1.92044E-09, -1.86013E-09, -4.8168E-11, 1.92044E-09, 4.3822825102907278E-05, 1.0239856915311677E-09, 4.8168E-11
DataValue, -0.95000000000000007, 3, 0, 2.08609E-09, -2.00958E-09, -4.1199E-11, 2.08609E-09, 4.5673734246282076E-05, 1.4718630076377418E-09, 4.1199E-11
DataValue, -0.9, 3, 0, 2.27141E-09, -2.18707E-09, -4.0989E-11, 2.27141E-09, 4.7659311786890087E-05, 1.2735088438842047E-09, 4.0989E-11
DataValue, -0.85000000000000009, 3, 0, 2.42481E-09, -2.34547E-09, -4.5952000000000005E-11, 2.42481E-09, 4.9242359813477665E-05, 1.1828237521465968E-09, 4.5952000000000005E-11
DataValue, -0.8, 3, 0, 2.61106E-09, -2.52258E-09, -4.1619000000000005E-11, 2.61106E-09, 5.1098532268549553E-05, 1.073042214868424E-09, 4.1619000000000005E-11
DataValue, -0.75, 3, 0, 2.75815E-09, -2.69645E-09, -3.9175E-11, 2.75815E-09, 5.2518092120715889E-05, 1.0711113137845265E-09, 3.9175E-11
DataValue, -0.70000000000000007, 3, 0, 2.95624E-09, -2.88696E-09, -3.5534E-11, 2.95624E-09, 5.4371315967153122E-05, 1.244209842396575E-09, 3.5534E-11
DataValue, -0.65, 3, 0, 3.14109E-09, -3.06581E-09, -3.7881000000000005E-11, 3.14109E-09, 5.6045428002647995E-05, 9.7180491711393612E-10, 3.7881000000000005E-11
DataValue, -0.6, 3, 0, 3.30495E-09, -3.24319E-09, -3.2523E-11, 3.30495E-09, 5.7488694540752963E-05, 1.0792903429434649E-09, 3.2523E-11
DataValue, -0.55, 3, 0, 3.52013E-09, -3.39832E-09, -3.0514E-11, 3.52013E-09, 5.93306834614266E-05, 1.3770756256284813E-09, 3.0514E-11
DataValue, -0.5, 3, 0, 3.74539E-09, -3.69796E-09, -2.8998000000000002E-11, 3.74539E-09, 6.1199591501904648E-05, 1.2647683141927993E-09, 2.8998000000000002E-11
DataValue, -0.45, 3, 0, 3.95478E-09, -3.86956E-09, -2.8014E-11, 3.95478E-09, 6.2887041590458043E-05, 9.7222838758310266E-10, 2.8014E-11
DataValue, -0.4, 3, 0, 4.13676E-09, -4.07984E-09, -2.7314000000000003E-11, 4.13676E-09, 6.4317649210772626E-05, 9.4085537018987584E-10, 2.7314000000000003E-11
DataValue, -0.35000000000000003, 3, 0, 4.34998E-09, -4.26955E-09, -2.6503000000000002E-11, 4.34998E-09, 6.59543781715816E-05, 1.1548454055283326E-09, 2.6503000000000002E-11
DataValue, -0.3, 3, 0, 4.58545E-09, -4.47133E-09, -2.4945E-11, 4.58545E-09, 6.7715950853547047E-05, 1.4553889787950202E-09, 2.4945E-11
DataValue, -0.25, 3, 0, 4.86776E-09, -4.75392E-09, -2.4064E-11, 4.86776E-09, 6.97693342379014E-05, 1.0290956216160312E-09, 2.4064E-11
DataValue, -0.2, 3, 0, 5.0302E-09, -4.94913E-09, -2.2883000000000003E-11, 5.0302E-09, 7.0923902881891659E-05, 9.021201978872907E-10, 2.2883000000000003E-11
DataValue, -0.15, 3, 0, 5.29589E-09, -5.22055E-09, -2.2584000000000003E-11, 5.29589E-09, 7.277286582236541E-05, 1.6291609131744769E-09, 2.2584000000000003E-11
DataValue, -0.1, 3, 0, 5.61903E-09, -5.48538E-09, -2.0796000000000003E-11, 5.61903E-09, 7.4960189434125627E-05, 1.1806942293394049E-09, 2.0796000000000003E-11
DataValue, -0.05, 3, 0, 5.80781E-09, -5.70946E-09, -2.1144000000000003E-11, 5.80781E-09, 7.6208988971118092E-05, 7.4861237660174612E-10, 2.1144000000000003E-11
DataValue, 0, 3, 0, 6.03671E-09, -5.95271E-09, -1.9316000000000002E-11, 6.03671E-09, 7.7696267606623164E-05, 1.0592340385705292E-09, 1.9316000000000002E-11
DataValue, 0.05, 3, 0, 6.31446E-09, -6.21925E-09, -1.6217E-11, 6.31446E-09, 7.9463576561843727E-05, 8.21683917092991E-10, 1.6217E-11
DataValue, 0.1, 3, 0, 6.49036E-09, -6.4215E-09, -2.2375E-11, 6.49036E-09, 8.0562770558118227E-05, 9.6862081425583081E-10, 2.2375E-11
DataValue, 0.15, 3, 0, 6.81877E-09, -6.6384E-09, -1.641E-11, 6.81877E-09, 8.2575843925448324E-05, 1.0741577519930948E-09, 1.641E-11
DataValue, 0.2, 3, 0, 7.02918E-09, -6.87116E-09, -1.1858E-11, 7.02918E-09, 8.3840205152420751E-05, 8.9033181146869068E-10, 1.1858E-11
DataValue, 0.25, 3, 0, 7.32046E-09, -7.15089E-09, -1.1315E-11, 7.32046E-09, 8.55596867689451E-05, 1.3237690061292753E-09, 1.1315E-11
DataValue, 0.3, 3, 0, 7.6525E-09, -7.55685E-09, -1.5008E-11, 7.6525E-09, 8.7478568804021941E-05, 9.8014693921965517E-10, 1.5008E-11
DataValue, 0.35000000000000003, 3, 0, 7.86599E-09, -7.79988E-09, -1.1867E-11, 7.86599E-09, 8.8690416618708017E-05, 9.8729444698767764E-10, 1.1867E-11
DataValue, 0.4, 3, 0, 8.21211E-09, -8.02786E-09, -1.1625E-11, 8.21211E-09, 9.0620693001102124E-05, 1.0691896387368962E-09, 1.1625E-11
DataValue, 0.45, 3, 0, 8.45669E-09, -8.23887E-09, -1.1612E-11, 8.45669E-09, 9.19602631575182E-05, 9.3556890157653632E-10, 1.1612E-11
DataValue, 0.5, 3, 0, 8.77583E-09, -8.65413E-09, -1.2119E-11, 8.77583E-09, 9.36794000834762E-05, 5.2418623500882427E-10, 1.2119E-11
DataValue, 0.55, 3, 0, 8.88302E-09, -8.71996E-09, -1.1540000000000001E-12, 8.88302E-09, 9.4249774535539341E-05, 4.1527908181681383E-10, 1.1540000000000001E-12
DataValue, 0.6, 3, 0, 9.16179E-09, -9.16212E-09, -3.013E-12, 9.16179E-09, 9.5717239826480579E-05, 1.1926667376456874E-09, 3.013E-12
DataValue, 0.65, 3, 0, 9.54593E-09, -9.46146E-09, -5.6960000000000008E-12, 9.54593E-09, 9.7703275277751057E-05, 1.0407248564832934E-09, 5.6960000000000008E-12
DataValue, 0.70000000000000007, 3, 0, 9.78977E-09, -9.7325E-09, -3.0280000000000004E-12, 9.78977E-09, 9.8943266572314059E-05, 1.2836489615286216E-09, 3.0280000000000004E-12
DataValue, 0.75, 3, 0, 1.025887E-08, -9.93359E-09, -2.87E-12, 1.025887E-08, 0.00010128607999128014, 1.3826941047821321E-09, 2.87E-12
DataValue, 0.8, 3, 0, 1.053943E-08, -1.040627E-08, 4.0480000000000005E-12, 1.053943E-08, 0.00010266172607159885, 4.2057654315598722E-10, 4.0480000000000005E-12
DataValue, 0.85000000000000009, 3, 0, 1.067851E-08, -1.059108E-08, 4.12E-12, 1.067851E-08, 0.00010333687628334814, 4.3853038673648755E-11, 4.12E-12
DataValue, 0.9, 3, 0, 1.04039E-08, -1.0146399999999999E-08, 4.159E-12, 1.04039E-08, 0.00010199950980274366, 1.0594707982308548E-10, 4.159E-12
DataValue, 0.95000000000000007, 3, 0, 1.0892299999999999E-08, -1.0772799999999999E-08, 4.7260000000000007E-12, 1.0892299999999999E-08, 0.00010436618226226348, 2.674318938711687E-09, 4.7260000000000007E-12
DataValue, 1, 3, 0, 1.14856E-08, -1.1264199999999998E-08, 3.967E-12, 1.14856E-08, 0.00010717089157042596, 1.7350390272382924E-09, 3.967E-12
DataValue, 1.05, 3, 0, 1.17791E-08, -1.1621299999999998E-08, 4.706E-12, 1.17791E-08, 0.00010853156222961135, 5.2234756799789245E-10, 4.706E-12
DataValue, 1.1, 3, 0, 1.1980699999999999E-08, -1.1910399999999999E-08, 5.837E-12, 1.1980699999999999E-08, 0.00010945638400751232, 1.0373827480490356E-09, 5.837E-12
DataValue, 1.1500000000000001, 3, 0, 1.2488599999999998E-08, -1.2362499999999999E-08, 5.7120000000000007E-12, 1.2488599999999998E-08, 0.00011175240489582315, 7.1187596576139633E-10, 5.7120000000000007E-12
DataValue, 1.2, 3, 0, 1.25719E-08, -1.2523599999999998E-08, 5.9070000000000006E-12, 1.25719E-08, 0.00011212448439123365, 1.0648775847040925E-09, 5.9070000000000006E-12
DataValue, 1.25, 3, 0, 1.3228599999999999E-08, -1.29848E-08, 6.3720000000000007E-12, 1.3228599999999999E-08, 0.00011501565110888169, 1.9958907840871221E-09, 6.3720000000000007E-12
DataValue, 1.3, 3, 0, 1.35937E-08, -1.33211E-08, 6.642E-12, 1.35937E-08, 0.00011659202374090605, 6.5159042214459574E-10, 6.642E-12
DataValue, 1.35, 3, 0, 1.38223E-08, -1.3707499999999999E-08, 7.3220000000000013E-12, 1.38223E-08, 0.00011756827803451065, 3.69450853301821E-10, 7.3220000000000013E-12
DataValue, 1.4000000000000001, 3, 0, 1.4045599999999999E-08, -1.4040199999999998E-08, 7.487E-12, 1.4045599999999999E-08, 0.00011851413417816459, 1.2001805391635362E-09, 7.487E-12
DataValue, 1.4500000000000002, 3, 0, 1.4648899999999999E-08, -1.4406899999999999E-08, 7.823E-12, 1.4648899999999999E-08, 0.00012103264022568458, 8.9166234986690315E-10, 7.823E-12
DataValue, 1.5, 3, 0, 1.4762299999999998E-08, -1.4687999999999999E-08, 8.524E-12, 1.4762299999999998E-08, 0.00012150020576114263, 3.355928508975664E-10, 8.524E-12
DataValue, 1.55, 3, 0, 1.50957E-08, -1.51181E-08, 8.731E-12, 1.50957E-08, 0.00012286455957679577, 1.164559170450265E-09, 8.731E-12
DataValue, 1.6, 3, 0, 1.56032E-08, -1.5306899999999997E-08, 9.1290000000000012E-12, 1.56032E-08, 0.00012491276956340372, 5.0310227658430394E-10, 9.1290000000000012E-12
DataValue, 1.6500000000000001, 3, 0, 1.5651899999999998E-08, -1.56039E-08, 9.799E-12, 1.5651899999999998E-08, 0.00012510755372878169, 9.0902730646107225E-11, 9.799E-12
DataValue, 1.7000000000000002, 3, 0, 1.5842299999999997E-08, -1.5640199999999997E-08, 1.0239000000000001E-11, 1.5842299999999997E-08, 0.00012586619879856545, 3.0523147149873797E-10, 1.0239000000000001E-11
DataValue, 1.75, 3, 0, 1.6092099999999998E-08, -1.61431E-08, 9.9190000000000009E-12, 1.6092099999999998E-08, 0.00012685464122372503, 8.4927627081759867E-10, 9.9190000000000009E-12
DataValue, 1.8, 3, 0, 1.65844E-08, -1.61986E-08, 1.0517000000000001E-11, 1.65844E-08, 0.00012878043329636688, 9.6766957690605936E-10, 1.0517000000000001E-11
DataValue, 1.85, 3, 0, 1.6891E-08, -1.68314E-08, 1.1553000000000001E-11, 1.6891E-08, 0.00012996538000559994, 7.9894267321957858E-10, 1.1553000000000001E-11
DataValue, 1.9000000000000001, 3, 0, 1.7320399999999997E-08, -1.7024799999999998E-08, 1.1830000000000001E-11, 1.7320399999999997E-08, 0.00013160699069578332, 7.635774924853615E-10, 1.1830000000000001E-11
DataValue, 1.9500000000000002, 3, 0, 1.76169E-08, -1.7257999999999998E-08, 1.2314000000000001E-11, 1.76169E-08, 0.00013272867060285055, 8.1883598088812626E-11, 1.2314000000000001E-11
DataValue, 2, 3, 0, 1.7559399999999997E-08, -1.7517499999999998E-08, 1.3232000000000002E-11, 1.7559399999999997E-08, 0.00013251188625930881, 2.6212020161947073E-10, 1.3232000000000002E-11
DataValue, 2.05, 3, 0, 1.8049299999999998E-08, -1.79721E-08, 1.3496000000000002E-11, 1.8049299999999998E-08, 0.00013434768326993956, 1.0842221243663696E-09, 1.3496000000000002E-11
DataValue, 2.1, 3, 0, 1.84429E-08, -1.8213999999999997E-08, 1.4521000000000001E-11, 1.84429E-08, 0.00013580463909601911, 5.82284268813487E-10, 1.4521000000000001E-11
DataValue, 2.15, 3, 0, 1.87035E-08, -1.8502399999999998E-08, 1.4925000000000003E-11, 1.87035E-08, 0.00013676073998044905, 3.4010347262671828E-10, 1.4925000000000003E-11
DataValue, 2.2, 3, 0, 1.89472E-08, -1.8914E-08, 1.5358E-11, 1.89472E-08, 0.00013764882854568723, 3.2702250153891839E-10, 1.5358E-11
DataValue, 2.25, 3, 0, 1.92014E-08, -1.8883799999999998E-08, 1.6160000000000002E-11, 1.92014E-08, 0.00013856911632827856, 1.1050372150672976E-10, 1.6160000000000002E-11
DataValue, 2.3000000000000003, 3, 0, 1.9237699999999997E-08, -1.90554E-08, 1.6897E-11, 1.9237699999999997E-08, 0.00013870003604902199, 3.5122906741019964E-10, 1.6897E-11
DataValue, 2.35, 3, 0, 1.9724299999999998E-08, -1.9657599999999998E-08, 1.7251E-11, 1.9724299999999998E-08, 0.00014044322696378064, 1.0725374463218032E-09, 1.7251E-11
DataValue, 2.4, 3, 0, 2.0156899999999998E-08, -1.9576499999999997E-08, 1.8394000000000003E-11, 2.0156899999999998E-08, 0.00014197499779890823, 5.6232444782125285E-10, 1.8394000000000003E-11
