
SetupTitle, Transfer stab
PrimitiveTest, I/V Sweep
TestParameter, Context.MainFrame, 4155C
TestParameter, Channel.UnitType, SMU, SMU, SMU
TestParameter, Channel.Unit, SMU3:MP, SMU4:MP, SMU1:MP
TestParameter, Channel.IName, ID, IS, IG
TestParameter, Channel.VName, VD, VS, VG
TestParameter, Channel.Mode, V, COMMON, V
TestParameter, Channel.Func, CONST, CONST, VAR1
TestParameter, Channel.Index, 
TestParameter, Channel.Time, 
TestParameter, Measurement.Port.Unit, SMU3:MP, SMU4:MP, SMU1:MP
TestParameter, Measurement.Port.SeriesResistor, NONE, NONE, NONE
TestParameter, Measurement.Port.Filter, ON, ON, ON
TestParameter, Measurement.Primary.Locus, Single
TestParameter, Measurement.Primary.Scale, LINEAR
TestParameter, Measurement.Primary.Start, -2
TestParameter, Measurement.Primary.Stop, 3
TestParameter, Measurement.Primary.Step, 0.05
TestParameter, Measurement.Primary.Compliance, 0.1
TestParameter, Measurement.Primary.PowerCompliance, 0
TestParameter, Measurement.Aborting.Condition, CONTINUE AT ANY
TestParameter, Measurement.PostOutput.Value, START
TestParameter, Measurement.PostOutput.Retention, OFF
TestParameter, Measurement.Bias.Source, 3, 0, -2
TestParameter, Measurement.Bias.Compliance, 0.1, 0.1, 0.1
TestParameter, Measurement.Monitor.Unit, SMU3:MP, SMU4:MP, SMU1:MP
TestParameter, Measurement.Monitor.Adc, HR ADC, HR ADC, HR ADC
TestParameter, Measurement.Monitor.RangingMode, AUTO, AUTO, AUTO
TestParameter, Measurement.Monitor.RangeBoundary, , , 
TestParameter, Measurement.Monitor.RangeRating, BY FULL RANGE, BY FULL RANGE, BY FULL RANGE
TestParameter, Measurement.Monitor.RangeRatingCoeff, 50, 50, 50
TestParameter, Measurement.Timing.Hold, 0.5
TestParameter, Measurement.Timing.Delay, 0.05
TestParameter, Measurement.Adc.HighResolution.AutoZero, OFF
TestParameter, Measurement.Adc.HighResolution.Mode, AUTO
TestParameter, Measurement.Adc.HighResolution.Coeff, 1
TestParameter, Measurement.Ag16440ASelector.SemiconductorRelay.Channel1, DEFAULT
TestParameter, Measurement.Ag16440ASelector.SemiconductorRelay.Channel3, DEFAULT
TestParameter, Function.User.Name, absID, sqrtID, gm2, absIG
TestParameter, Function.User.Unit, A, A, A/V, A
TestParameter, Function.User.Definition, abs(ID), sqrt(abs(ID)), (delta(sqrtID)/delta(VG))^2, abs(IG)
TestParameter, Output.Graph.Enabled, true
TestParameter, Output.Graph.XAxis.Data, VG
TestParameter, Output.Graph.XAxis.Scale, Linear
TestParameter, Output.Graph.XAxis.Left, -5
TestParameter, Output.Graph.XAxis.Right, 7
TestParameter, Output.Graph.YAxis.Data, ID, absIG, gm2
TestParameter, Output.Graph.YAxis.Scale, Log, Log, Linear
TestParameter, Output.Graph.YAxis.Bottom, 1E-14, 1E-14, 0
TestParameter, Output.Graph.YAxis.Top, 0.01, 0.01, 1E-05
TestParameter, Output.Graph.YAxis.Group, , , 
TestParameter, Output.List.Data, VG, IG, VD, ID, VS, IS, sqrtID, gm2, absIG
TestParameter, AutoAnalysis.Interpolation, false
TestParameter, AutoAnalysis.Line1.Enabled, false
TestParameter, AutoAnalysis.Line1.Type, 1
TestParameter, AutoAnalysis.Line1.Fix, True
TestParameter, AutoAnalysis.Line1.YAxis, 0
TestParameter, AutoAnalysis.Line1.Point1.Type, 0
TestParameter, AutoAnalysis.Line1.Point1.XY.X, 
TestParameter, AutoAnalysis.Line1.Point1.XY.Y, 
TestParameter, AutoAnalysis.Line1.Point1.Data.Var, 
TestParameter, AutoAnalysis.Line1.Point1.Data.Condition, 
TestParameter, AutoAnalysis.Line1.Point1.Data.Start, false
TestParameter, AutoAnalysis.Line1.Point1.Data.StartVar, 
TestParameter, AutoAnalysis.Line1.Point1.Data.StartCondition, 
TestParameter, AutoAnalysis.Line1.Point2.Type, 0
TestParameter, AutoAnalysis.Line1.Point2.XY.X, 
TestParameter, AutoAnalysis.Line1.Point2.XY.Y, 
TestParameter, AutoAnalysis.Line1.Point2.Data.Var, 
TestParameter, AutoAnalysis.Line1.Point2.Data.Condition, 
TestParameter, AutoAnalysis.Line1.Point2.Data.Start, false
TestParameter, AutoAnalysis.Line1.Point2.Data.StartVar, 
TestParameter, AutoAnalysis.Line1.Point2.Data.StartCondition, 
TestParameter, AutoAnalysis.Line1.GradientExpr, 0
TestParameter, AutoAnalysis.Line2.Enabled, false
TestParameter, AutoAnalysis.Line2.Type, 1
TestParameter, AutoAnalysis.Line2.Fix, True
TestParameter, AutoAnalysis.Line2.YAxis, 0
TestParameter, AutoAnalysis.Line2.Point1.Type, 0
TestParameter, AutoAnalysis.Line2.Point1.XY.X, 
TestParameter, AutoAnalysis.Line2.Point1.XY.Y, 
TestParameter, AutoAnalysis.Line2.Point1.Data.Var, 
TestParameter, AutoAnalysis.Line2.Point1.Data.Condition, 
TestParameter, AutoAnalysis.Line2.Point1.Data.Start, false
TestParameter, AutoAnalysis.Line2.Point1.Data.StartVar, 
TestParameter, AutoAnalysis.Line2.Point1.Data.StartCondition, 
TestParameter, AutoAnalysis.Line2.Point2.Type, 0
TestParameter, AutoAnalysis.Line2.Point2.XY.X, 
TestParameter, AutoAnalysis.Line2.Point2.XY.Y, 
TestParameter, AutoAnalysis.Line2.Point2.Data.Var, 
TestParameter, AutoAnalysis.Line2.Point2.Data.Condition, 
TestParameter, AutoAnalysis.Line2.Point2.Data.Start, false
TestParameter, AutoAnalysis.Line2.Point2.Data.StartVar, 
TestParameter, AutoAnalysis.Line2.Point2.Data.StartCondition, 
TestParameter, AutoAnalysis.Line2.GradientExpr, 0
TestParameter, AutoAnalysis.Marker.Enabled, false
TestParameter, AutoAnalysis.Marker.Data.Var, 
TestParameter, AutoAnalysis.Marker.Data.Condition, 
TestParameter, AutoAnalysis.Marker.Data.Start, false
TestParameter, AutoAnalysis.Marker.Data.StartVar, 
TestParameter, AutoAnalysis.Marker.Data.StartCondition, 
MetaData, TestRecord.EntryPoint, true
MetaData, TestRecord.RecordTime, 05/27/2019 11:10:51
MetaData, TestRecord.TestTarget, 250-180-G46
MetaData, TestRecord.IterationIndex, 1
MetaData, TestRecord.Preservation, true
MetaData, TestRecord.Flag, 
MetaData, TestRecord.Remarks, BAD
MetaData, TestRecord.LinkKey, a669ef05-8fe2-42b9-8b6d-c2daa92784bb
Dimension1, 101, 101, 101, 101, 101, 101, 101, 101, 101, 101
Dimension2, 1, 1, 1, 1, 1, 1, 1, 1, 1, 1
DataName, VG, VD, VS, ID, IS, IG, absID, sqrtID, gm2, absIG
DataValue, -2, 3, 0, 0.00461222, 9.13E-13, -0.0046124700000000005, 0.00461222, 0.067913327116259, 4.9048025186439477E-05, 0.0046124700000000005
DataValue, -1.9500000000000002, 3, 0, 0.00456478, 1.2314000000000001E-11, -0.00456554, 0.00456478, 0.067563155639742, 4.7544032496624218E-05, 0.00456554
DataValue, -1.9000000000000001, 3, 0, 0.00451904, -2.8550000000000003E-12, -0.00451822, 0.00451904, 0.0672238053073463, 4.8876105835884752E-05, 0.00451822
DataValue, -1.85, 3, 0, 0.0044708000000000005, 1.3717E-11, -0.0044707, 0.0044708000000000005, 0.066864041158159152, 5.1113022208091509E-05, 0.0044707
DataValue, -1.8, 3, 0, 0.00442343, -6.5570000000000004E-12, -0.00442259, 0.00442343, 0.066508871588683571, 5.1442566490498716E-05, 0.00442259
DataValue, -1.75, 3, 0, 0.0043754, 3.641E-12, -0.00437389, 0.0043754, 0.06614680642328849, 5.1955662109825476E-05, 0.00437389
DataValue, -1.7000000000000002, 3, 0, 0.00432807, -1.091E-12, -0.00432734, 0.00432807, 0.065788068827105722, 5.1375557788396724E-05, 0.00432734
DataValue, -1.6500000000000001, 3, 0, 0.00428109, -1.0992000000000002E-11, -0.0042806400000000005, 0.00428109, 0.065430038972936588, 5.2065516518882323E-05, 0.0042806400000000005
DataValue, -1.6, 3, 0, 0.00423365, -6.6930000000000007E-12, -0.00423336, 0.00423365, 0.065066504439688477, 5.3544218340063939E-05, 0.00423336
DataValue, -1.55, 3, 0, 0.00418587, -1.846E-12, -0.00418509, 0.00418587, 0.064698299823102, 5.4185391305970479E-05, 0.00418509
DataValue, -1.5, 3, 0, 0.0041384, 9.0000000000000008E-14, -0.00413778, 0.0041384, 0.064330397169611822, 5.5135653239985189E-05, 0.00413778
DataValue, -1.4500000000000002, 3, 0, 0.0040903400000000005, -5.4310000000000006E-12, -0.00408968, 0.0040903400000000005, 0.063955765963672112, 5.5869526562762431E-05, 0.00408968
DataValue, -1.4000000000000001, 3, 0, 0.00404279, 2.1900000000000003E-13, -0.00404274, 0.00404279, 0.063582937962947256, 5.6509992083702858E-05, 0.00404274
DataValue, -1.35, 3, 0, 0.00399475, -7.94E-13, -0.00399443, 0.00399475, 0.063204034681339769, 5.6666274780735847E-05, 0.00399443
DataValue, -1.3, 3, 0, 0.00394763, -1.235E-12, -0.00394726, 0.00394763, 0.062830167913192778, 5.6426006030413587E-05, 0.00394726
DataValue, -1.25, 3, 0, 0.0039003600000000003, -3.665E-12, -0.00390083, 0.0039003600000000003, 0.062452862224240777, 5.6138001527373948E-05, 0.00390083
DataValue, -1.2, 3, 0, 0.00385404, -1.9218E-11, -0.0038528, 0.00385404, 0.062080914941711356, 5.7870000140740541E-05, 0.0038528
DataValue, -1.1500000000000001, 3, 0, 0.00380592, -6.615E-12, -0.00380582, 0.00380592, 0.061692138883329375, 5.9375797639134247E-05, 0.00380582
DataValue, -1.1, 3, 0, 0.00375896, -1.7851E-11, -0.00375859, 0.00375896, 0.061310358015591461, 5.9159897528493266E-05, 0.00375859
DataValue, -1.05, 3, 0, 0.00371161, -2.1770000000000003E-11, -0.0037107, 0.00371161, 0.060922984168538565, 6.09357063971148E-05, 0.0037107
DataValue, -1, 3, 0, 0.00366385, -2.0202000000000003E-11, -0.00366338, 0.00366385, 0.060529744754128943, 6.2128895439046871E-05, 0.00366338
DataValue, -0.95000000000000007, 3, 0, 0.00361619, -1.3737000000000001E-11, -0.00361552, 0.00361619, 0.060134765319239419, 6.2816783650962172E-05, 0.00361552
DataValue, -0.9, 3, 0, 0.00356853, -2.7966000000000003E-11, -0.00356834, 0.00356853, 0.059737174355672364, 6.3534860328336274E-05, 0.00356834
DataValue, -0.85000000000000009, 3, 0, 0.00352096, -1.6726E-11, -0.00352119, 0.00352096, 0.059337677743572, 6.3175416445925573E-05, 0.00352119
DataValue, -0.8, 3, 0, 0.0034742, -2.4268000000000003E-11, -0.0034737500000000003, 0.0034742, 0.058942344710742549, 6.3290959699703711E-05, 0.0034737500000000003
DataValue, -0.75, 3, 0, 0.00342718, -2.7519000000000003E-11, -0.00342677, 0.00342718, 0.058542121587793518, 6.5025415345398383E-05, 0.00342677
DataValue, -0.70000000000000007, 3, 0, 0.00337979, -3.2152000000000004E-11, -0.00337952, 0.00337979, 0.058135961332036128, 6.5663133934473251E-05, 0.00337952
DataValue, -0.65, 3, 0, 0.0033329600000000003, -3.4575E-11, -0.00333266, 0.0033329600000000003, 0.057731793666921521, 6.6896261982000185E-05, 0.00333266
DataValue, -0.6, 3, 0, 0.00328536, -2.971E-11, -0.0032848400000000002, 0.00328536, 0.057318059981126372, 6.8531823530317045E-05, 0.0032848400000000002
DataValue, -0.55, 3, 0, 0.00323806, -3.1874000000000004E-11, -0.00323773, 0.00323806, 0.056903954168405553, 6.8891352430600479E-05, 0.00323773
DataValue, -0.5, 3, 0, 0.0031909, -2.5119E-11, -0.00319024, 0.0031909, 0.056488051833994066, 6.9853051262806415E-05, 0.00319024
DataValue, -0.45, 3, 0, 0.00314364, -5.6301000000000004E-11, -0.00314343, 0.00314364, 0.056068172789917096, 7.02519130915964E-05, 0.00314343
DataValue, -0.4, 3, 0, 0.00309691, -6.518700000000001E-11, -0.00309706, 0.00309691, 0.0556498876908121, 7.0531210718188388E-05, 0.00309706
DataValue, -0.35000000000000003, 3, 0, 0.00305017, -6.0539000000000009E-11, -0.00304956, 0.00305017, 0.055228344172173045, 7.19055946192694E-05, 0.00304956
DataValue, -0.3, 3, 0, 0.0030032500000000003, -7.6589000000000008E-11, -0.00300246, 0.0030032500000000003, 0.054801916024898256, 7.4240007408286367E-05, 0.00300246
DataValue, -0.25, 3, 0, 0.00295574, -7.914300000000001E-11, -0.0029552000000000003, 0.00295574, 0.054366717760041393, 7.5499071476242029E-05, 0.0029552000000000003
DataValue, -0.2, 3, 0, 0.00290877, -8.6218000000000009E-11, -0.0029082500000000002, 0.00290877, 0.053933014008119368, 7.5395629721254314E-05, 0.0029082500000000002
DataValue, -0.15, 3, 0, 0.00286208, -9.2244E-11, -0.00286185, 0.00286208, 0.053498411191361561, 7.66001883233908E-05, 0.00286185
DataValue, -0.1, 3, 0, 0.00281513, -8.9818E-11, -0.00281437, 0.00281513, 0.053057798672768171, 7.867789057490361E-05, 0.00281437
DataValue, -0.05, 3, 0, 0.00276796, -1.0411500000000001E-10, -0.00276764, 0.00276796, 0.052611405607529624, 7.85277537950227E-05, 0.00276764
DataValue, 0, 3, 0, 0.00272188, -1.1813100000000002E-10, -0.0027210100000000003, 0.00272188, 0.052171639805549529, 7.9285384007514925E-05, 0.0027210100000000003
DataValue, 0.05, 3, 0, 0.00267506, -1.17864E-10, -0.00267436, 0.00267506, 0.051720982202583893, 8.1723171512323634E-05, 0.00267436
DataValue, 0.1, 3, 0, 0.00262837, -9.9269000000000014E-11, -0.00262782, 0.00262837, 0.051267631113598375, 8.3035659246318173E-05, 0.00262782
DataValue, 0.15, 3, 0, 0.00258163, -1.42998E-10, -0.00258084, 0.00258163, 0.05080974316014597, 8.5068061498006875E-05, 0.00258084
DataValue, 0.2, 3, 0, 0.00253465, -1.5130100000000002E-10, -0.00253427, 0.00253465, 0.050345307626431281, 8.65436640890042E-05, 0.00253427
DataValue, 0.25, 3, 0, 0.00248796, -1.3495700000000002E-10, -0.0024875, 0.00248796, 0.049879454688278216, 8.7457510953777958E-05, 0.0024875
DataValue, 0.3, 3, 0, 0.00244136, -1.7167700000000002E-10, -0.00244106, 0.00244136, 0.049410120420820672, 8.86487837166317E-05, 0.00244106
DataValue, 0.35000000000000003, 3, 0, 0.00239492, -1.7566700000000003E-10, -0.00239469, 0.00239492, 0.048937919857713612, 9.011923487204443E-05, 0.00239469
DataValue, 0.4, 3, 0, 0.00234845, -1.8001200000000002E-10, -0.00234787, 0.00234845, 0.048460808907817461, 9.2261663080295142E-05, 0.00234787
DataValue, 0.45, 3, 0, 0.00230183, -2.0268300000000002E-10, -0.00230111, 0.00230183, 0.047977390508446786, 9.502564303198937E-05, 0.00230111
DataValue, 0.5, 3, 0, 0.00225492, -2.08708E-10, -0.00225436, 0.00225492, 0.047485997936233794, 9.5591617625875465E-05, 0.00225436
DataValue, 0.55, 3, 0, 0.00220897, -2.2003100000000002E-10, -0.00220862, 0.00220897, 0.046999680849980248, 9.6626399462442731E-05, 0.00220862
DataValue, 0.6, 3, 0, 0.00216253, -2.26179E-10, -0.0021622, 0.00216253, 0.046503010655225323, 9.9003927703450925E-05, 0.0021622
DataValue, 0.65, 3, 0, 0.00211643, -2.36409E-10, -0.00211565, 0.00211643, 0.046004673675616913, 0.00010144249903200235, 0.00211565
DataValue, 0.70000000000000007, 3, 0, 0.00206987, -2.63287E-10, -0.00206962, 0.00206987, 0.045495823984185627, 0.00010370212807517375, 0.00206962
DataValue, 0.75, 3, 0, 0.0020237700000000003, -2.71363E-10, -0.00202328, 0.0020237700000000003, 0.044986331257394173, 0.00010553366345399169, 0.00202328
DataValue, 0.8, 3, 0, 0.00197745, -2.7973E-10, -0.00197696, 0.00197745, 0.044468528196916976, 0.00010834948003375846, 0.00197696
DataValue, 0.85000000000000009, 3, 0, 0.0019312, -2.9956500000000004E-10, -0.00193062, 0.0019312, 0.04394542069431126, 0.00011073079223433553, 0.00193062
DataValue, 0.9, 3, 0, 0.0018849700000000001, -3.19787E-10, -0.00188443, 0.0018849700000000001, 0.043416241200730406, 0.00011312585039724784, 0.00188443
DataValue, 0.95000000000000007, 3, 0, 0.00183885, -3.29376E-10, -0.00183814, 0.00183885, 0.042881814327287972, 0.00011640369310517815, 0.00183814
DataValue, 1, 3, 0, 0.0017924500000000001, -3.5419500000000004E-10, -0.0017920500000000001, 0.0017924500000000001, 0.042337335768798681, 0.00011921656452026475, 0.0017920500000000001
DataValue, 1.05, 3, 0, 0.0017464, -3.65252E-10, -0.0017458200000000001, 0.0017464, 0.041789950945173411, 0.00012152838312844224, 0.0017458200000000001
DataValue, 1.1, 3, 0, 0.00170032, -3.7972400000000004E-10, -0.00169974, 0.00170032, 0.041234936643579315, 0.00012446408390405408, 0.00169974
DataValue, 1.1500000000000001, 3, 0, 0.0016544, -4.0300600000000006E-10, -0.0016538, 0.0016544, 0.04067431622043572, 0.00012767856974907861, 0.0016538
DataValue, 1.2, 3, 0, 0.00160841, -4.17452E-10, -0.00160804, 0.00160841, 0.040104987221042721, 0.00013071708519530402, 0.00160804
DataValue, 1.25, 3, 0, 0.0015627, -4.3916400000000005E-10, -0.00156244, 0.0015627, 0.039531000493283751, 0.00013376305285789817, 0.00156244
DataValue, 1.3, 3, 0, 0.00151698, -4.5753100000000003E-10, -0.0015164900000000001, 0.00151698, 0.038948427439371672, 0.00013810163431755777, 0.0015164900000000001
DataValue, 1.35, 3, 0, 0.00147117, -4.69408E-10, -0.00147067, 0.00147117, 0.038355833976072007, 0.00014204792732410985, 0.00147067
DataValue, 1.4000000000000001, 3, 0, 0.00142556, -4.89618E-10, -0.00142496, 0.00142556, 0.037756588828971295, 0.000146615233023995, 0.00142496
DataValue, 1.4500000000000002, 3, 0, 0.0013797500000000001, -5.12921E-10, -0.00137912, 0.0013797500000000001, 0.037144986202716515, 0.0001515652179704435, 0.00137912
DataValue, 1.5, 3, 0, 0.0013341100000000001, -5.2948800000000008E-10, -0.00133353, 0.0013341100000000001, 0.036525470565072805, 0.0001562849459452474, 0.00133353
DataValue, 1.55, 3, 0, 0.00128844, -5.62364E-10, -0.00128776, 0.00128844, 0.035894846426750456, 0.0001618965099013113, 0.00128776
DataValue, 1.6, 3, 0, 0.00124278, -5.8237300000000005E-10, -0.00124236, 0.00124278, 0.035253084971389383, 0.00016635556462093004, 0.00124236
DataValue, 1.6500000000000001, 3, 0, 0.00119751, -6.06679E-10, -0.00119703, 0.00119751, 0.034605057433849173, 0.00017146730001664802, 0.00119703
DataValue, 1.7000000000000002, 3, 0, 0.00115217, -6.2231700000000005E-10, -0.00115183, 0.00115217, 0.033943629741086917, 0.00017772818819646388, 0.00115183
DataValue, 1.75, 3, 0, 0.00110702, -6.604940000000001E-10, -0.00110662, 0.00110702, 0.033271910074415628, 0.00018447168855156168, 0.00110662
DataValue, 1.8, 3, 0, 0.00106181, -6.7811400000000008E-10, -0.00106129, 0.00106181, 0.032585426190246465, 0.00019280122933087239, 0.00106129
DataValue, 1.85, 3, 0, 0.00101655, -7.0918E-10, -0.00101608, 0.00101655, 0.031883381251053028, 0.00020161170448917189, 0.00101608
DataValue, 1.9000000000000001, 3, 0, 0.00097129000000000009, -7.4046100000000006E-10, -0.000971238, 0.00097129000000000009, 0.031165525825822354, 0.00020956304392534441, 0.000971238
DataValue, 1.9500000000000002, 3, 0, 0.000926335, -7.6226800000000008E-10, -0.00092629700000000008, 0.000926335, 0.030435752003195191, 0.00021781755074686655, 0.00092629700000000008
DataValue, 2, 3, 0, 0.00088147600000000007, -7.9877800000000009E-10, -0.00088144200000000008, 0.00088147600000000007, 0.029689661500259649, 0.00022943291295577083, 0.00088144200000000008
DataValue, 2.05, 3, 0, 0.000836427, -8.1907E-10, -0.000836543, 0.000836427, 0.028921047698864576, 0.00023968052549360226, 0.000836543
DataValue, 2.1, 3, 0, 0.000791944, -8.6654800000000006E-10, -0.00079187100000000009, 0.000791944, 0.028141499604676365, 0.00025142840288604461, 0.00079187100000000009
DataValue, 2.15, 3, 0, 0.000747224, -8.8834100000000007E-10, -0.00074716600000000006, 0.000747224, 0.027335398295982447, 0.00026725170088530328, 0.00074716600000000006
DataValue, 2.2, 3, 0, 0.000702606, -9.2189100000000012E-10, -0.000702576, 0.000702606, 0.026506716130067866, 0.00028304908498010434, 0.000702576
DataValue, 2.25, 3, 0, 0.00065807600000000006, -9.4179600000000017E-10, -0.000657978, 0.00065807600000000006, 0.025652992028221581, 0.00030147037116766548, 0.000657978
DataValue, 2.3000000000000003, 3, 0, 0.00061357400000000009, -9.9113800000000014E-10, -0.00061350400000000007, 0.00061357400000000009, 0.024770425914787984, 0.00032122359373465967, 0.00061350400000000007
DataValue, 2.35, 3, 0, 0.000569334, -1.019228E-09, -0.000569288, 0.000569334, 0.023860720860862522, 0.000344383821172884, 0.000569288
DataValue, 2.4, 3, 0, 0.00052508200000000007, -1.0384800000000001E-09, -0.00052502700000000007, 0.00052508200000000007, 0.022914667791613302, 0.00037304040237837063, 0.00052502700000000007
DataValue, 2.45, 3, 0, 0.00048089400000000005, -1.1044840000000001E-09, -0.000480885, 0.00048089400000000005, 0.02192929547431928, 0.00040490604883389213, 0.000480885
DataValue, 2.5, 3, 0, 0.000436912, -1.10195E-09, -0.000436849, 0.000436912, 0.020902440048951223, 0.00044485314536345005, 0.000436849
DataValue, 2.5500000000000003, 3, 0, 0.000392838, -1.18156E-09, -0.00039282300000000004, 0.000392838, 0.01982014127093952, 0.000493607562184641, 0.00039282300000000004
DataValue, 2.6, 3, 0, 0.000348969, -1.22463E-09, -0.000348926, 0.000348969, 0.01868071197786637, 0.00054505111770079319, 0.000348926
DataValue, 2.65, 3, 0, 0.00030574300000000003, -1.26183E-09, -0.000305667, 0.00030574300000000003, 0.017485508285434541, 0.00062332399497714132, 0.000305667
DataValue, 2.7, 3, 0, 0.000261924, -1.28431E-09, -0.00026187700000000004, 0.000261924, 0.016184066238124462, 0.0007369922760330069, 0.00026187700000000004
