
SetupTitle, Transfer lin
PrimitiveTest, I/V Sweep
TestParameter, Context.MainFrame, 4155C
TestParameter, Channel.UnitType, SMU, SMU, SMU
TestParameter, Channel.Unit, SMU3:MP, SMU4:MP, SMU1:MP
TestParameter, Channel.IName, ID, IS, IG
TestParameter, Channel.VName, VD, VS, VG
TestParameter, Channel.Mode, V, COMMON, V
TestParameter, Channel.Func, CONST, CONST, VAR1
TestParameter, Channel.Index, 
TestParameter, Channel.Time, 
TestParameter, Measurement.Port.Unit, SMU3:MP, SMU4:MP, SMU1:MP
TestParameter, Measurement.Port.SeriesResistor, NONE, NONE, NONE
TestParameter, Measurement.Port.Filter, ON, ON, ON
TestParameter, Measurement.Primary.Locus, Double
TestParameter, Measurement.Primary.Scale, LINEAR
TestParameter, Measurement.Primary.Start, -2
TestParameter, Measurement.Primary.Stop, 3
TestParameter, Measurement.Primary.Step, 0.05
TestParameter, Measurement.Primary.Compliance, 0.001
TestParameter, Measurement.Primary.PowerCompliance, 0
TestParameter, Measurement.Aborting.Condition, CONTINUE AT ANY
TestParameter, Measurement.PostOutput.Value, START
TestParameter, Measurement.PostOutput.Retention, OFF
TestParameter, Measurement.Bias.Source, 0.1, 0, -2
TestParameter, Measurement.Bias.Compliance, 0.001, 0.1, 0.001
TestParameter, Measurement.Monitor.Unit, SMU3:MP, SMU4:MP, SMU1:MP
TestParameter, Measurement.Monitor.Adc, HR ADC, HR ADC, HR ADC
TestParameter, Measurement.Monitor.RangingMode, AUTO, AUTO, AUTO
TestParameter, Measurement.Monitor.RangeBoundary, , , 
TestParameter, Measurement.Monitor.RangeRating, BY FULL RANGE, BY FULL RANGE, BY FULL RANGE
TestParameter, Measurement.Monitor.RangeRatingCoeff, 50, 50, 50
TestParameter, Measurement.Timing.Hold, 0.5
TestParameter, Measurement.Timing.Delay, 0.05
TestParameter, Measurement.Adc.HighResolution.AutoZero, OFF
TestParameter, Measurement.Adc.HighResolution.Mode, AUTO
TestParameter, Measurement.Adc.HighResolution.Coeff, 1
TestParameter, Measurement.Ag16440ASelector.SemiconductorRelay.Channel1, DEFAULT
TestParameter, Measurement.Ag16440ASelector.SemiconductorRelay.Channel3, DEFAULT
TestParameter, Function.User.Name, absID, sqrtID, gm2, absIG
TestParameter, Function.User.Unit, A, A, A/V, A
TestParameter, Function.User.Definition, abs(ID), sqrt(abs(ID)), (delta(sqrtID)/delta(VG))^2, abs(IG)
TestParameter, Output.Graph.Enabled, true
TestParameter, Output.Graph.XAxis.Data, VG
TestParameter, Output.Graph.XAxis.Scale, Linear
TestParameter, Output.Graph.XAxis.Left, -5
TestParameter, Output.Graph.XAxis.Right, 7
TestParameter, Output.Graph.YAxis.Data, ID, absIG, gm2
TestParameter, Output.Graph.YAxis.Scale, Log, Log, Linear
TestParameter, Output.Graph.YAxis.Bottom, 1E-14, 1E-14, 0
TestParameter, Output.Graph.YAxis.Top, 0.01, 0.01, 1E-05
TestParameter, Output.Graph.YAxis.Group, , , 
TestParameter, Output.List.Data, VG, IG, VD, ID, VS, IS, sqrtID, gm2, absIG
TestParameter, AutoAnalysis.Interpolation, false
TestParameter, AutoAnalysis.Line1.Enabled, false
TestParameter, AutoAnalysis.Line1.Type, 1
TestParameter, AutoAnalysis.Line1.Fix, True
TestParameter, AutoAnalysis.Line1.YAxis, 0
TestParameter, AutoAnalysis.Line1.Point1.Type, 0
TestParameter, AutoAnalysis.Line1.Point1.XY.X, 
TestParameter, AutoAnalysis.Line1.Point1.XY.Y, 
TestParameter, AutoAnalysis.Line1.Point1.Data.Var, 
TestParameter, AutoAnalysis.Line1.Point1.Data.Condition, 
TestParameter, AutoAnalysis.Line1.Point1.Data.Start, false
TestParameter, AutoAnalysis.Line1.Point1.Data.StartVar, 
TestParameter, AutoAnalysis.Line1.Point1.Data.StartCondition, 
TestParameter, AutoAnalysis.Line1.Point2.Type, 0
TestParameter, AutoAnalysis.Line1.Point2.XY.X, 
TestParameter, AutoAnalysis.Line1.Point2.XY.Y, 
TestParameter, AutoAnalysis.Line1.Point2.Data.Var, 
TestParameter, AutoAnalysis.Line1.Point2.Data.Condition, 
TestParameter, AutoAnalysis.Line1.Point2.Data.Start, false
TestParameter, AutoAnalysis.Line1.Point2.Data.StartVar, 
TestParameter, AutoAnalysis.Line1.Point2.Data.StartCondition, 
TestParameter, AutoAnalysis.Line1.GradientExpr, 0
TestParameter, AutoAnalysis.Line2.Enabled, false
TestParameter, AutoAnalysis.Line2.Type, 1
TestParameter, AutoAnalysis.Line2.Fix, True
TestParameter, AutoAnalysis.Line2.YAxis, 0
TestParameter, AutoAnalysis.Line2.Point1.Type, 0
TestParameter, AutoAnalysis.Line2.Point1.XY.X, 
TestParameter, AutoAnalysis.Line2.Point1.XY.Y, 
TestParameter, AutoAnalysis.Line2.Point1.Data.Var, 
TestParameter, AutoAnalysis.Line2.Point1.Data.Condition, 
TestParameter, AutoAnalysis.Line2.Point1.Data.Start, false
TestParameter, AutoAnalysis.Line2.Point1.Data.StartVar, 
TestParameter, AutoAnalysis.Line2.Point1.Data.StartCondition, 
TestParameter, AutoAnalysis.Line2.Point2.Type, 0
TestParameter, AutoAnalysis.Line2.Point2.XY.X, 
TestParameter, AutoAnalysis.Line2.Point2.XY.Y, 
TestParameter, AutoAnalysis.Line2.Point2.Data.Var, 
TestParameter, AutoAnalysis.Line2.Point2.Data.Condition, 
TestParameter, AutoAnalysis.Line2.Point2.Data.Start, false
TestParameter, AutoAnalysis.Line2.Point2.Data.StartVar, 
TestParameter, AutoAnalysis.Line2.Point2.Data.StartCondition, 
TestParameter, AutoAnalysis.Line2.GradientExpr, 0
TestParameter, AutoAnalysis.Marker.Enabled, false
TestParameter, AutoAnalysis.Marker.Data.Var, 
TestParameter, AutoAnalysis.Marker.Data.Condition, 
TestParameter, AutoAnalysis.Marker.Data.Start, false
TestParameter, AutoAnalysis.Marker.Data.StartVar, 
TestParameter, AutoAnalysis.Marker.Data.StartCondition, 
MetaData, TestRecord.EntryPoint, true
MetaData, TestRecord.RecordTime, 05/27/2019 12:05:47
MetaData, TestRecord.TestTarget, 350-180-G19-2
MetaData, TestRecord.IterationIndex, 1
MetaData, TestRecord.Preservation, true
MetaData, TestRecord.Flag, 
MetaData, TestRecord.Remarks, GOOD
MetaData, TestRecord.LinkKey, 5a94dfb8-ba42-4ada-8821-b7797d83e5bf
Dimension1, 202, 202, 202, 202, 202, 202, 202, 202, 202, 202
Dimension2, 1, 1, 1, 1, 1, 1, 1, 1, 1, 1
DataName, VG, VD, VS, ID, IS, IG, absID, sqrtID, gm2, absIG
DataValue, -2, 0.1, 0, 4.5050000000000007E-12, 3.9000000000000005E-13, -2.0790000000000003E-12, 4.5050000000000007E-12, 2.1224985276791128E-06, 4.1229276901555748E-10, 2.0790000000000003E-12
DataValue, -1.9500000000000002, 0.1, 0, -1.226E-12, -7.5E-13, -2.3170000000000003E-12, 1.226E-12, 1.1072488428533127E-06, 2.5237917130148948E-10, 2.3170000000000003E-12
DataValue, -1.9000000000000001, 0.1, 0, 2.85E-13, 3.9300000000000004E-13, -1.684E-12, 2.85E-13, 5.3385391260156553E-07, 2.3575631689558447E-11, 1.684E-12
DataValue, -1.85, 0.1, 0, 2.537E-12, 6.2100000000000008E-13, -3.0810000000000003E-12, 2.537E-12, 1.5927962832704E-06, 1.6630793544676735E-10, 3.0810000000000003E-12
DataValue, -1.8, 0.1, 0, -3.325E-12, 1.5840000000000001E-12, -1.946E-12, 3.325E-12, 1.823458252881047E-06, 1.1619082988533276E-12, 1.946E-12
DataValue, -1.75, 0.1, 0, 2.892E-12, 8.45E-13, -3.1140000000000003E-12, 2.892E-12, 1.7005881335585053E-06, 2.1670760152432094E-11, 3.1140000000000003E-12
DataValue, -1.7000000000000002, 0.1, 0, 1.8440000000000002E-12, -1.1400000000000002E-13, -1.7640000000000002E-12, 1.8440000000000002E-12, 1.3579396157414365E-06, 5.2175248891820646E-11, 1.7640000000000002E-12
DataValue, -1.6500000000000001, 0.1, 0, 9.57E-13, 5.7400000000000008E-13, -1.301E-12, 9.57E-13, 9.78263768111648E-07, 1.0985155972924971E-10, 1.301E-12
DataValue, -1.6, 0.1, 0, -9.6000000000000007E-14, -9.42E-13, -3.54E-13, 9.6000000000000007E-14, 3.0983866769659334E-07, 2.051245211602717E-11, 3.54E-13
DataValue, -1.55, 0.1, 0, -2.7600000000000004E-13, 1.0540000000000002E-12, -5.87E-13, 2.7600000000000004E-13, 5.2535702146254789E-07, 4.4337780391388149E-11, 5.87E-13
DataValue, -1.5, 0.1, 0, 9.52E-13, 5.5400000000000006E-13, -8.1100000000000008E-13, 9.52E-13, 9.7570487341203751E-07, 1.9243595514881785E-12, 8.1100000000000008E-13
DataValue, -1.4500000000000002, 0.1, 0, 4.4100000000000004E-13, -2.6000000000000003E-14, -7.9000000000000007E-13, 4.4100000000000004E-13, 6.6407830863535974E-07, 2.1155675768576067E-11, 7.9000000000000007E-13
DataValue, -1.4000000000000001, 0.1, 0, 2.6600000000000003E-13, -1.0000000000000002E-14, -4.93E-13, 2.6600000000000003E-13, 5.15751878329105E-07, 1.7747580665463642E-11, 4.93E-13
DataValue, -1.35, 0.1, 0, -1.178E-12, -4.7E-13, -4.0600000000000004E-13, 1.178E-12, 1.0853570840972108E-06, 2.2630160848860198E-11, 4.0600000000000004E-13
DataValue, -1.3, 0.1, 0, 9.8300000000000015E-13, 1.187E-12, -4.71E-13, 9.8300000000000015E-13, 9.91463564635635E-07, 5.5819960279553434E-11, 4.71E-13
DataValue, -1.25, 0.1, 0, -3.3580000000000004E-12, 7.6E-14, -7.830000000000001E-13, 3.3580000000000004E-12, 1.832484652050325E-06, 7.3843386309687358E-12, 7.830000000000001E-13
DataValue, -1.2, 0.1, 0, -5.18E-13, 1.2400000000000002E-12, -5.5100000000000008E-13, 5.18E-13, 7.1972216861786323E-07, 1.323824135839981E-10, 5.5100000000000008E-13
DataValue, -1.1500000000000001, 0.1, 0, 4.65E-13, 3.2200000000000004E-13, -6.4600000000000007E-13, 4.65E-13, 6.8190908484929284E-07, 8.86977688168767E-12, 6.4600000000000007E-13
DataValue, -1.1, 0.1, 0, 1.7800000000000002E-13, -5.8000000000000005E-13, -1.9700000000000002E-13, 1.7800000000000002E-13, 4.2190046219457974E-07, 1.4766963842641091E-10, 1.9700000000000002E-13
DataValue, -1.05, 0.1, 0, -3.5990000000000003E-12, -2.33E-13, 8.2E-14, 3.5990000000000003E-12, 1.8971030546599203E-06, 1.6760276846441211E-12, 8.2E-14
DataValue, -1, 0.1, 0, -3.04E-13, 1.0500000000000001E-13, -2.5100000000000004E-13, 3.04E-13, 5.5136195008360889E-07, 1.7109581659396182E-10, 2.5100000000000004E-13
DataValue, -0.95000000000000007, 0.1, 0, 3.4700000000000004E-13, 3.63E-13, -1.4E-14, 3.4700000000000004E-13, 5.8906705900092564E-07, 6.0273648966869783E-12, 1.4E-14
DataValue, -0.9, 0.1, 0, 6.35E-13, 1.3650000000000001E-12, -3.5500000000000005E-13, 6.35E-13, 7.9686887252546133E-07, 1.5137317639962984E-11, 3.5500000000000005E-13
DataValue, -0.85000000000000009, 0.1, 0, 4.0000000000000006E-14, -1.0500000000000001E-13, -3.7200000000000003E-13, 4.0000000000000006E-14, 2.0000000000000002E-07, 1.9496602454124736E-10, 3.7200000000000003E-13
DataValue, -0.8, 0.1, 0, 4.8100000000000007E-12, -1.4E-14, -2.72E-13, 4.8100000000000007E-12, 2.1931712199461311E-06, 1.39633373542435E-10, 2.72E-13
DataValue, -0.75, 0.1, 0, -1.909E-12, 2.92E-13, -2.47E-13, 1.909E-12, 1.3816656614391198E-06, 4.2590565197279472E-13, 2.47E-13
DataValue, -0.70000000000000007, 0.1, 0, -4.528E-12, -8E-13, 7E-14, 4.528E-12, 2.1279097725232617E-06, 6.4322098902501572E-11, 7E-14
DataValue, -0.65, 0.1, 0, -3.3600000000000003E-13, 5.9900000000000007E-13, 1.47E-13, 3.3600000000000003E-13, 5.7965506984757759E-07, 4.0557619141081283E-10, 1.47E-13
DataValue, -0.6, 0.1, 0, -1.3000000000000001E-14, -2.1400000000000002E-13, 4E-13, 1.3000000000000001E-14, 1.1401754250991381E-07, 2.1844935581496775E-13, 4E-13
DataValue, -0.55, 0.1, 0, -2.84E-13, -4.34E-13, 8.93E-13, 2.84E-13, 5.3291650377896914E-07, 5.8638095803239443E-11, 8.93E-13
DataValue, -0.5, 0.1, 0, -7.74E-13, -4.4300000000000003E-13, -3.7E-14, 7.74E-13, 8.7977269791691082E-07, 1.8001176472216561E-12, 3.7E-14
DataValue, -0.45, 0.1, 0, -1.59E-13, 4.72E-13, 4.7E-13, 1.59E-13, 3.9874804074753774E-07, 2.3240647621592876E-12, 4.7E-13
DataValue, -0.4, 0.1, 0, 5.2900000000000007E-13, 3.63E-13, -2.93E-13, 5.2900000000000007E-13, 7.2732386183872732E-07, 7.2019232547552379E-12, 2.93E-13
DataValue, -0.35000000000000003, 0.1, 0, -1.7E-14, -4.3000000000000004E-13, 9.4E-14, 1.7E-14, 1.3038404810405297E-07, 8.01578316023178E-12, 9.4E-14
DataValue, -0.3, 0.1, 0, -1.021E-12, 2.7700000000000003E-13, 7.1E-14, 1.021E-12, 1.0104454463255302E-06, 2.7801972696325223E-10, 7.1E-14
DataValue, -0.25, 0.1, 0, 3.2320000000000004E-12, 1.049E-12, -2.46E-13, 3.2320000000000004E-12, 1.7977764043395386E-06, 4.812107081519E-13, 2.46E-13
DataValue, -0.2, 0.1, 0, -1.166E-12, -1.8000000000000002E-14, 6.85E-13, 1.166E-12, 1.0798147989354472E-06, 2.7061638673096577E-10, 6.85E-13
DataValue, -0.15, 0.1, 0, -1.1853000000000001E-11, 1.6530000000000001E-12, -2.4100000000000003E-13, 1.1853000000000001E-11, 3.4428186127067457E-06, 9.01418750624265E-11, 2.4100000000000003E-13
DataValue, -0.1, 0.1, 0, 1.7E-14, -8.72E-13, 1.94E-13, 1.7E-14, 1.3038404810405297E-07, 1.0162500071204787E-09, 1.94E-13
DataValue, -0.05, 0.1, 0, 6.5E-14, 4.0300000000000005E-13, -9.1E-14, 6.5E-14, 2.5495097567963926E-07, 7.4719422493985164E-12, 9.1E-14
DataValue, 0, 0.1, 0, -1.63E-13, 1.113E-12, 1.326E-12, 1.63E-13, 4.03732584763727E-07, 5.3651216499303564E-11, 1.326E-12
DataValue, 0.05, 0.1, 0, -9.75E-13, -5.59E-13, 6.1E-13, 9.75E-13, 9.87420882906575E-07, 1.0451349286281441E-12, 6.1E-13
DataValue, 0.1, 0.1, 0, 2.56E-13, 3.021E-12, -1.1600000000000001E-12, 2.56E-13, 5.0596442562694067E-07, 6.7254576716283408E-11, 1.1600000000000001E-12
DataValue, 0.15, 0.1, 0, -2.8E-14, 1.6820000000000001E-12, -1.5410000000000002E-12, 2.8E-14, 1.673320053068151E-07, 4.7787888807065638E-12, 1.5410000000000002E-12
DataValue, 0.2, 0.1, 0, 5.2500000000000009E-13, -4.2600000000000005E-13, -3.4900000000000003E-13, 5.2500000000000009E-13, 7.24568837309472E-07, 2.0753897246727381E-11, 3.4900000000000003E-13
DataValue, 0.25, 0.1, 0, -3.88E-13, -5.700000000000001E-14, 5.0300000000000008E-13, 3.88E-13, 6.2289646009589744E-07, 5.3178793273068851E-12, 5.0300000000000008E-13
DataValue, 0.3, 0.1, 0, -2.44E-13, -1.4930000000000002E-12, -3.18E-13, 2.44E-13, 4.9396356140913874E-07, 4.8015729383895853E-12, 3.18E-13
DataValue, 0.35000000000000003, 0.1, 0, -7.09E-13, -6.2E-14, 1.594E-12, 7.09E-13, 8.4202137740083535E-07, 4.745812127896954E-10, 1.594E-12
DataValue, 0.4, 0.1, 0, -7.1420000000000009E-12, 6.7400000000000006E-13, 1.1120000000000001E-12, 7.1420000000000009E-12, 2.6724520575681057E-06, 8.1484003158439367E-11, 1.1120000000000001E-12
DataValue, 0.45, 0.1, 0, 3.0440000000000004E-12, -8.540000000000001E-13, 8.050000000000001E-13, 3.0440000000000004E-12, 1.7447062790051512E-06, 6.5023856096907168E-10, 8.050000000000001E-13
DataValue, 0.5, 0.1, 0, 1.5000000000000002E-14, 1.3840000000000002E-12, 2.05E-13, 1.5000000000000002E-14, 1.2247448713915892E-07, 6.48923253873965E-11, 2.05E-13
DataValue, 0.55, 0.1, 0, -8.8200000000000008E-13, -6.77E-13, 1.71E-13, 8.8200000000000008E-13, 9.3914855054991176E-07, 3.2611768779534477E-11, 1.71E-13
DataValue, 0.6, 0.1, 0, -4.8100000000000007E-13, -1.0100000000000001E-12, 5.9800000000000008E-13, 4.8100000000000007E-13, 6.9354163537598814E-07, 4.8788102957023174E-14, 5.9800000000000008E-13
DataValue, 0.65, 0.1, 0, -8.4100000000000005E-13, 3.04E-13, 8.5200000000000011E-13, 8.4100000000000005E-13, 9.1706052144883007E-07, 6.4292269947382762E-12, 8.5200000000000011E-13
DataValue, 0.70000000000000007, 0.1, 0, -8.9700000000000012E-13, -5.5100000000000008E-13, 8.8200000000000008E-13, 8.9700000000000012E-13, 9.4710083940412607E-07, 9.76410511175479E-13, 8.8200000000000008E-13
DataValue, 0.75, 0.1, 0, -1.032E-12, -1.333E-12, 4.13E-13, 1.032E-12, 1.0158740079360236E-06, 1.2936003241819605E-10, 4.13E-13
DataValue, 0.8, 0.1, 0, 4.3450000000000006E-12, -3.622E-12, 4.24E-13, 4.3450000000000006E-12, 2.0844663585675831E-06, 4.198766906562747E-10, 4.24E-13
DataValue, 0.85000000000000009, 0.1, 0, 9.3940000000000014E-12, -1.0858E-11, 5.58E-13, 9.3940000000000014E-12, 3.0649632950493878E-06, 5.4112181870678079E-10, 5.58E-13
DataValue, 0.9, 0.1, 0, 1.9454E-11, -2.2846000000000002E-11, 1E-12, 1.9454E-11, 4.4106688835141548E-06, 1.6680954819300409E-09, 1E-12
DataValue, 0.95000000000000007, 0.1, 0, 5.1111000000000007E-11, -5.0123000000000004E-11, 1.128E-12, 5.1111000000000007E-11, 7.1491957589647809E-06, 3.5549318194293431E-09, 1.128E-12
DataValue, 1, 0.1, 0, 1.0759900000000001E-10, -1.01549E-10, 1.329E-12, 1.0759900000000001E-10, 1.0372993781932004E-05, 4.8937308031997746E-09, 1.329E-12
DataValue, 1.05, 0.1, 0, 2.0007300000000001E-10, -1.9114800000000002E-10, -7.1E-14, 2.0007300000000001E-10, 1.41447163280145E-05, 6.8155150155668953E-09, 7.1E-14
DataValue, 1.1, 0.1, 0, 3.4702500000000005E-10, -3.402E-10, -2.6200000000000004E-13, 3.4702500000000005E-10, 1.8628607033270094E-05, 9.93365980883751E-09, 2.6200000000000004E-13
DataValue, 1.1500000000000001, 0.1, 0, 5.8136400000000008E-10, -5.6235700000000009E-10, 8.19E-13, 5.8136400000000008E-10, 2.4111491036433231E-05, 1.1672114601193091E-08, 8.19E-13
DataValue, 1.2, 0.1, 0, 8.662640000000001E-10, -8.47693E-10, 1.4970000000000002E-12, 8.662640000000001E-10, 2.9432363139917939E-05, 1.3937961045335827E-08, 1.4970000000000002E-12
DataValue, 1.25, 0.1, 0, 1.29006E-09, -1.24943E-09, -8.49E-13, 1.29006E-09, 3.5917405251493321E-05, 2.1184864839698718E-08, 8.49E-13
DataValue, 1.3, 0.1, 0, 1.93489E-09, -1.91896E-09, 2.8E-14, 1.93489E-09, 4.3987384555119896E-05, 2.8643647407352562E-08, 2.8E-14
DataValue, 1.35, 0.1, 0, 2.79226E-09, -2.74927E-09, 1.6240000000000002E-12, 2.79226E-09, 5.2841839483500195E-05, 3.2327554036190416E-08, 1.6240000000000002E-12
DataValue, 1.4000000000000001, 0.1, 0, 3.83994E-09, -3.79079E-09, 8.3400000000000008E-13, 3.83994E-09, 6.1967249414509267E-05, 3.5041567571211168E-08, 8.3400000000000008E-13
DataValue, 1.4500000000000002, 0.1, 0, 5.12101E-09, -5.06022E-09, 2.3380000000000003E-12, 5.12101E-09, 7.1561232521526625E-05, 3.8449978813697969E-08, 2.3380000000000003E-12
DataValue, 1.5, 0.1, 0, 6.65463E-09, -6.57326E-09, 1.661E-12, 6.65463E-09, 8.15759155633573E-05, 4.2155556056029953E-08, 1.661E-12
DataValue, 1.55, 0.1, 0, 8.48113E-09, -8.38772E-09, 1.0620000000000001E-12, 8.48113E-09, 9.2093050769317014E-05, 4.0630740131313789E-08, 1.0620000000000001E-12
DataValue, 1.6, 0.1, 0, 1.0349599999999998E-08, -1.025886E-08, 6.35E-13, 1.0349599999999998E-08, 0.00010173298383513578, 4.355475074810987E-08, 6.35E-13
DataValue, 1.6500000000000001, 0.1, 0, 1.2760599999999999E-08, -1.2459E-08, 4.5100000000000005E-13, 1.2760599999999999E-08, 0.00011296282574369322, 5.1927914268078204E-08, 4.5100000000000005E-13
DataValue, 1.7000000000000002, 0.1, 0, 1.5505399999999997E-08, -1.5359599999999998E-08, 1.203E-12, 1.5505399999999997E-08, 0.00012452068101323569, 5.7296907784184268E-08, 1.203E-12
DataValue, 1.75, 0.1, 0, 1.87415E-08, -1.85808E-08, 2.2170000000000003E-12, 1.87415E-08, 0.00013689959824630604, 6.2439250627193925E-08, 2.2170000000000003E-12
DataValue, 1.8, 0.1, 0, 2.2352799999999998E-08, -2.2164399999999998E-08, 1.596E-12, 2.2352799999999998E-08, 0.00014950852818484969, 6.5002555444837977E-08, 1.596E-12
DataValue, 1.85, 0.1, 0, 2.6372199999999997E-08, -2.61708E-08, 1.22E-12, 2.6372199999999997E-08, 0.00016239519697330951, 6.8019146742895E-08, 1.22E-12
DataValue, 1.9000000000000001, 0.1, 0, 3.0831499999999994E-08, -3.05893E-08, 1.0580000000000001E-12, 3.0831499999999994E-08, 0.00017558900876763327, 7.1059097045291046E-08, 1.0580000000000001E-12
DataValue, 1.9500000000000002, 0.1, 0, 3.57407E-08, -3.5495999999999996E-08, 1.506E-12, 3.57407E-08, 0.00018905210921859613, 7.4055343951783061E-08, 1.506E-12
DataValue, 2, 0.1, 0, 4.1128699999999994E-08, -4.0844399999999993E-08, 2.071E-12, 4.1128699999999994E-08, 0.00020280212030449778, 7.69671568826142E-08, 2.071E-12
DataValue, 2.05, 0.1, 0, 4.7000099999999996E-08, -4.6692899999999995E-08, 8.6100000000000007E-13, 4.7000099999999996E-08, 0.00021679506451946731, 7.9917763388822707E-08, 8.6100000000000007E-13
DataValue, 2.1, 0.1, 0, 5.3394199999999992E-08, -5.3057799999999994E-08, 1.7890000000000002E-12, 5.3394199999999992E-08, 0.00023107185029769419, 8.3071444507559174E-08, 1.7890000000000002E-12
DataValue, 2.15, 0.1, 0, 6.03278E-08, -5.99621E-08, 2.903E-12, 6.03278E-08, 0.00024561718180941659, 8.5779238325474375E-08, 2.903E-12
DataValue, 2.2, 0.1, 0, 6.77873E-08, -6.7405499999999988E-08, 2.728E-12, 6.77873E-08, 0.00026035994315562445, 8.8609076337477878E-08, 2.728E-12
DataValue, 2.25, 0.1, 0, 7.58366E-08, -7.5425299999999992E-08, 2.2500000000000003E-12, 7.58366E-08, 0.00027538445853025184, 9.1371609888873573E-08, 2.2500000000000003E-12
DataValue, 2.3000000000000003, 0.1, 0, 8.4441199999999992E-08, -8.4007499999999993E-08, 2.0870000000000003E-12, 8.4441199999999992E-08, 0.00029058768039956544, 9.353712985833646E-08, 2.0870000000000003E-12
