
SetupTitle, Transfer stab
PrimitiveTest, I/V Sweep
TestParameter, Context.MainFrame, 4155C
TestParameter, Channel.UnitType, SMU, SMU, SMU
TestParameter, Channel.Unit, SMU1:MP, SMU4:MP, SMU3:MP
TestParameter, Channel.IName, ID, IS, IG
TestParameter, Channel.VName, VD, VS, VG
TestParameter, Channel.Mode, V, COMMON, V
TestParameter, Channel.Func, CONST, CONST, VAR1
TestParameter, Channel.Index, 
TestParameter, Channel.Time, 
TestParameter, Measurement.Port.Unit, SMU1:MP, SMU4:MP, SMU3:MP
TestParameter, Measurement.Port.SeriesResistor, NONE, NONE, NONE
TestParameter, Measurement.Port.Filter, ON, ON, ON
TestParameter, Measurement.Primary.Locus, Single
TestParameter, Measurement.Primary.Scale, LINEAR
TestParameter, Measurement.Primary.Start, -2
TestParameter, Measurement.Primary.Stop, 3
TestParameter, Measurement.Primary.Step, 0.05
TestParameter, Measurement.Primary.Compliance, 0.1
TestParameter, Measurement.Primary.PowerCompliance, 0
TestParameter, Measurement.Aborting.Condition, CONTINUE AT ANY
TestParameter, Measurement.PostOutput.Value, START
TestParameter, Measurement.PostOutput.Retention, OFF
TestParameter, Measurement.Bias.Source, 3, 0, -2
TestParameter, Measurement.Bias.Compliance, 0.1, 0.1, 0.1
TestParameter, Measurement.Monitor.Unit, SMU1:MP, SMU4:MP, SMU3:MP
TestParameter, Measurement.Monitor.Adc, HR ADC, HR ADC, HR ADC
TestParameter, Measurement.Monitor.RangingMode, AUTO, AUTO, AUTO
TestParameter, Measurement.Monitor.RangeBoundary, , , 
TestParameter, Measurement.Monitor.RangeRating, BY FULL RANGE, BY FULL RANGE, BY FULL RANGE
TestParameter, Measurement.Monitor.RangeRatingCoeff, 50, 50, 50
TestParameter, Measurement.Timing.Hold, 0.5
TestParameter, Measurement.Timing.Delay, 0.05
TestParameter, Measurement.Adc.HighResolution.AutoZero, OFF
TestParameter, Measurement.Adc.HighResolution.Mode, AUTO
TestParameter, Measurement.Adc.HighResolution.Coeff, 1
TestParameter, Measurement.Ag16440ASelector.SemiconductorRelay.Channel1, DEFAULT
TestParameter, Measurement.Ag16440ASelector.SemiconductorRelay.Channel3, DEFAULT
TestParameter, Function.User.Name, absID, sqrtID, gm2, absIG
TestParameter, Function.User.Unit, A, A, A/V, A
TestParameter, Function.User.Definition, abs(ID), sqrt(abs(ID)), (delta(sqrtID)/delta(VG))^2, abs(IG)
TestParameter, Output.Graph.Enabled, true
TestParameter, Output.Graph.XAxis.Data, VG
TestParameter, Output.Graph.XAxis.Scale, Linear
TestParameter, Output.Graph.XAxis.Left, -5
TestParameter, Output.Graph.XAxis.Right, 7
TestParameter, Output.Graph.YAxis.Data, ID, absIG, gm2
TestParameter, Output.Graph.YAxis.Scale, Log, Log, Linear
TestParameter, Output.Graph.YAxis.Bottom, 1E-14, 1E-14, 0
TestParameter, Output.Graph.YAxis.Top, 0.01, 0.01, 1E-05
TestParameter, Output.Graph.YAxis.Group, , , 
TestParameter, Output.List.Data, VG, IG, VD, ID, VS, IS, sqrtID, gm2, absIG
TestParameter, AutoAnalysis.Interpolation, false
TestParameter, AutoAnalysis.Line1.Enabled, false
TestParameter, AutoAnalysis.Line1.Type, 1
TestParameter, AutoAnalysis.Line1.Fix, True
TestParameter, AutoAnalysis.Line1.YAxis, 0
TestParameter, AutoAnalysis.Line1.Point1.Type, 0
TestParameter, AutoAnalysis.Line1.Point1.XY.X, 
TestParameter, AutoAnalysis.Line1.Point1.XY.Y, 
TestParameter, AutoAnalysis.Line1.Point1.Data.Var, 
TestParameter, AutoAnalysis.Line1.Point1.Data.Condition, 
TestParameter, AutoAnalysis.Line1.Point1.Data.Start, false
TestParameter, AutoAnalysis.Line1.Point1.Data.StartVar, 
TestParameter, AutoAnalysis.Line1.Point1.Data.StartCondition, 
TestParameter, AutoAnalysis.Line1.Point2.Type, 0
TestParameter, AutoAnalysis.Line1.Point2.XY.X, 
TestParameter, AutoAnalysis.Line1.Point2.XY.Y, 
TestParameter, AutoAnalysis.Line1.Point2.Data.Var, 
TestParameter, AutoAnalysis.Line1.Point2.Data.Condition, 
TestParameter, AutoAnalysis.Line1.Point2.Data.Start, false
TestParameter, AutoAnalysis.Line1.Point2.Data.StartVar, 
TestParameter, AutoAnalysis.Line1.Point2.Data.StartCondition, 
TestParameter, AutoAnalysis.Line1.GradientExpr, 0
TestParameter, AutoAnalysis.Line2.Enabled, false
TestParameter, AutoAnalysis.Line2.Type, 1
TestParameter, AutoAnalysis.Line2.Fix, True
TestParameter, AutoAnalysis.Line2.YAxis, 0
TestParameter, AutoAnalysis.Line2.Point1.Type, 0
TestParameter, AutoAnalysis.Line2.Point1.XY.X, 
TestParameter, AutoAnalysis.Line2.Point1.XY.Y, 
TestParameter, AutoAnalysis.Line2.Point1.Data.Var, 
TestParameter, AutoAnalysis.Line2.Point1.Data.Condition, 
TestParameter, AutoAnalysis.Line2.Point1.Data.Start, false
TestParameter, AutoAnalysis.Line2.Point1.Data.StartVar, 
TestParameter, AutoAnalysis.Line2.Point1.Data.StartCondition, 
TestParameter, AutoAnalysis.Line2.Point2.Type, 0
TestParameter, AutoAnalysis.Line2.Point2.XY.X, 
TestParameter, AutoAnalysis.Line2.Point2.XY.Y, 
TestParameter, AutoAnalysis.Line2.Point2.Data.Var, 
TestParameter, AutoAnalysis.Line2.Point2.Data.Condition, 
TestParameter, AutoAnalysis.Line2.Point2.Data.Start, false
TestParameter, AutoAnalysis.Line2.Point2.Data.StartVar, 
TestParameter, AutoAnalysis.Line2.Point2.Data.StartCondition, 
TestParameter, AutoAnalysis.Line2.GradientExpr, 0
TestParameter, AutoAnalysis.Marker.Enabled, false
TestParameter, AutoAnalysis.Marker.Data.Var, 
TestParameter, AutoAnalysis.Marker.Data.Condition, 
TestParameter, AutoAnalysis.Marker.Data.Start, false
TestParameter, AutoAnalysis.Marker.Data.StartVar, 
TestParameter, AutoAnalysis.Marker.Data.StartCondition, 
MetaData, TestRecord.EntryPoint, true
MetaData, TestRecord.RecordTime, 04/23/2019 17:18:28
MetaData, TestRecord.TestTarget, 23
MetaData, TestRecord.IterationIndex, 3
MetaData, TestRecord.Preservation, true
MetaData, TestRecord.Flag, 
MetaData, TestRecord.Remarks, 150-300-G23
MetaData, TestRecord.LinkKey, 423fb86f-e06d-4f35-99a3-b6fb6c339dfa
Dimension1, 101, 101, 101, 101, 101, 101, 101, 101, 101, 101
Dimension2, 1, 1, 1, 1, 1, 1, 1, 1, 1, 1
DataName, VG, VD, VS, ID, IS, IG, absID, sqrtID, gm2, absIG
DataValue, -2, 3, 0, 6.3076000000000008E-11, 4.2289E-11, -8.8658E-11, 6.3076000000000008E-11, 7.9420400401911854E-06, 2.9121154006844393E-10, 8.8658E-11
DataValue, -1.9500000000000002, 3, 0, 5.0251E-11, 3.2855000000000006E-11, -8.9725E-11, 5.0251E-11, 7.0887939735895839E-06, 3.3002266571181854E-11, 8.9725E-11
DataValue, -1.9000000000000001, 3, 0, 5.4281E-11, 2.3509000000000003E-11, -7.5374E-11, 5.4281E-11, 7.3675640479062009E-06, 7.0576623099401817E-13, 7.5374E-11
DataValue, -1.85, 3, 0, 4.9067000000000005E-11, 2.6582E-11, -7.0453E-11, 4.9067000000000005E-11, 7.0047840794702589E-06, 7.0137245192741816E-11, 7.0453E-11
DataValue, -1.8, 3, 0, 4.2642000000000005E-11, 2.3161000000000003E-11, -6.5504E-11, 4.2642000000000005E-11, 6.5300842261030607E-06, 2.6469339954470519E-11, 6.5504E-11
DataValue, -1.75, 3, 0, 4.2124E-11, 1.8461000000000002E-11, -6.4049E-11, 4.2124E-11, 6.490300455294809E-06, 3.2258622452151018E-13, 6.4049E-11
DataValue, -1.7000000000000002, 3, 0, 4.3387000000000005E-11, 1.9703E-11, -6.312600000000001E-11, 4.3387000000000005E-11, 6.5868809006995113E-06, 2.8401777971132149E-12, 6.312600000000001E-11
DataValue, -1.6500000000000001, 3, 0, 4.4340000000000005E-11, 1.7521E-11, -5.984600000000001E-11, 4.4340000000000005E-11, 6.6588287258345972E-06, 3.9321832320857727E-12, 5.984600000000001E-11
DataValue, -1.6, 3, 0, 4.0814E-11, 1.533E-11, -5.321E-11, 4.0814E-11, 6.3885835675836628E-06, 6.8893478991737363E-11, 5.321E-11
DataValue, -1.55, 3, 0, 3.3975000000000004E-11, 1.5321E-11, -5.4167000000000005E-11, 3.3975000000000004E-11, 5.828807768317635E-06, 2.8334849132964051E-11, 5.4167000000000005E-11
DataValue, -1.5, 3, 0, 3.4296000000000005E-11, 1.4384000000000002E-11, -4.8086000000000003E-11, 3.4296000000000005E-11, 5.8562786818934777E-06, 9.4385246175168959E-13, 4.8086000000000003E-11
DataValue, -1.4500000000000002, 3, 0, 3.5117000000000004E-11, 1.1845E-11, -4.4223000000000003E-11, 3.5117000000000004E-11, 5.9259598378659307E-06, 3.9383293195159733E-12, 4.4223000000000003E-11
DataValue, -1.4000000000000001, 3, 0, 3.2011000000000003E-11, 1.0778000000000001E-11, -4.2291000000000005E-11, 3.2011000000000003E-11, 5.65782643777626E-06, 1.6183203516491187E-11, 4.2291000000000005E-11
DataValue, -1.35, 3, 0, 3.0511E-11, 8.1020000000000008E-12, -4.1E-11, 3.0511E-11, 5.5236763120226367E-06, 3.1797723057512362E-12, 4.1E-11
DataValue, -1.3, 3, 0, 3.0025E-11, 5.6520000000000006E-12, -3.8269000000000005E-11, 3.0025E-11, 5.4795072771189927E-06, 1.1417066391032655E-12, 3.8269000000000005E-11
DataValue, -1.25, 3, 0, 2.9342E-11, 1.0994000000000001E-11, -3.4802E-11, 2.9342E-11, 5.4168256386928319E-06, 2.3796267184660412E-11, 3.4802E-11
DataValue, -1.2, 3, 0, 2.4917000000000003E-11, 5.577E-12, -3.1955E-11, 2.4917000000000003E-11, 4.9916930995404761E-06, 1.7743267111846025E-11, 3.1955E-11
DataValue, -1.1500000000000001, 3, 0, 2.4956E-11, 3.663E-12, -3.2471E-11, 2.4956E-11, 4.9955980622944439E-06, 4.29480477619497E-12, 3.2471E-11
DataValue, -1.1, 3, 0, 2.2891000000000003E-11, 7.023E-12, -2.8346000000000002E-11, 2.2891000000000003E-11, 4.7844539918364774E-06, 3.7609498400086574E-12, 2.8346000000000002E-11
DataValue, -1.05, 3, 0, 2.3056E-11, 5.503E-12, -2.4876000000000003E-11, 2.3056E-11, 4.8016663774152406E-06, 2.5619888638244489E-12, 2.4876000000000003E-11
DataValue, -1, 3, 0, 2.1385000000000002E-11, 1.901E-12, -2.2854000000000003E-11, 2.1385000000000002E-11, 4.6243918519087464E-06, 8.3275132965300252E-12, 2.2854000000000003E-11
DataValue, -0.95000000000000007, 3, 0, 2.0368000000000002E-11, 2.552E-12, -2.1307000000000002E-11, 2.0368000000000002E-11, 4.5130920664218671E-06, 7.3581619491625187E-13, 2.1307000000000002E-11
DataValue, -0.9, 3, 0, 2.0599000000000003E-11, 2.791E-12, -2.1385000000000002E-11, 2.0599000000000003E-11, 4.5386121226648131E-06, 4.5805587539895467E-12, 2.1385000000000002E-11
DataValue, -0.85000000000000009, 3, 0, 1.8482E-11, 5.65E-13, -2.0374000000000002E-11, 1.8482E-11, 4.2990696668000158E-06, 7.636143875210608E-12, 2.0374000000000002E-11
DataValue, -0.8, 3, 0, 1.8167E-11, 8.0000000000000013E-14, -1.5853000000000002E-11, 1.8167E-11, 4.262276387096454E-06, 7.1063105733478131E-12, 1.5853000000000002E-11
DataValue, -0.75, 3, 0, 1.6261000000000003E-11, 7.52E-13, -1.4974E-11, 1.6261000000000003E-11, 4.0324930254124436E-06, 2.6854618695867703E-11, 1.4974E-11
DataValue, -0.70000000000000007, 3, 0, 1.4018000000000001E-11, -3.3500000000000004E-13, -1.3839E-11, 1.4018000000000001E-11, 3.7440619652991859E-06, 7.0859835714337906E-12, 1.3839E-11
DataValue, -0.65, 3, 0, 1.4185E-11, -1.831E-12, -1.2975E-11, 1.4185E-11, 3.7662979170532968E-06, 3.1028614755002508E-12, 1.2975E-11
DataValue, -0.6, 3, 0, 1.2730000000000001E-11, -1.6600000000000002E-12, -1.2071E-11, 1.2730000000000001E-11, 3.5679125549822547E-06, 9.0713058548243387E-12, 1.2071E-11
DataValue, -0.55, 3, 0, 1.2007000000000001E-11, -1.843E-12, -1.1225E-11, 1.2007000000000001E-11, 3.4651118308071966E-06, 3.0566004220063227E-12, 1.1225E-11
DataValue, -0.5, 3, 0, 1.1513E-11, -2.4710000000000003E-12, -1.0098E-11, 1.1513E-11, 3.3930811956096776E-06, 1.3818421597609277E-13, 1.0098E-11
DataValue, -0.45, 3, 0, 1.2266000000000001E-11, -2.586E-12, -9.757E-12, 1.2266000000000001E-11, 3.5022849684170477E-06, 1.1275482985415076E-13, 9.757E-12
DataValue, -0.4, 3, 0, 1.1742E-11, -2.736E-12, -8.906000000000001E-12, 1.1742E-11, 3.4266601815762238E-06, 6.5892244029668985E-13, 8.906000000000001E-12
DataValue, -0.35000000000000003, 3, 0, 1.1704000000000001E-11, -3.5160000000000004E-12, -8.9900000000000011E-12, 1.1704000000000001E-11, 3.4211109306773437E-06, 1.3801021898010825E-11, 8.9900000000000011E-12
DataValue, -0.3, 3, 0, 1.4426000000000002E-11, -7.0630000000000009E-12, -8.1480000000000012E-12, 1.4426000000000002E-11, 3.7981574480266088E-06, 2.3599316165670596E-10, 8.1480000000000012E-12
DataValue, -0.25, 3, 0, 2.4575000000000003E-11, -1.6206000000000003E-11, -5.7730000000000005E-12, 2.4575000000000003E-11, 4.957317823178175E-06, 1.6171411785939131E-09, 5.7730000000000005E-12
DataValue, -0.2, 3, 0, 6.1145E-11, -5.2532E-11, -7.926E-12, 6.1145E-11, 7.8195268399053409E-06, 7.9362076468470074E-09, 7.926E-12
DataValue, -0.15, 3, 0, 1.92262E-10, -1.78527E-10, -5.261E-12, 1.92262E-10, 1.3865857348177212E-05, 2.9184683264010169E-08, 5.261E-12
DataValue, -0.1, 3, 0, 6.2016200000000008E-10, -5.8765400000000007E-10, -4.975E-12, 6.2016200000000008E-10, 2.4903052021790421E-05, 8.1489724011301909E-08, 4.975E-12
DataValue, -0.05, 3, 0, 1.7988E-09, -1.6934E-09, -4.301E-12, 1.7988E-09, 4.2412262377760516E-05, 2.2935847168762473E-07, 4.301E-12
DataValue, 0, 3, 0, 5.29903E-09, -5.19176E-09, -5.9390000000000004E-12, 5.29903E-09, 7.2794436600608431E-05, 5.0138805501087183E-07, 5.9390000000000004E-12
DataValue, 0.05, 3, 0, 1.2818999999999999E-08, -1.2301999999999998E-08, -3.723E-12, 1.2818999999999999E-08, 0.00011322102278287367, 9.91534083195426E-07, 3.723E-12
DataValue, 0.1, 3, 0, 2.9711499999999998E-08, -2.9220799999999997E-08, -2.3300000000000004E-12, 2.9711499999999998E-08, 0.00017237024105105846, 1.7319670988595E-06, 2.3300000000000004E-12
DataValue, 0.15, 3, 0, 5.99394E-08, -5.9049199999999992E-08, -1.6060000000000002E-12, 5.99394E-08, 0.00024482524379646804, 2.2620799071155823E-06, 1.6060000000000002E-12
DataValue, 0.2, 3, 0, 1.04182E-07, -1.0306349999999999E-07, -2.4260000000000004E-12, 1.04182E-07, 0.00032277236560771433, 3.0483688390911933E-06, 2.4260000000000004E-12
DataValue, 0.25, 3, 0, 1.75914E-07, -1.70683E-07, -7.350000000000001E-13, 1.75914E-07, 0.00041942102951568846, 3.84485843009172E-06, 7.350000000000001E-13
DataValue, 0.3, 3, 0, 2.69211E-07, -2.66633E-07, -5.91E-13, 2.69211E-07, 0.00051885547120561427, 4.3587249382362679E-06, 5.91E-13
DataValue, 0.35000000000000003, 3, 0, 3.94631E-07, -3.91525E-07, -2.73E-13, 3.94631E-07, 0.000628196625269509, 5.15949414448185E-06, 2.73E-13
DataValue, 0.4, 3, 0, 5.56517E-07, -5.52323E-07, -8.0000000000000013E-14, 5.56517E-07, 0.00074600067024098579, 5.692021873957674E-06, 8.0000000000000013E-14
DataValue, 0.45, 3, 0, 7.5130099999999993E-07, -7.46159E-07, 3.74E-13, 7.5130099999999993E-07, 0.00086677621102566025, 6.1182382545684525E-06, 3.74E-13
DataValue, 0.5, 3, 0, 9.86747E-07, -9.8072E-07, 1.498E-12, 9.86747E-07, 0.00099335139804602882, 5.9920064900717318E-06, 1.498E-12
DataValue, 0.55, 3, 0, 1.23557E-06, -1.2252400000000002E-06, -4.7E-13, 1.23557E-06, 0.0011115619640847739, 6.6553625202409811E-06, 4.7E-13
DataValue, 0.6, 3, 0, 1.56583E-06, -1.5589000000000002E-06, 1.98E-12, 1.56583E-06, 0.0012513312910656395, 8.0482447217608442E-06, 1.98E-12
DataValue, 0.65, 3, 0, 1.94674E-06, -1.93738E-06, 1.512E-12, 1.94674E-06, 0.0013952562488661357, 8.5140776519986466E-06, 1.512E-12
DataValue, 0.70000000000000007, 3, 0, 2.3812200000000003E-06, -2.3703600000000004E-06, 1.968E-12, 2.3812200000000003E-06, 0.0015431202156669455, 8.9868422459364753E-06, 1.968E-12
DataValue, 0.75, 3, 0, 2.87315E-06, -2.8614700000000005E-06, 7.94E-13, 2.87315E-06, 0.0016950368727552802, 9.6112624754940372E-06, 7.94E-13
DataValue, 0.8, 3, 0, 3.4341300000000003E-06, -3.4210600000000003E-06, 2.28E-12, 3.4341300000000003E-06, 0.0018531405775061968, 1.0277449825337462E-05, 2.28E-12
DataValue, 0.85000000000000009, 3, 0, 4.0627300000000005E-06, -4.0483000000000007E-06, 2.6810000000000004E-12, 4.0627300000000005E-06, 0.00201562149224501, 1.09735328422385E-05, 2.6810000000000004E-12
DataValue, 0.9, 3, 0, 4.7716200000000007E-06, -4.75564E-06, -5.3E-14, 4.7716200000000007E-06, 0.002184403808822902, 1.1688725864940427E-05, 5.3E-14
DataValue, 0.95000000000000007, 3, 0, 5.5578500000000005E-06, -5.5402500000000009E-06, 2.54E-12, 5.5578500000000005E-06, 0.0023575092788788764, 1.2350538617861148E-05, 2.54E-12
DataValue, 1, 3, 0, 6.430470000000001E-06, -6.4143400000000008E-06, 2.6850000000000004E-12, 6.430470000000001E-06, 0.0025358371398810295, 1.3131157834991493E-05, 2.6850000000000004E-12
DataValue, 1.05, 3, 0, 7.3977400000000006E-06, -7.3772600000000011E-06, 2.674E-12, 7.3977400000000006E-06, 0.0027198786737646957, 1.3921704117489735E-05, 2.674E-12
DataValue, 1.1, 3, 0, 8.462020000000001E-06, -8.44114E-06, 1.3880000000000001E-12, 8.462020000000001E-06, 0.0029089551388771884, 1.4573300958531721E-05, 1.3880000000000001E-12
DataValue, 1.1500000000000001, 3, 0, 9.6201000000000013E-06, -9.6000500000000014E-06, 3.1350000000000003E-12, 9.6201000000000013E-06, 0.0031016286044592768, 1.5177091553562117E-05, 3.1350000000000003E-12
DataValue, 1.2, 3, 0, 1.0880320000000001E-05, -1.0860980000000002E-05, 2.9720000000000003E-12, 1.0880320000000001E-05, 0.0032985330072624712, 1.5324451791952077E-05, 2.9720000000000003E-12
DataValue, 1.25, 3, 0, 1.22017E-05, -1.2166E-05, 4.87E-12, 1.22017E-05, 0.003493093185129764, 1.6067696967530395E-05, 4.87E-12
DataValue, 1.3, 3, 0, 1.3685400000000001E-05, -1.36603E-05, 3.07E-13, 1.3685400000000001E-05, 0.0036993783261515712, 1.7340632528649785E-05, 3.07E-13
DataValue, 1.35, 3, 0, 1.5284300000000002E-05, -1.52601E-05, 4.325E-12, 1.5284300000000002E-05, 0.0039095140362965831, 1.782315441686842E-05, 4.325E-12
DataValue, 1.4000000000000001, 3, 0, 1.6987200000000002E-05, -1.69668E-05, 4.656E-12, 1.6987200000000002E-05, 0.004121553105323284, 1.8274730475827631E-05, 4.656E-12
DataValue, 1.4500000000000002, 3, 0, 1.88096E-05, -1.8788800000000002E-05, 4.1580000000000007E-12, 1.88096E-05, 0.0043370035738975361, 1.8727476933104367E-05, 4.1580000000000007E-12
DataValue, 1.5, 3, 0, 2.07417E-05, -2.07206E-05, 3.674E-12, 2.07417E-05, 0.0045543056550916743, 1.9095891969117791E-05, 3.674E-12
DataValue, 1.55, 3, 0, 2.2791E-05, -2.27717E-05, 5.2150000000000007E-12, 2.2791E-05, 0.0047739920402112106, 1.9424459207994637E-05, 5.2150000000000007E-12
DataValue, 1.6, 3, 0, 2.49504E-05, -2.49329E-05, 4.2420000000000007E-12, 2.49504E-05, 0.0049950375373964909, 1.9685181321607375E-05, 4.2420000000000007E-12
DataValue, 1.6500000000000001, 3, 0, 2.7224100000000002E-05, -2.72077E-05, 2.7710000000000002E-12, 2.7224100000000002E-05, 0.0052176718946288685, 1.992202565168585E-05, 2.7710000000000002E-12
DataValue, 1.7000000000000002, 3, 0, 2.96086E-05, -2.95893E-05, 4.1030000000000006E-12, 2.96086E-05, 0.0054413785018136715, 2.0173014381374128E-05, 4.1030000000000006E-12
DataValue, 1.75, 3, 0, 3.21128E-05, -3.20969E-05, 4.1000000000000007E-12, 3.21128E-05, 0.0056668156843151345, 2.0395822242987544E-05, 4.1000000000000007E-12
DataValue, 1.8, 3, 0, 3.47274E-05, -3.47162E-05, 5.0570000000000008E-12, 3.47274E-05, 0.0058929958425235638, 2.096019730776593E-05, 5.0570000000000008E-12
DataValue, 1.85, 3, 0, 3.75112E-05, -3.74988E-05, 3.585E-12, 3.75112E-05, 0.0061246387648578914, 2.117769838146656E-05, 3.585E-12
DataValue, 1.9000000000000001, 3, 0, 4.0363E-05, -4.0352600000000004E-05, 5.1000000000000005E-12, 4.0363E-05, 0.00635318817602627, 2.0960865385973611E-05, 5.1000000000000005E-12
DataValue, 1.9500000000000002, 3, 0, 4.3328900000000005E-05, -4.3316E-05, 4.015E-12, 4.3328900000000005E-05, 0.0065824691415911707, 2.1096355917502054E-05, 4.015E-12
DataValue, 2, 3, 0, 4.6410100000000005E-05, -4.6400400000000004E-05, 5.4180000000000005E-12, 4.6410100000000005E-05, 0.0068124958715583828, 2.127725606745642E-05, 5.4180000000000005E-12
DataValue, 2.05, 3, 0, 4.9614300000000004E-05, -4.9605300000000004E-05, 4.985E-12, 4.9614300000000004E-05, 0.0070437419032783992, 2.1421373767702712E-05, 4.985E-12
DataValue, 2.1, 3, 0, 5.2930400000000004E-05, -5.29199E-05, 5.314E-12, 5.2930400000000004E-05, 0.0072753281712923442, 2.1414861624716283E-05, 5.314E-12
DataValue, 2.15, 3, 0, 5.63476E-05, -5.6342300000000004E-05, 3.2820000000000004E-12, 5.63476E-05, 0.0075065038466652374, 2.1472676313821793E-05, 3.2820000000000004E-12
DataValue, 2.2, 3, 0, 5.98877E-05, -5.9884100000000005E-05, 5.971E-12, 5.98877E-05, 0.0077387143635102591, 2.1653581015280695E-05, 5.971E-12
DataValue, 2.25, 3, 0, 6.35502E-05, -6.3544E-05, 5.2260000000000006E-12, 6.35502E-05, 0.0079718379311172656, 2.1718793291413158E-05, 5.2260000000000006E-12
