
SetupTitle, Transfer stab
PrimitiveTest, I/V Sweep
TestParameter, Context.MainFrame, 4155C
TestParameter, Channel.UnitType, SMU, SMU, SMU
TestParameter, Channel.Unit, SMU1:MP, SMU4:MP, SMU3:MP
TestParameter, Channel.IName, ID, IS, IG
TestParameter, Channel.VName, VD, VS, VG
TestParameter, Channel.Mode, V, COMMON, V
TestParameter, Channel.Func, CONST, CONST, VAR1
TestParameter, Channel.Index, 
TestParameter, Channel.Time, 
TestParameter, Measurement.Port.Unit, SMU1:MP, SMU4:MP, SMU3:MP
TestParameter, Measurement.Port.SeriesResistor, NONE, NONE, NONE
TestParameter, Measurement.Port.Filter, ON, ON, ON
TestParameter, Measurement.Primary.Locus, Single
TestParameter, Measurement.Primary.Scale, LINEAR
TestParameter, Measurement.Primary.Start, -2
TestParameter, Measurement.Primary.Stop, 3
TestParameter, Measurement.Primary.Step, 0.05
TestParameter, Measurement.Primary.Compliance, 0.1
TestParameter, Measurement.Primary.PowerCompliance, 0
TestParameter, Measurement.Aborting.Condition, CONTINUE AT ANY
TestParameter, Measurement.PostOutput.Value, START
TestParameter, Measurement.PostOutput.Retention, OFF
TestParameter, Measurement.Bias.Source, 3, 0, -2
TestParameter, Measurement.Bias.Compliance, 0.1, 0.1, 0.1
TestParameter, Measurement.Monitor.Unit, SMU1:MP, SMU4:MP, SMU3:MP
TestParameter, Measurement.Monitor.Adc, HR ADC, HR ADC, HR ADC
TestParameter, Measurement.Monitor.RangingMode, AUTO, AUTO, AUTO
TestParameter, Measurement.Monitor.RangeBoundary, , , 
TestParameter, Measurement.Monitor.RangeRating, BY FULL RANGE, BY FULL RANGE, BY FULL RANGE
TestParameter, Measurement.Monitor.RangeRatingCoeff, 50, 50, 50
TestParameter, Measurement.Timing.Hold, 0.5
TestParameter, Measurement.Timing.Delay, 0.05
TestParameter, Measurement.Adc.HighResolution.AutoZero, OFF
TestParameter, Measurement.Adc.HighResolution.Mode, AUTO
TestParameter, Measurement.Adc.HighResolution.Coeff, 1
TestParameter, Measurement.Ag16440ASelector.SemiconductorRelay.Channel1, DEFAULT
TestParameter, Measurement.Ag16440ASelector.SemiconductorRelay.Channel3, DEFAULT
TestParameter, Function.User.Name, absID, sqrtID, gm2, absIG
TestParameter, Function.User.Unit, A, A, A/V, A
TestParameter, Function.User.Definition, abs(ID), sqrt(abs(ID)), (delta(sqrtID)/delta(VG))^2, abs(IG)
TestParameter, Output.Graph.Enabled, true
TestParameter, Output.Graph.XAxis.Data, VG
TestParameter, Output.Graph.XAxis.Scale, Linear
TestParameter, Output.Graph.XAxis.Left, -5
TestParameter, Output.Graph.XAxis.Right, 7
TestParameter, Output.Graph.YAxis.Data, ID, absIG, gm2
TestParameter, Output.Graph.YAxis.Scale, Log, Log, Linear
TestParameter, Output.Graph.YAxis.Bottom, 1E-14, 1E-14, 0
TestParameter, Output.Graph.YAxis.Top, 0.01, 0.01, 1E-05
TestParameter, Output.Graph.YAxis.Group, , , 
TestParameter, Output.List.Data, VG, IG, VD, ID, VS, IS, sqrtID, gm2, absIG
TestParameter, AutoAnalysis.Interpolation, false
TestParameter, AutoAnalysis.Line1.Enabled, false
TestParameter, AutoAnalysis.Line1.Type, 1
TestParameter, AutoAnalysis.Line1.Fix, True
TestParameter, AutoAnalysis.Line1.YAxis, 0
TestParameter, AutoAnalysis.Line1.Point1.Type, 0
TestParameter, AutoAnalysis.Line1.Point1.XY.X, 
TestParameter, AutoAnalysis.Line1.Point1.XY.Y, 
TestParameter, AutoAnalysis.Line1.Point1.Data.Var, 
TestParameter, AutoAnalysis.Line1.Point1.Data.Condition, 
TestParameter, AutoAnalysis.Line1.Point1.Data.Start, false
TestParameter, AutoAnalysis.Line1.Point1.Data.StartVar, 
TestParameter, AutoAnalysis.Line1.Point1.Data.StartCondition, 
TestParameter, AutoAnalysis.Line1.Point2.Type, 0
TestParameter, AutoAnalysis.Line1.Point2.XY.X, 
TestParameter, AutoAnalysis.Line1.Point2.XY.Y, 
TestParameter, AutoAnalysis.Line1.Point2.Data.Var, 
TestParameter, AutoAnalysis.Line1.Point2.Data.Condition, 
TestParameter, AutoAnalysis.Line1.Point2.Data.Start, false
TestParameter, AutoAnalysis.Line1.Point2.Data.StartVar, 
TestParameter, AutoAnalysis.Line1.Point2.Data.StartCondition, 
TestParameter, AutoAnalysis.Line1.GradientExpr, 0
TestParameter, AutoAnalysis.Line2.Enabled, false
TestParameter, AutoAnalysis.Line2.Type, 1
TestParameter, AutoAnalysis.Line2.Fix, True
TestParameter, AutoAnalysis.Line2.YAxis, 0
TestParameter, AutoAnalysis.Line2.Point1.Type, 0
TestParameter, AutoAnalysis.Line2.Point1.XY.X, 
TestParameter, AutoAnalysis.Line2.Point1.XY.Y, 
TestParameter, AutoAnalysis.Line2.Point1.Data.Var, 
TestParameter, AutoAnalysis.Line2.Point1.Data.Condition, 
TestParameter, AutoAnalysis.Line2.Point1.Data.Start, false
TestParameter, AutoAnalysis.Line2.Point1.Data.StartVar, 
TestParameter, AutoAnalysis.Line2.Point1.Data.StartCondition, 
TestParameter, AutoAnalysis.Line2.Point2.Type, 0
TestParameter, AutoAnalysis.Line2.Point2.XY.X, 
TestParameter, AutoAnalysis.Line2.Point2.XY.Y, 
TestParameter, AutoAnalysis.Line2.Point2.Data.Var, 
TestParameter, AutoAnalysis.Line2.Point2.Data.Condition, 
TestParameter, AutoAnalysis.Line2.Point2.Data.Start, false
TestParameter, AutoAnalysis.Line2.Point2.Data.StartVar, 
TestParameter, AutoAnalysis.Line2.Point2.Data.StartCondition, 
TestParameter, AutoAnalysis.Line2.GradientExpr, 0
TestParameter, AutoAnalysis.Marker.Enabled, false
TestParameter, AutoAnalysis.Marker.Data.Var, 
TestParameter, AutoAnalysis.Marker.Data.Condition, 
TestParameter, AutoAnalysis.Marker.Data.Start, false
TestParameter, AutoAnalysis.Marker.Data.StartVar, 
TestParameter, AutoAnalysis.Marker.Data.StartCondition, 
MetaData, TestRecord.EntryPoint, true
MetaData, TestRecord.RecordTime, 04/23/2019 15:08:42
MetaData, TestRecord.TestTarget, 47
MetaData, TestRecord.IterationIndex, 2
MetaData, TestRecord.Preservation, true
MetaData, TestRecord.Flag, 
MetaData, TestRecord.Remarks, 250-300-G47 CONTACT RES?
MetaData, TestRecord.LinkKey, cc11ee33-da96-47d8-9a19-ad135cf3cee1
Dimension1, 101, 101, 101, 101, 101, 101, 101, 101, 101, 101
Dimension2, 1, 1, 1, 1, 1, 1, 1, 1, 1, 1
DataName, VG, VD, VS, ID, IS, IG, absID, sqrtID, gm2, absIG
DataValue, -2, 3, 0, 4.698E-12, 2.348E-12, -1.0851E-11, 4.698E-12, 2.1674870241826135E-06, 9.6321727968574932E-10, 1.0851E-11
DataValue, -1.9500000000000002, 3, 0, 1.3833E-11, -6.1410000000000006E-12, -4.209E-12, 1.3833E-11, 3.7192741227287885E-06, 2.1881922045882549E-11, 4.209E-12
DataValue, -1.9000000000000001, 3, 0, 2.8890000000000003E-12, 2.899E-12, -2.205E-12, 2.8890000000000003E-12, 1.6997058569058355E-06, 7.6820187970175279E-10, 2.205E-12
DataValue, -1.85, 3, 0, 8.9800000000000011E-13, -3.76E-13, -1.975E-12, 8.9800000000000011E-13, 9.4762861923857074E-07, 1.4257144900489026E-11, 1.975E-12
DataValue, -1.8, 3, 0, 1.7480000000000002E-12, -3.1900000000000003E-12, -1.299E-12, 1.7480000000000002E-12, 1.3221195104830729E-06, 8.41645411495715E-12, 1.299E-12
DataValue, -1.75, 3, 0, 1.5320000000000001E-12, 1.383E-12, -1.274E-12, 1.5320000000000001E-12, 1.2377398757412643E-06, 5.7219252575741047E-11, 1.274E-12
DataValue, -1.7000000000000002, 3, 0, 3.2000000000000005E-13, 2.68E-13, -1.5990000000000002E-12, 3.2000000000000005E-13, 5.6568542494923806E-07, 2.1436008531354547E-12, 1.5990000000000002E-12
DataValue, -1.6500000000000001, 3, 0, 1.191E-12, -1.901E-12, -7.77E-13, 1.191E-12, 1.0913294644606641E-06, 2.3525276025557013E-11, 7.77E-13
DataValue, -1.6, 3, 0, 1.1040000000000001E-12, -1.16E-13, -1.918E-12, 1.1040000000000001E-12, 1.0507140429250958E-06, 1.1047834303320961E-11, 1.918E-12
DataValue, -1.55, 3, 0, 5.7600000000000007E-13, 6.7E-14, -1.88E-13, 5.7600000000000007E-13, 7.5894663844041111E-07, 7.3425009345010038E-12, 1.88E-13
DataValue, -1.5, 3, 0, 6.08E-13, -7.8800000000000008E-13, -4.2600000000000005E-13, 6.08E-13, 7.7974354758471714E-07, 2.1327549959598304E-12, 4.2600000000000005E-13
DataValue, -1.4500000000000002, 3, 0, 8.19E-13, 8.540000000000001E-13, -5.0100000000000009E-13, 8.19E-13, 9.0498618773990138E-07, 5.7299578735123867E-12, 5.0100000000000009E-13
DataValue, -1.4000000000000001, 3, 0, 2.92E-13, 1.2250000000000001E-12, 3.0100000000000003E-13, 2.92E-13, 5.4037024344425184E-07, 4.2019337164137988E-12, 3.0100000000000003E-13
DataValue, -1.35, 3, 0, 4.9E-13, -6.06E-13, 4.22E-13, 4.9E-13, 7.0000000000000007E-07, 5.5467949330498059E-12, 4.22E-13
DataValue, -1.3, 3, 0, 6.0200000000000006E-13, -1.48E-13, -4.4400000000000003E-13, 6.0200000000000006E-13, 7.7588658965083291E-07, 1.1748830366053736E-12, 4.4400000000000003E-13
DataValue, -1.25, 3, 0, 3.5E-13, 3.5E-13, -3.65E-13, 3.5E-13, 5.9160797830996166E-07, 6.919600403114322E-12, 3.65E-13
DataValue, -1.2, 3, 0, 2.6300000000000004E-13, -7.78E-13, -5.5100000000000008E-13, 2.6300000000000004E-13, 5.1283525619832342E-07, 2.2503561260787836E-12, 5.5100000000000008E-13
DataValue, -1.1500000000000001, 3, 0, 5.5000000000000008E-13, -4.95E-13, -4.3900000000000005E-13, 5.5000000000000008E-13, 7.416198487095663E-07, 5.0807818318229209E-12, 4.3900000000000005E-13
DataValue, -1.1, 3, 0, 5.45E-13, -2.7400000000000004E-13, -3.31E-13, 5.45E-13, 7.3824115301167007E-07, 3.4783952922288338E-13, 3.31E-13
DataValue, -1.05, 3, 0, 4.66E-13, -6.2700000000000005E-13, -4.694E-12, 4.66E-13, 6.8264192663504048E-07, 6.6792421719665818E-15, 4.694E-12
DataValue, -1, 3, 0, 5.3300000000000005E-13, -5.1E-13, -3.8500000000000003E-13, 5.3300000000000005E-13, 7.3006848993775923E-07, 8.9731231468053578E-14, 3.8500000000000003E-13
DataValue, -0.95000000000000007, 3, 0, 4.2600000000000005E-13, -2.79E-13, -4.3080000000000006E-12, 4.2600000000000005E-13, 6.5268675488322882E-07, 8.06131313296741E-10, 4.3080000000000006E-12
DataValue, -0.9, 3, 0, -1.2740000000000001E-11, 6.233200000000001E-11, 5.8720000000000008E-12, 1.2740000000000001E-11, 3.5693136595149494E-06, 2.9898534933200728E-10, 5.8720000000000008E-12
DataValue, -0.85000000000000009, 3, 0, -5.6730000000000006E-12, 1.2380000000000002E-12, -3.828E-12, 5.6730000000000006E-12, 2.3818060374430156E-06, 6.1155694819055393E-11, 3.828E-12
DataValue, -0.8, 3, 0, 7.769E-12, -1.7856E-11, -1.091E-12, 7.769E-12, 2.7872925931807019E-06, 2.0720696151532892E-10, 1.091E-12
DataValue, -0.75, 3, 0, 8.8800000000000005E-13, -4.1600000000000004E-13, -2.152E-12, 8.8800000000000005E-13, 9.4233751915117972E-07, 2.6601787179599859E-10, 2.152E-12
DataValue, -0.70000000000000007, 3, 0, 1.337E-12, -1.2271E-11, -5.66E-13, 1.337E-12, 1.1562871615649809E-06, 8.9951855624306685E-11, 5.66E-13
DataValue, -0.65, 3, 0, 3.5750000000000004E-12, -1.955E-12, 4.99E-13, 3.5750000000000004E-12, 1.8907670401189038E-06, 1.3285067656190422E-10, 4.99E-13
DataValue, -0.6, 3, 0, 5.3310000000000006E-12, -9.73E-13, 3.5600000000000005E-13, 5.3310000000000006E-12, 2.3088958400066473E-06, 4.5753091113442459E-10, 3.5600000000000005E-13
DataValue, -0.55, 3, 0, 1.6239E-11, -1.7319000000000002E-11, 6.32E-13, 1.6239E-11, 4.0297642610951826E-06, 1.538582111263251E-09, 6.32E-13
DataValue, -0.5, 3, 0, 3.883E-11, -3.514E-11, -1.04E-12, 3.883E-11, 6.2313722405261593E-06, 2.2484483663865393E-09, 1.04E-12
DataValue, -0.45, 3, 0, 7.6940000000000008E-11, -7.3945000000000009E-11, -1.17E-13, 7.6940000000000008E-11, 8.7715449038353555E-06, 3.4164138018733765E-09, 1.17E-13
DataValue, -0.4, 3, 0, 1.45839E-10, -1.41242E-10, -5.23E-13, 1.45839E-10, 1.2076381908502231E-05, 5.243271667096278E-09, 5.23E-13
DataValue, -0.35000000000000003, 3, 0, 2.5640300000000004E-10, -2.4660400000000004E-10, 6.08E-13, 2.5640300000000004E-10, 1.6012588797567995E-05, 6.3543393131239045E-09, 6.08E-13
DataValue, -0.3, 3, 0, 4.0191400000000005E-10, -3.8589000000000005E-10, -3.0100000000000003E-13, 4.0191400000000005E-10, 2.0047792895977353E-05, 6.5815040577131942E-09, 3.0100000000000003E-13
DataValue, -0.25, 3, 0, 5.8202700000000008E-10, -5.6138100000000009E-10, 1.34E-13, 5.8202700000000008E-10, 2.412523575014346E-05, 5.5233807880824423E-09, 1.34E-13
DataValue, -0.2, 3, 0, 7.55136E-10, -7.3284500000000007E-10, 2.7000000000000002E-14, 7.55136E-10, 2.7479737990017298E-05, 3.8376452585239792E-09, 2.7000000000000002E-14
DataValue, -0.15, 3, 0, 9.193090000000001E-10, -9.16893E-10, -2.615E-12, 9.193090000000001E-10, 3.0320108838854786E-05, 1.4755902015234683E-09, 2.615E-12
DataValue, -0.1, 3, 0, 9.8101E-10, -9.45924E-10, 5.37E-13, 9.8101E-10, 3.1321079164039033E-05, 9.73805032938872E-10, 5.37E-13
DataValue, -0.05, 3, 0, 1.11828E-09, -1.0319E-09, -3.4E-14, 1.11828E-09, 3.3440693772707528E-05, 3.6094223294074914E-10, 3.4E-14
DataValue, 0, 3, 0, 1.10363E-09, -1.10709E-09, -1.316E-12, 1.10363E-09, 3.3220927139380084E-05, 4.60937081704846E-10, 1.316E-12
DataValue, 0.05, 3, 0, 1.26648E-09, -1.24583E-09, -1.4300000000000002E-13, 1.26648E-09, 3.55876383032086E-05, 1.2122914214814359E-09, 1.4300000000000002E-13
DataValue, 0.1, 3, 0, 1.34709E-09, -1.36959E-09, 2.3100000000000003E-13, 1.34709E-09, 3.6702724694496458E-05, 2.3062246383983935E-11, 2.3100000000000003E-13
DataValue, 0.15, 3, 0, 1.23253E-09, -1.19077E-09, -1.1440000000000002E-12, 1.23253E-09, 3.5107406625952881E-05, 9.8092320858044875E-13, 1.1440000000000002E-12
DataValue, 0.2, 3, 0, 1.35437E-09, -1.28141E-09, -5.2700000000000008E-13, 1.35437E-09, 3.6801766261960854E-05, 6.72635503960578E-10, 5.2700000000000008E-13
DataValue, 0.25, 3, 0, 1.42136E-09, -1.35365E-09, 2.248E-12, 1.42136E-09, 3.7700928370532205E-05, 1.4855148768606459E-11, 2.248E-12
DataValue, 0.3, 3, 0, 1.32615E-09, -1.24246E-09, 7.2000000000000009E-14, 1.32615E-09, 3.6416342485208479E-05, 6.7001955626564368E-11, 7.2000000000000009E-14
DataValue, 0.35000000000000003, 3, 0, 1.48375E-09, -1.48084E-09, -1.7430000000000002E-12, 1.48375E-09, 3.8519475593522818E-05, 4.2173322029264648E-11, 1.7430000000000002E-12
DataValue, 0.4, 3, 0, 1.37387E-09, -1.45075E-09, 4.1600000000000004E-13, 1.37387E-09, 3.7065752386805804E-05, 9.96594715116496E-12, 4.1600000000000004E-13
DataValue, 0.45, 3, 0, 1.50817E-09, -1.5044E-09, -1.671E-12, 1.50817E-09, 3.88351644775711E-05, 2.4312278887706975E-10, 1.671E-12
DataValue, 0.5, 3, 0, 1.49189E-09, -1.43631E-09, 1.2730000000000001E-12, 1.49189E-09, 3.8624991909384261E-05, 4.081032257169095E-11, 1.2730000000000001E-12
DataValue, 0.55, 3, 0, 1.45896E-09, -1.45215E-09, -1.26E-12, 1.45896E-09, 3.8196334902710237E-05, 3.6599006703155507E-11, 1.26E-12
DataValue, 0.6, 3, 0, 1.53899E-09, -1.42515E-09, 4.4100000000000004E-13, 1.53899E-09, 3.9229963038473538E-05, 5.3245196852865915E-10, 4.4100000000000004E-13
DataValue, 0.65, 3, 0, 1.64056E-09, -1.61711E-09, -5.7200000000000009E-13, 1.64056E-09, 4.0503826979681811E-05, 4.7812635478692787E-10, 5.7200000000000009E-13
DataValue, 0.70000000000000007, 3, 0, 1.37221E-09, -1.34012E-09, 2.1490000000000002E-12, 1.37221E-09, 3.7043352979988193E-05, 1.0173494030189517E-10, 2.1490000000000002E-12
DataValue, 0.75, 3, 0, 1.55987E-09, -1.58247E-09, 2.8600000000000004E-13, 1.55987E-09, 3.9495189580504609E-05, 4.1846758647959895E-10, 2.8600000000000004E-13
DataValue, 0.8, 3, 0, 1.52795E-09, -1.39137E-09, -9.5E-13, 1.52795E-09, 3.9089001010514458E-05, 2.8848907120089E-10, 9.5E-13
DataValue, 0.85000000000000009, 3, 0, 1.42859E-09, -1.54684E-09, 3.17E-13, 1.42859E-09, 3.779669297703173E-05, 3.818690563647009E-10, 3.17E-13
DataValue, 0.9, 3, 0, 1.68454E-09, -1.60759E-09, 3.14E-13, 1.68454E-09, 4.1043148027411346E-05, 1.5479914313751257E-10, 3.14E-13
DataValue, 0.95000000000000007, 3, 0, 1.52419E-09, -1.47031E-09, 9.76E-13, 1.52419E-09, 3.904087601476176E-05, 3.2701009737210807E-10, 9.76E-13
DataValue, 1, 3, 0, 1.53937E-09, -1.62823E-09, -3.19E-13, 1.53937E-09, 3.9234805976326685E-05, 1.1138374373693702E-09, 3.19E-13
DataValue, 1.05, 3, 0, 1.79592E-09, -1.6501E-09, 5.39E-13, 1.79592E-09, 4.2378296331966906E-05, 2.0030352387630216E-10, 5.39E-13
DataValue, 1.1, 3, 0, 1.65243E-09, -1.45283E-09, -7.590000000000001E-13, 1.65243E-09, 4.065009225081783E-05, 9.8923690115897067E-11, 7.590000000000001E-13
DataValue, 1.1500000000000001, 3, 0, 1.71261E-09, -1.66506E-09, 6.9800000000000006E-13, 1.71261E-09, 4.1383692440380425E-05, 1.592061282000466E-10, 6.9800000000000006E-13
DataValue, 1.2, 3, 0, 1.55144E-09, -1.66424E-09, 2.0900000000000002E-13, 1.55144E-09, 3.9388323142779255E-05, 3.1296745836033635E-11, 2.0900000000000002E-13
DataValue, 1.25, 3, 0, 1.66662E-09, -1.58945E-09, 3.6100000000000003E-13, 1.66662E-09, 4.0824257494778762E-05, 1.7308240710613305E-10, 3.6100000000000003E-13
DataValue, 1.3, 3, 0, 1.65681E-09, -1.59422E-09, -6.83E-13, 1.65681E-09, 4.0703931014092487E-05, 9.5599238221940456E-10, 6.83E-13
DataValue, 1.35, 3, 0, 1.92863E-09, -1.78578E-09, 2.58E-13, 1.92863E-09, 4.3916170142670688E-05, 3.3579672006694237E-11, 2.58E-13
DataValue, 1.4000000000000001, 3, 0, 1.70432E-09, -1.61032E-09, -1.981E-12, 1.70432E-09, 4.128341071181014E-05, 1.014252206912586E-09, 1.981E-12
DataValue, 1.4500000000000002, 3, 0, 1.65905E-09, -1.55348E-09, 4.76E-13, 1.65905E-09, 4.0731437489978178E-05, 1.2231801520750727E-10, 4.76E-13
DataValue, 1.5, 3, 0, 1.79686E-09, -1.89114E-09, 1.89E-13, 1.79686E-09, 4.2389385463816292E-05, 1.4449479789218534E-09, 1.89E-13
DataValue, 1.55, 3, 0, 1.98316E-09, -1.75212E-09, -1.46E-13, 1.98316E-09, 4.4532684626013731E-05, 8.6012837945491892E-10, 1.46E-13
DataValue, 1.6, 3, 0, 2.0541E-09, -1.8923E-09, -2.7560000000000004E-12, 2.0541E-09, 4.532218000052513E-05, 1.0487086949360711E-10, 2.7560000000000004E-12
DataValue, 1.6500000000000001, 3, 0, 1.893E-09, -1.87079E-09, -1.744E-12, 1.893E-09, 4.3508619835614182E-05, 8.6361050045267716E-11, 1.744E-12
DataValue, 1.7000000000000002, 3, 0, 2.1392E-09, -2.12E-09, 1.155E-12, 2.1392E-09, 4.6251486462599229E-05, 1.6078634535032397E-12, 1.155E-12
DataValue, 1.75, 3, 0, 1.90405E-09, -1.89313E-09, 1.9800000000000002E-13, 1.90405E-09, 4.3635421391342147E-05, 1.2942222262272928E-09, 1.9800000000000002E-13
DataValue, 1.8, 3, 0, 1.81936E-09, -1.91894E-09, 2.669E-12, 1.81936E-09, 4.2653956440170939E-05, 4.0999125254272379E-11, 2.669E-12
DataValue, 1.85, 3, 0, 1.96034E-09, -1.82244E-09, 1.2600000000000002E-13, 1.96034E-09, 4.427572698443245E-05, 1.5551801051015258E-10, 1.2600000000000002E-13
DataValue, 1.9000000000000001, 3, 0, 1.9273E-09, -1.79432E-09, -1.6600000000000003E-13, 1.9273E-09, 4.3901025044980445E-05, 1.8416957929124381E-15, 1.6600000000000003E-13
DataValue, 1.9500000000000002, 3, 0, 1.95996E-09, -1.76977E-09, 2.82E-13, 1.95996E-09, 4.4271435486100967E-05, 8.2192611538472123E-12, 2.82E-13
DataValue, 2, 3, 0, 1.90221E-09, -1.74075E-09, -3.7900000000000005E-13, 1.90221E-09, 4.3614332506642818E-05, 6.35145586081464E-11, 3.7900000000000005E-13
DataValue, 2.05, 3, 0, 1.89003E-09, -1.85466E-09, 1.7E-14, 1.89003E-09, 4.347447526997882E-05, 7.3925704272407519E-11, 1.7E-14
DataValue, 2.1, 3, 0, 1.82795E-09, -1.91459E-09, -8.8100000000000008E-13, 1.82795E-09, 4.2754531923528293E-05, 1.5120716860251312E-10, 8.8100000000000008E-13
DataValue, 2.15, 3, 0, 1.99846E-09, -1.93316E-09, -2.059E-12, 1.99846E-09, 4.4704138510880626E-05, 4.8043993951737657E-11, 2.059E-12
DataValue, 2.2, 3, 0, 1.8877E-09, -1.92843E-09, 3.6800000000000005E-13, 1.8877E-09, 4.344766967283746E-05, 4.0460942950103024E-10, 3.6800000000000005E-13
DataValue, 2.25, 3, 0, 2.18235E-09, -2.02527E-09, -1.3000000000000001E-14, 2.18235E-09, 4.6715629076359447E-05, 4.1121992407599957E-12, 1.3000000000000001E-14
DataValue, 2.3000000000000003, 3, 0, 1.87012E-09, -1.81598E-09, 4.8100000000000007E-13, 1.87012E-09, 4.3244884090490982E-05, 6.2602867272118157E-10, 4.8100000000000007E-13
DataValue, 2.35, 3, 0, 1.95484E-09, -1.8787E-09, -1.0730000000000002E-12, 1.95484E-09, 4.4213572576755206E-05, 2.9194309799833205E-11, 1.0730000000000002E-12
DataValue, 2.4, 3, 0, 1.82368E-09, -1.88742E-09, 6.57E-13, 1.82368E-09, 4.2704566500551204E-05, 1.0116711426049194E-10, 6.57E-13
DataValue, 2.45, 3, 0, 1.86691E-09, -1.71684E-09, 1.113E-12, 1.86691E-09, 4.3207753933755922E-05, 4.5729456168059894E-12, 1.113E-12
DataValue, 2.5, 3, 0, 1.84199E-09, -1.95753E-09, 4.8100000000000007E-13, 1.84199E-09, 4.2918410967788634E-05, 3.8813600296420786E-10, 4.8100000000000007E-13
DataValue, 2.5500000000000003, 3, 0, 2.04104E-09, -1.96652E-09, 2E-15, 2.04104E-09, 4.517787068908848E-05, 1.5744501158854816E-10, 2E-15
DataValue, 2.6, 3, 0, 1.95127E-09, -2.04265E-09, -5.15E-13, 1.95127E-09, 4.4173181909389325E-05, 1.295292721009359E-10, 5.15E-13
