
SetupTitle, Transfer sat
PrimitiveTest, I/V Sweep
TestParameter, Context.MainFrame, 4155C
TestParameter, Channel.UnitType, SMU, SMU, SMU
TestParameter, Channel.Unit, SMU1:MP, SMU4:MP, SMU3:MP
TestParameter, Channel.IName, ID, IS, IG
TestParameter, Channel.VName, VD, VS, VG
TestParameter, Channel.Mode, V, COMMON, V
TestParameter, Channel.Func, CONST, CONST, VAR1
TestParameter, Channel.Index, 
TestParameter, Channel.Time, 
TestParameter, Measurement.Port.Unit, SMU1:MP, SMU4:MP, SMU3:MP
TestParameter, Measurement.Port.SeriesResistor, NONE, NONE, NONE
TestParameter, Measurement.Port.Filter, ON, ON, ON
TestParameter, Measurement.Primary.Locus, Double
TestParameter, Measurement.Primary.Scale, LINEAR
TestParameter, Measurement.Primary.Start, -2
TestParameter, Measurement.Primary.Stop, 3
TestParameter, Measurement.Primary.Step, 0.05
TestParameter, Measurement.Primary.Compliance, 0.001
TestParameter, Measurement.Primary.PowerCompliance, 0
TestParameter, Measurement.Aborting.Condition, CONTINUE AT ANY
TestParameter, Measurement.PostOutput.Value, START
TestParameter, Measurement.PostOutput.Retention, OFF
TestParameter, Measurement.Bias.Source, 5, 0, -2
TestParameter, Measurement.Bias.Compliance, 0.001, 0.1, 0.001
TestParameter, Measurement.Monitor.Unit, SMU1:MP, SMU4:MP, SMU3:MP
TestParameter, Measurement.Monitor.Adc, HR ADC, HR ADC, HR ADC
TestParameter, Measurement.Monitor.RangingMode, AUTO, AUTO, AUTO
TestParameter, Measurement.Monitor.RangeBoundary, , , 
TestParameter, Measurement.Monitor.RangeRating, BY FULL RANGE, BY FULL RANGE, BY FULL RANGE
TestParameter, Measurement.Monitor.RangeRatingCoeff, 50, 50, 50
TestParameter, Measurement.Timing.Hold, 0.5
TestParameter, Measurement.Timing.Delay, 0.05
TestParameter, Measurement.Adc.HighResolution.AutoZero, OFF
TestParameter, Measurement.Adc.HighResolution.Mode, AUTO
TestParameter, Measurement.Adc.HighResolution.Coeff, 1
TestParameter, Measurement.Ag16440ASelector.SemiconductorRelay.Channel1, DEFAULT
TestParameter, Measurement.Ag16440ASelector.SemiconductorRelay.Channel3, DEFAULT
TestParameter, Function.User.Name, absID, sqrtID, gm2, absIG
TestParameter, Function.User.Unit, A, A, A/V, A
TestParameter, Function.User.Definition, abs(ID), sqrt(abs(ID)), (delta(sqrtID)/delta(VG))^2, abs(IG)
TestParameter, Output.Graph.Enabled, true
TestParameter, Output.Graph.XAxis.Data, VG
TestParameter, Output.Graph.XAxis.Scale, Linear
TestParameter, Output.Graph.XAxis.Left, -5
TestParameter, Output.Graph.XAxis.Right, 7
TestParameter, Output.Graph.YAxis.Data, ID, absIG, gm2
TestParameter, Output.Graph.YAxis.Scale, Log, Log, Linear
TestParameter, Output.Graph.YAxis.Bottom, 1E-14, 1E-14, 0
TestParameter, Output.Graph.YAxis.Top, 0.01, 0.01, 1E-05
TestParameter, Output.Graph.YAxis.Group, , , 
TestParameter, Output.List.Data, VG, IG, VD, ID, VS, IS, sqrtID, gm2, absIG
TestParameter, AutoAnalysis.Interpolation, false
TestParameter, AutoAnalysis.Line1.Enabled, false
TestParameter, AutoAnalysis.Line1.Type, 1
TestParameter, AutoAnalysis.Line1.Fix, True
TestParameter, AutoAnalysis.Line1.YAxis, 0
TestParameter, AutoAnalysis.Line1.Point1.Type, 0
TestParameter, AutoAnalysis.Line1.Point1.XY.X, 
TestParameter, AutoAnalysis.Line1.Point1.XY.Y, 
TestParameter, AutoAnalysis.Line1.Point1.Data.Var, 
TestParameter, AutoAnalysis.Line1.Point1.Data.Condition, 
TestParameter, AutoAnalysis.Line1.Point1.Data.Start, false
TestParameter, AutoAnalysis.Line1.Point1.Data.StartVar, 
TestParameter, AutoAnalysis.Line1.Point1.Data.StartCondition, 
TestParameter, AutoAnalysis.Line1.Point2.Type, 0
TestParameter, AutoAnalysis.Line1.Point2.XY.X, 
TestParameter, AutoAnalysis.Line1.Point2.XY.Y, 
TestParameter, AutoAnalysis.Line1.Point2.Data.Var, 
TestParameter, AutoAnalysis.Line1.Point2.Data.Condition, 
TestParameter, AutoAnalysis.Line1.Point2.Data.Start, false
TestParameter, AutoAnalysis.Line1.Point2.Data.StartVar, 
TestParameter, AutoAnalysis.Line1.Point2.Data.StartCondition, 
TestParameter, AutoAnalysis.Line1.GradientExpr, 0
TestParameter, AutoAnalysis.Line2.Enabled, false
TestParameter, AutoAnalysis.Line2.Type, 1
TestParameter, AutoAnalysis.Line2.Fix, True
TestParameter, AutoAnalysis.Line2.YAxis, 0
TestParameter, AutoAnalysis.Line2.Point1.Type, 0
TestParameter, AutoAnalysis.Line2.Point1.XY.X, 
TestParameter, AutoAnalysis.Line2.Point1.XY.Y, 
TestParameter, AutoAnalysis.Line2.Point1.Data.Var, 
TestParameter, AutoAnalysis.Line2.Point1.Data.Condition, 
TestParameter, AutoAnalysis.Line2.Point1.Data.Start, false
TestParameter, AutoAnalysis.Line2.Point1.Data.StartVar, 
TestParameter, AutoAnalysis.Line2.Point1.Data.StartCondition, 
TestParameter, AutoAnalysis.Line2.Point2.Type, 0
TestParameter, AutoAnalysis.Line2.Point2.XY.X, 
TestParameter, AutoAnalysis.Line2.Point2.XY.Y, 
TestParameter, AutoAnalysis.Line2.Point2.Data.Var, 
TestParameter, AutoAnalysis.Line2.Point2.Data.Condition, 
TestParameter, AutoAnalysis.Line2.Point2.Data.Start, false
TestParameter, AutoAnalysis.Line2.Point2.Data.StartVar, 
TestParameter, AutoAnalysis.Line2.Point2.Data.StartCondition, 
TestParameter, AutoAnalysis.Line2.GradientExpr, 0
TestParameter, AutoAnalysis.Marker.Enabled, false
TestParameter, AutoAnalysis.Marker.Data.Var, 
TestParameter, AutoAnalysis.Marker.Data.Condition, 
TestParameter, AutoAnalysis.Marker.Data.Start, false
TestParameter, AutoAnalysis.Marker.Data.StartVar, 
TestParameter, AutoAnalysis.Marker.Data.StartCondition, 
MetaData, TestRecord.EntryPoint, true
MetaData, TestRecord.RecordTime, 04/24/2019 16:02:27
MetaData, TestRecord.TestTarget, 23
MetaData, TestRecord.IterationIndex, 1
MetaData, TestRecord.Preservation, true
MetaData, TestRecord.Flag, 
MetaData, TestRecord.Remarks, 350-180-G23
MetaData, TestRecord.LinkKey, ecc19a02-e7ac-4132-9e65-df2d77af48a4
Dimension1, 202, 202, 202, 202, 202, 202, 202, 202, 202, 202
Dimension2, 1, 1, 1, 1, 1, 1, 1, 1, 1, 1
DataName, VG, VD, VS, ID, IS, IG, absID, sqrtID, gm2, absIG
DataValue, -2, 5, 0, 4.8030000000000004E-12, 4.101E-12, -4.641E-12, 4.8030000000000004E-12, 2.1915747762739011E-06, 1.5183089620366979E-11, 4.641E-12
DataValue, -1.9500000000000002, 5, 0, 3.9870000000000007E-12, -6.1150000000000005E-12, -3.154E-12, 3.9870000000000007E-12, 1.9967473550752485E-06, 1.179104044652763E-11, 3.154E-12
DataValue, -1.9000000000000001, 5, 0, 6.426E-12, -1.976E-12, -2.6500000000000002E-12, 6.426E-12, 2.5349556209133131E-06, 8.7361532044073942E-11, 2.6500000000000002E-12
DataValue, -1.85, 5, 0, 1.128E-12, 8.5120000000000009E-12, -3.653E-12, 1.128E-12, 1.0620734437881403E-06, 9.8002815018462969E-11, 3.653E-12
DataValue, -1.8, 5, 0, 2.3870000000000002E-12, -6.1860000000000005E-12, -4.2000000000000004E-14, 2.3870000000000002E-12, 1.5449919093639294E-06, 1.2450103976061892E-11, 4.2000000000000004E-14
DataValue, -1.75, 5, 0, 2.002E-12, 6.1750000000000006E-12, -2.1790000000000003E-12, 2.002E-12, 1.4149204924659196E-06, 2.9647157541775238E-11, 2.1790000000000003E-12
DataValue, -1.7000000000000002, 5, 0, 1.001E-12, -3.5080000000000004E-12, -8.9900000000000011E-13, 1.001E-12, 1.0004998750624609E-06, 2.1639586248272121E-11, 8.9900000000000011E-13
DataValue, -1.6500000000000001, 5, 0, 9.0200000000000009E-13, -3.5600000000000005E-13, -1.001E-12, 9.0200000000000009E-13, 9.4973680564670127E-07, 4.9304439026004527E-11, 1.001E-12
DataValue, -1.6, 5, 0, -8.9000000000000012E-14, -4.16E-12, -8.19E-13, 8.9000000000000012E-14, 2.9832867780352596E-07, 5.1585049705536129E-12, 8.19E-13
DataValue, -1.55, 5, 0, 1.385E-12, -3.2200000000000004E-12, -1.366E-12, 1.385E-12, 1.176860229593982E-06, 6.8072244554960533E-11, 1.366E-12
DataValue, -1.5, 5, 0, 1.262E-12, -5.3650000000000007E-12, -1.078E-12, 1.262E-12, 1.1233877335986894E-06, 1.0398035812675397E-11, 1.078E-12
DataValue, -1.4500000000000002, 5, 0, 7.3E-13, 1.1650000000000002E-12, -1.017E-12, 7.3E-13, 8.544003745317531E-07, 5.3973027154729021E-12, 1.017E-12
DataValue, -1.4000000000000001, 5, 0, 7.94E-13, -2.1000000000000001E-13, -1.9700000000000002E-13, 7.94E-13, 8.9106677639781856E-07, 1.1943910112379242E-11, 1.9700000000000002E-13
DataValue, -1.35, 5, 0, 1.4400000000000001E-12, 1.25E-13, -3.76E-13, 1.4400000000000001E-12, 1.2000000000000002E-06, 1.8544409087497243E-11, 3.76E-13
DataValue, -1.3, 5, 0, 2.12E-13, -1.1830000000000001E-12, -1.069E-12, 2.12E-13, 4.6043457732885353E-07, 5.87571929841703E-12, 1.069E-12
DataValue, -1.25, 5, 0, 9.17E-13, -9.3500000000000016E-13, -2.2700000000000002E-13, 9.17E-13, 9.57601169589929E-07, 2.7444712104727942E-12, 2.2700000000000002E-13
DataValue, -1.2, 5, 0, 3.9200000000000005E-13, -3.41E-13, -5.83E-13, 3.9200000000000005E-13, 6.2609903369994114E-07, 1.4598344147076117E-12, 5.83E-13
DataValue, -1.1500000000000001, 5, 0, 1.163E-12, -1.6950000000000002E-12, -1.4E-14, 1.163E-12, 1.078424777163433E-06, 1.3069953214642189E-11, 1.4E-14
DataValue, -1.1, 5, 0, -7E-14, 1.155E-12, -9.19E-13, 7E-14, 2.6457513110645904E-07, 1.1757887053909907E-11, 9.19E-13
DataValue, -1.05, 5, 0, 5.41E-13, -6.05E-13, 3.3300000000000005E-13, 5.41E-13, 7.355270219373317E-07, 1.9834057978003507E-11, 3.3300000000000005E-13
DataValue, -1, 5, 0, -5.0400000000000007E-13, 1.6830000000000002E-12, -4.95E-13, 5.0400000000000007E-13, 7.09929573971954E-07, 1.0604726553402217E-11, 4.95E-13
DataValue, -0.95000000000000007, 5, 0, -1.6800000000000002E-13, 5.2500000000000009E-13, -1.03E-13, 1.6800000000000002E-13, 4.0987803063838397E-07, 2.0552363419470316E-12, 1.03E-13
DataValue, -0.9, 5, 0, 3.2100000000000005E-13, -5.6E-14, -4.5700000000000007E-13, 3.2100000000000005E-13, 5.6656861896861181E-07, 3.4262365610362197E-12, 4.5700000000000007E-13
DataValue, -0.85000000000000009, 5, 0, 3.54E-13, -4.1E-14, -2.8900000000000003E-13, 3.54E-13, 5.9497899122574068E-07, 1.3811088754762049E-11, 2.8900000000000003E-13
DataValue, -0.8, 5, 0, 3.8E-14, 1.0200000000000001E-13, -4.9000000000000006E-14, 3.8E-14, 1.9493588689617928E-07, 2.2791222872405796E-11, 4.9000000000000006E-14
DataValue, -0.75, 5, 0, -1.1500000000000002E-12, 9.8680000000000012E-12, -2.8390000000000003E-12, 1.1500000000000002E-12, 1.0723805294763608E-06, 1.7380169493960024E-10, 2.8390000000000003E-12
DataValue, -0.70000000000000007, 5, 0, -2.29E-12, 1.162E-12, -1.636E-12, 2.29E-12, 1.5132745950421556E-06, 1.5695000744595204E-12, 1.636E-12
DataValue, -0.65, 5, 0, 8.9700000000000012E-13, -1.0310000000000002E-12, -2E-15, 8.9700000000000012E-13, 9.4710083940412607E-07, 3.3515983478556482E-11, 2E-15
DataValue, -0.6, 5, 0, -8.7300000000000012E-13, 3.175E-12, -4.1500000000000005E-13, 8.7300000000000012E-13, 9.3434469014384632E-07, 1.6487144294321446E-11, 4.1500000000000005E-13
DataValue, -0.55, 5, 0, 1.831E-12, -7.345E-12, -5.7100000000000009E-13, 1.831E-12, 1.3531444860028808E-06, 1.5667997138087344E-11, 5.7100000000000009E-13
DataValue, -0.5, 5, 0, -2.9000000000000003E-13, -1.952E-12, -1.8240000000000003E-12, 2.9000000000000003E-13, 5.3851648071345042E-07, 8.79460712826172E-13, 1.8240000000000003E-12
DataValue, -0.45, 5, 0, 1.5860000000000001E-12, -8.372E-12, -1.3E-13, 1.5860000000000001E-12, 1.2593649193144933E-06, 7.8795312571523419E-11, 1.3E-13
DataValue, -0.4, 5, 0, 2.034E-12, -1.0766000000000002E-11, 3.1200000000000003E-13, 2.034E-12, 1.4261837188805655E-06, 6.0332512604145637E-12, 3.1200000000000003E-13
DataValue, -0.35000000000000003, 5, 0, -2.265E-12, 1.1633000000000001E-11, -5.0800000000000006E-13, 2.265E-12, 1.5049916943292412E-06, 6.3441223086240485E-12, 5.0800000000000006E-13
DataValue, -0.3, 5, 0, -1.379E-12, -4.7890000000000007E-12, -4E-13, 1.379E-12, 1.1743083070471741E-06, 5.014379307593474E-11, 4E-13
DataValue, -0.25, 5, 0, 6.35E-13, 8.862E-12, -2.7800000000000003E-13, 6.35E-13, 7.9686887252546133E-07, 1.1481550306807293E-11, 2.7800000000000003E-13
DataValue, -0.2, 5, 0, -6.9800000000000006E-13, -1.6850000000000002E-12, -2.1080000000000003E-12, 6.9800000000000006E-13, 8.3546394296821694E-07, 5.99258799316511E-11, 2.1080000000000003E-12
DataValue, -0.15, 5, 0, 2.4680000000000004E-12, -7.1600000000000008E-13, 1.9800000000000002E-13, 2.4680000000000004E-12, 1.5709869509324386E-06, 5.1079228632142332E-11, 1.9800000000000002E-13
DataValue, -0.1, 5, 0, 2.403E-12, -3.7300000000000003E-13, 4.47E-13, 2.403E-12, 1.5501612819316577E-06, 3.096821167318736E-10, 4.47E-13
DataValue, -0.05, 5, 0, 1.1094000000000001E-11, -1.2912000000000002E-11, 1.0870000000000001E-12, 1.1094000000000001E-11, 3.3307656777383788E-06, 1.9996239530192148E-09, 1.0870000000000001E-12
DataValue, 0, 5, 0, 3.6263000000000006E-11, -3.3605E-11, -2.077E-12, 3.6263000000000006E-11, 6.02187678386066E-06, 5.2843824968707136E-09, 2.077E-12
DataValue, 0.05, 5, 0, 1.1236300000000001E-10, -1.07321E-10, -2.512E-12, 1.1236300000000001E-10, 1.0600141508489404E-05, 1.4406655980218203E-08, 2.512E-12
DataValue, 0.1, 5, 0, 3.2488800000000004E-10, -3.0651400000000004E-10, -9.0000000000000011E-15, 3.2488800000000004E-10, 1.8024649788553451E-05, 3.5153323722110216E-08, 9.0000000000000011E-15
DataValue, 0.15, 5, 0, 8.61385E-10, -8.16125E-10, -2.7E-13, 8.61385E-10, 2.9349361151479941E-05, 7.1239793925407686E-08, 2.7E-13
DataValue, 0.2, 5, 0, 1.99947E-09, -1.87641E-09, 2.494E-12, 1.99947E-09, 4.4715433577233708E-05, 1.4398393530077574E-07, 2.494E-12
DataValue, 0.25, 5, 0, 4.52856E-09, -4.43273E-09, 1.42E-13, 4.52856E-09, 6.7294576304483854E-05, 2.5159262608703914E-07, 1.42E-13
DataValue, 0.3, 5, 0, 9.00116E-09, -8.80697E-09, -2.758E-12, 9.00116E-09, 9.4874443344875555E-05, 3.1024602013447149E-07, 2.758E-12
DataValue, 0.35000000000000003, 5, 0, 1.51276E-08, -1.44412E-08, 6.170000000000001E-13, 1.51276E-08, 0.00012299430881142429, 3.6774271491592207E-07, 6.170000000000001E-13
DataValue, 0.4, 5, 0, 2.4185299999999998E-08, -2.37113E-08, 4.5000000000000004E-14, 2.4185299999999998E-08, 0.00015551623709439473, 4.3303053417670064E-07, 4.5000000000000004E-14
DataValue, 0.45, 5, 0, 3.56452E-08, -3.49534E-08, -1.4010000000000002E-12, 3.56452E-08, 0.00018879936440570978, 4.4252128155908421E-07, 1.4010000000000002E-12
DataValue, 0.5, 5, 0, 4.93011E-08, -4.8342299999999993E-08, -3.894E-12, 4.93011E-08, 0.00022203851017334807, 4.3809406359658325E-07, 3.894E-12
DataValue, 0.55, 5, 0, 6.5018899999999989E-08, -6.36707E-08, 9.8900000000000013E-13, 6.5018899999999989E-08, 0.00025498803893516259, 4.4786290194155386E-07, 9.8900000000000013E-13
DataValue, 0.6, 5, 0, 8.34985E-08, -8.1756099999999987E-08, -4.1700000000000004E-13, 8.34985E-08, 0.00028896107004231555, 3.6117291812266778E-07, 4.1700000000000004E-13
DataValue, 0.65, 5, 0, 9.9279E-08, -9.53954E-08, 9.0000000000000008E-14, 9.9279E-08, 0.00031508570262707891, 4.3453398020060694E-07, 9.0000000000000008E-14
DataValue, 0.70000000000000007, 5, 0, 1.2594E-07, -1.19826E-07, -1.54E-13, 1.2594E-07, 0.00035488026149674767, 6.03499386900898E-07, 1.54E-13
DataValue, 0.75, 5, 0, 1.54269E-07, -1.50941E-07, -1.2100000000000002E-13, 1.54269E-07, 0.00039277092560422545, 6.4197250574507311E-07, 1.2100000000000002E-13
DataValue, 0.8, 5, 0, 1.89228E-07, -1.84875E-07, -5.66E-13, 1.89228E-07, 0.00043500344826219483, 7.5032666040037233E-07, 5.66E-13
DataValue, 0.85000000000000009, 5, 0, 2.29817E-07, -2.2553E-07, -1.3920000000000001E-12, 2.29817E-07, 0.00047939232367654784, 8.458303727716383E-07, 1.3920000000000001E-12
DataValue, 0.9, 5, 0, 2.777E-07, -2.71504E-07, 2.3100000000000003E-13, 2.777E-07, 0.00052697248505021593, 9.3305274408220509E-07, 2.3100000000000003E-13
DataValue, 0.95000000000000007, 5, 0, 3.31761E-07, -3.25156E-07, 2.7800000000000003E-13, 3.31761E-07, 0.00057598697901949136, 1.0377679793548956E-06, 2.7800000000000003E-13
DataValue, 1, 5, 0, 3.95444E-07, -3.89002E-07, -4.3200000000000003E-13, 3.95444E-07, 0.00062884338272736881, 1.2179944542958009E-06, 4.3200000000000003E-13
DataValue, 1.05, 5, 0, 4.71076E-07, -4.62428E-07, -1.349E-12, 4.71076E-07, 0.00068634976506151734, 1.3936478165088952E-06, 1.349E-12
DataValue, 1.1, 5, 0, 5.57854E-07, -5.46411E-07, 4.0200000000000005E-13, 5.57854E-07, 0.0007468962444677306, 1.5111065181738384E-06, 4.0200000000000005E-13
DataValue, 1.1500000000000001, 5, 0, 6.54929E-07, -6.43641E-07, -1.9700000000000002E-13, 6.54929E-07, 0.00080927683767670008, 1.7238846199006183E-06, 1.9700000000000002E-13
DataValue, 1.2, 5, 0, 7.71223E-07, -7.5681299999999994E-07, 1.58E-13, 7.71223E-07, 0.0008781930311725321, 1.9720129838101914E-06, 1.58E-13
DataValue, 1.25, 5, 0, 9.0193999999999994E-07, -8.8761399999999994E-07, -2.2700000000000002E-13, 9.0193999999999994E-07, 0.00094970521742275375, 1.8373142868381272E-06, 2.2700000000000002E-13
DataValue, 1.3, 5, 0, 1.0276700000000002E-06, -1.015341E-06, 1.017E-12, 1.0276700000000002E-06, 0.0010137405979835277, 2.1577868179439278E-06, 1.017E-12
DataValue, 1.35, 5, 0, 1.2025300000000001E-06, -1.1666600000000002E-06, 1.851E-12, 1.2025300000000001E-06, 0.0010965992887103293, 2.7187301017576745E-06, 1.851E-12
DataValue, 1.4000000000000001, 5, 0, 1.3891600000000001E-06, -1.3678100000000001E-06, -2.1700000000000002E-12, 1.3891600000000001E-06, 0.0011786263190680922, 2.8947831068332493E-06, 2.1700000000000002E-12
DataValue, 1.4500000000000002, 5, 0, 1.6046300000000003E-06, -1.5837600000000002E-06, -1.1500000000000002E-13, 1.6046300000000003E-06, 0.0012667399101630927, 3.3406223811567532E-06, 1.1500000000000002E-13
DataValue, 1.5, 5, 0, 1.8534100000000002E-06, -1.8312000000000001E-06, -1.239E-12, 1.8534100000000002E-06, 0.0013614000146907595, 3.5723767256696952E-06, 1.239E-12
DataValue, 1.55, 5, 0, 2.1192000000000004E-06, -2.0913E-06, 1.7510000000000001E-12, 2.1192000000000004E-06, 0.0014557472308062277, 3.6543056831437414E-06, 1.7510000000000001E-12
DataValue, 1.6, 5, 0, 2.4104500000000004E-06, -2.3789200000000003E-06, -2.4670000000000003E-12, 2.4104500000000004E-06, 0.0015525623981019251, 3.9638481090138574E-06, 2.4670000000000003E-12
DataValue, 1.6500000000000001, 5, 0, 2.7385E-06, -2.7083300000000004E-06, 4.3900000000000005E-13, 2.7385E-06, 0.0016548413821270002, 4.4058759737160982E-06, 4.3900000000000005E-13
DataValue, 1.7000000000000002, 5, 0, 3.1062800000000005E-06, -3.0696200000000004E-06, 5.7500000000000007E-13, 3.1062800000000005E-06, 0.0017624641840332531, 4.6042704980889432E-06, 5.7500000000000007E-13
DataValue, 1.75, 5, 0, 3.4947200000000003E-06, -3.4596200000000004E-06, 1.0500000000000001E-13, 3.4947200000000003E-06, 0.0018694170214267336, 4.8813129360552245E-06, 1.0500000000000001E-13
DataValue, 1.8, 5, 0, 3.93388E-06, -3.89568E-06, 3.2200000000000004E-13, 3.93388E-06, 0.0019834011192897921, 5.2696203791578038E-06, 3.2200000000000004E-13
DataValue, 1.85, 5, 0, 4.40569E-06, -4.36376E-06, -6.07E-13, 4.40569E-06, 0.0020989735586709997, 5.4949510828498088E-06, 6.07E-13
DataValue, 1.9000000000000001, 5, 0, 4.9187000000000009E-06, -4.87722E-06, 9.6200000000000014E-13, 4.9187000000000009E-06, 0.0022178142392905681, 5.9402235923068846E-06, 9.6200000000000014E-13
DataValue, 1.9500000000000002, 5, 0, 5.4882400000000005E-06, -5.4367700000000006E-06, -1.17E-12, 5.4882400000000005E-06, 0.002342699297818651, 6.3467030836059691E-06, 1.17E-12
DataValue, 2, 5, 0, 6.0996200000000006E-06, -6.044340000000001E-06, 2.45E-13, 6.0996200000000006E-06, 0.0024697408770962188, 6.5866579150096264E-06, 2.45E-13
DataValue, 2.05, 5, 0, 6.7565900000000008E-06, -6.70143E-06, 7E-14, 6.7565900000000008E-06, 0.0025993441480496576, 6.8254320364139116E-06, 7E-14
DataValue, 2.1, 5, 0, 7.4583400000000005E-06, -7.4001500000000006E-06, -8.8E-14, 7.4583400000000005E-06, 0.0027309961552517792, 7.4044901674258522E-06, 8.8E-14
DataValue, 2.15, 5, 0, 8.2452600000000011E-06, -8.1784000000000012E-06, -2.134E-12, 8.2452600000000011E-06, 0.002871456076627327, 7.7781052777438022E-06, 2.134E-12
DataValue, 2.2, 5, 0, 9.05943E-06, -8.9915100000000009E-06, 5.0400000000000007E-13, 9.05943E-06, 0.0030098887022612648, 7.8971757808550266E-06, 5.0400000000000007E-13
DataValue, 2.25, 5, 0, 9.9381E-06, -9.8655100000000014E-06, 3.15E-13, 9.9381E-06, 0.0031524752179834816, 8.332953644585833E-06, 3.15E-13
