
SetupTitle, Transfer lin
PrimitiveTest, I/V Sweep
TestParameter, Context.MainFrame, 4155C
TestParameter, Channel.UnitType, SMU, SMU, SMU
TestParameter, Channel.Unit, SMU1:MP, SMU4:MP, SMU3:MP
TestParameter, Channel.IName, ID, IS, IG
TestParameter, Channel.VName, VD, VS, VG
TestParameter, Channel.Mode, V, COMMON, V
TestParameter, Channel.Func, CONST, CONST, VAR1
TestParameter, Channel.Index, 
TestParameter, Channel.Time, 
TestParameter, Measurement.Port.Unit, SMU1:MP, SMU4:MP, SMU3:MP
TestParameter, Measurement.Port.SeriesResistor, NONE, NONE, NONE
TestParameter, Measurement.Port.Filter, ON, ON, ON
TestParameter, Measurement.Primary.Locus, Double
TestParameter, Measurement.Primary.Scale, LINEAR
TestParameter, Measurement.Primary.Start, -2
TestParameter, Measurement.Primary.Stop, 3
TestParameter, Measurement.Primary.Step, 0.05
TestParameter, Measurement.Primary.Compliance, 0.001
TestParameter, Measurement.Primary.PowerCompliance, 0
TestParameter, Measurement.Aborting.Condition, CONTINUE AT ANY
TestParameter, Measurement.PostOutput.Value, START
TestParameter, Measurement.PostOutput.Retention, OFF
TestParameter, Measurement.Bias.Source, 0.1, 0, -2
TestParameter, Measurement.Bias.Compliance, 0.001, 0.1, 0.001
TestParameter, Measurement.Monitor.Unit, SMU1:MP, SMU4:MP, SMU3:MP
TestParameter, Measurement.Monitor.Adc, HR ADC, HR ADC, HR ADC
TestParameter, Measurement.Monitor.RangingMode, AUTO, AUTO, AUTO
TestParameter, Measurement.Monitor.RangeBoundary, , , 
TestParameter, Measurement.Monitor.RangeRating, BY FULL RANGE, BY FULL RANGE, BY FULL RANGE
TestParameter, Measurement.Monitor.RangeRatingCoeff, 50, 50, 50
TestParameter, Measurement.Timing.Hold, 0.5
TestParameter, Measurement.Timing.Delay, 0.05
TestParameter, Measurement.Adc.HighResolution.AutoZero, OFF
TestParameter, Measurement.Adc.HighResolution.Mode, AUTO
TestParameter, Measurement.Adc.HighResolution.Coeff, 1
TestParameter, Measurement.Ag16440ASelector.SemiconductorRelay.Channel1, DEFAULT
TestParameter, Measurement.Ag16440ASelector.SemiconductorRelay.Channel3, DEFAULT
TestParameter, Function.User.Name, absID, sqrtID, gm2, absIG
TestParameter, Function.User.Unit, A, A, A/V, A
TestParameter, Function.User.Definition, abs(ID), sqrt(abs(ID)), (delta(sqrtID)/delta(VG))^2, abs(IG)
TestParameter, Output.Graph.Enabled, true
TestParameter, Output.Graph.XAxis.Data, VG
TestParameter, Output.Graph.XAxis.Scale, Linear
TestParameter, Output.Graph.XAxis.Left, -5
TestParameter, Output.Graph.XAxis.Right, 7
TestParameter, Output.Graph.YAxis.Data, ID, absIG, gm2
TestParameter, Output.Graph.YAxis.Scale, Log, Log, Linear
TestParameter, Output.Graph.YAxis.Bottom, 1E-14, 1E-14, 0
TestParameter, Output.Graph.YAxis.Top, 0.01, 0.01, 1E-05
TestParameter, Output.Graph.YAxis.Group, , , 
TestParameter, Output.List.Data, VG, IG, VD, ID, VS, IS, sqrtID, gm2, absIG
TestParameter, AutoAnalysis.Interpolation, false
TestParameter, AutoAnalysis.Line1.Enabled, false
TestParameter, AutoAnalysis.Line1.Type, 1
TestParameter, AutoAnalysis.Line1.Fix, True
TestParameter, AutoAnalysis.Line1.YAxis, 0
TestParameter, AutoAnalysis.Line1.Point1.Type, 0
TestParameter, AutoAnalysis.Line1.Point1.XY.X, 
TestParameter, AutoAnalysis.Line1.Point1.XY.Y, 
TestParameter, AutoAnalysis.Line1.Point1.Data.Var, 
TestParameter, AutoAnalysis.Line1.Point1.Data.Condition, 
TestParameter, AutoAnalysis.Line1.Point1.Data.Start, false
TestParameter, AutoAnalysis.Line1.Point1.Data.StartVar, 
TestParameter, AutoAnalysis.Line1.Point1.Data.StartCondition, 
TestParameter, AutoAnalysis.Line1.Point2.Type, 0
TestParameter, AutoAnalysis.Line1.Point2.XY.X, 
TestParameter, AutoAnalysis.Line1.Point2.XY.Y, 
TestParameter, AutoAnalysis.Line1.Point2.Data.Var, 
TestParameter, AutoAnalysis.Line1.Point2.Data.Condition, 
TestParameter, AutoAnalysis.Line1.Point2.Data.Start, false
TestParameter, AutoAnalysis.Line1.Point2.Data.StartVar, 
TestParameter, AutoAnalysis.Line1.Point2.Data.StartCondition, 
TestParameter, AutoAnalysis.Line1.GradientExpr, 0
TestParameter, AutoAnalysis.Line2.Enabled, false
TestParameter, AutoAnalysis.Line2.Type, 1
TestParameter, AutoAnalysis.Line2.Fix, True
TestParameter, AutoAnalysis.Line2.YAxis, 0
TestParameter, AutoAnalysis.Line2.Point1.Type, 0
TestParameter, AutoAnalysis.Line2.Point1.XY.X, 
TestParameter, AutoAnalysis.Line2.Point1.XY.Y, 
TestParameter, AutoAnalysis.Line2.Point1.Data.Var, 
TestParameter, AutoAnalysis.Line2.Point1.Data.Condition, 
TestParameter, AutoAnalysis.Line2.Point1.Data.Start, false
TestParameter, AutoAnalysis.Line2.Point1.Data.StartVar, 
TestParameter, AutoAnalysis.Line2.Point1.Data.StartCondition, 
TestParameter, AutoAnalysis.Line2.Point2.Type, 0
TestParameter, AutoAnalysis.Line2.Point2.XY.X, 
TestParameter, AutoAnalysis.Line2.Point2.XY.Y, 
TestParameter, AutoAnalysis.Line2.Point2.Data.Var, 
TestParameter, AutoAnalysis.Line2.Point2.Data.Condition, 
TestParameter, AutoAnalysis.Line2.Point2.Data.Start, false
TestParameter, AutoAnalysis.Line2.Point2.Data.StartVar, 
TestParameter, AutoAnalysis.Line2.Point2.Data.StartCondition, 
TestParameter, AutoAnalysis.Line2.GradientExpr, 0
TestParameter, AutoAnalysis.Marker.Enabled, false
TestParameter, AutoAnalysis.Marker.Data.Var, 
TestParameter, AutoAnalysis.Marker.Data.Condition, 
TestParameter, AutoAnalysis.Marker.Data.Start, false
TestParameter, AutoAnalysis.Marker.Data.StartVar, 
TestParameter, AutoAnalysis.Marker.Data.StartCondition, 
MetaData, TestRecord.EntryPoint, true
MetaData, TestRecord.RecordTime, 04/23/2019 10:14:38
MetaData, TestRecord.TestTarget, 
MetaData, TestRecord.IterationIndex, 1
MetaData, TestRecord.Preservation, true
MetaData, TestRecord.Flag, 
MetaData, TestRecord.Remarks, 250-300-G21
MetaData, TestRecord.LinkKey, f7ce9496-498e-4da1-b08e-28ba2e653a4a
Dimension1, 202, 202, 202, 202, 202, 202, 202, 202, 202, 202
Dimension2, 1, 1, 1, 1, 1, 1, 1, 1, 1, 1
DataName, VG, VD, VS, ID, IS, IG, absID, sqrtID, gm2, absIG
DataValue, -2, 0.1, 0, 4.0232799999999996E-08, -3.371E-12, -4.0968899999999996E-08, 4.0232799999999996E-08, 0.00020058115564528987, 1.3951768400473482E-09, 4.0968899999999996E-08
DataValue, -1.9500000000000002, 0.1, 0, 4.0985499999999993E-08, -2.836E-12, -4.1346199999999996E-08, 4.0985499999999993E-08, 0.00020244875894902392, 5.6324234843976576E-10, 4.1346199999999996E-08
DataValue, -1.9000000000000001, 0.1, 0, 4.1190499999999994E-08, -3.9600000000000003E-13, -4.1449199999999994E-08, 4.1190499999999994E-08, 0.00020295442838233414, 8.0771003583804676E-11, 4.1449199999999994E-08
DataValue, -1.85, 0.1, 0, 4.1350199999999994E-08, -8.95E-13, -4.14385E-08, 4.1350199999999994E-08, 0.00020334748584627249, 5.2665938143009355E-11, 4.14385E-08
DataValue, -1.8, 0.1, 0, 4.1485599999999997E-08, -8.8700000000000006E-13, -4.1453399999999996E-08, 4.1485599999999997E-08, 0.00020368014139822272, 1.1847997531508094E-13, 4.1453399999999996E-08
DataValue, -1.75, 0.1, 0, 4.1364199999999997E-08, 9.4500000000000011E-13, -4.1537099999999995E-08, 4.1364199999999997E-08, 0.00020338190676655581, 1.2832812439245588E-11, 4.1537099999999995E-08
DataValue, -1.7000000000000002, 0.1, 0, 4.1339799999999994E-08, 1.6770000000000002E-12, -4.14592E-08, 4.1339799999999994E-08, 0.00020332191224754895, 1.5300848919581429E-12, 4.14592E-08
DataValue, -1.6500000000000001, 0.1, 0, 4.1313899999999996E-08, -8.050000000000001E-13, -4.1358899999999995E-08, 4.1313899999999996E-08, 0.00020325821016628086, 1.0974118385806735E-11, 4.1358899999999995E-08
DataValue, -1.6, 0.1, 0, 4.1205199999999995E-08, -1.435E-12, -4.1229E-08, 4.1205199999999995E-08, 0.00020299064017830968, 4.86648483914281E-11, 4.1229E-08
DataValue, -1.55, 0.1, 0, 4.1030799999999994E-08, 1.9100000000000002E-13, -4.10895E-08, 4.1030799999999994E-08, 0.00020256060821393677, 2.8592446220140447E-11, 4.10895E-08
DataValue, -1.5, 0.1, 0, 4.09884E-08, 7.02E-13, -4.10683E-08, 4.09884E-08, 0.00020245592112852614, 7.3154045787187935E-12, 4.10683E-08
DataValue, -1.4500000000000002, 0.1, 0, 4.0921299999999996E-08, -2.2700000000000002E-13, -4.09868E-08, 4.0921299999999996E-08, 0.00020229013816792948, 2.204635375847003E-11, 4.09868E-08
DataValue, -1.4000000000000001, 0.1, 0, 4.0798499999999993E-08, 3.7900000000000005E-13, -4.0691E-08, 4.0798499999999993E-08, 0.00020198638567982743, 9.380018455567179E-11, 4.0691E-08
DataValue, -1.35, 0.1, 0, 4.0530399999999995E-08, -8.9000000000000012E-14, -4.0569199999999995E-08, 4.0530399999999995E-08, 0.00020132163321411834, 1.1073708392579848E-10, 4.0569199999999995E-08
DataValue, -1.3, 0.1, 0, 4.0374499999999995E-08, -1.2540000000000001E-12, -4.05093E-08, 4.0374499999999995E-08, 0.00020093406878874472, 4.0046036185564E-11, 4.05093E-08
DataValue, -1.25, 0.1, 0, 4.0275999999999996E-08, -9.65E-13, -4.03678E-08, 4.0275999999999996E-08, 0.00020068881383873889, 2.8326077871760146E-11, 4.03678E-08
DataValue, -1.2, 0.1, 0, 4.01609E-08, 3.4500000000000004E-13, -4.01742E-08, 4.01609E-08, 0.00020040184629888019, 5.5401455714323906E-11, 4.01742E-08
DataValue, -1.1500000000000001, 0.1, 0, 3.99778E-08, -3.38E-13, -3.99669E-08, 3.99778E-08, 0.00019994449229723734, 5.5635520067324715E-11, 3.99669E-08
DataValue, -1.1, 0.1, 0, 3.98625E-08, -1.4E-12, -3.98248E-08, 3.98625E-08, 0.00019965595408101406, 1.7178252350625688E-10, 3.98248E-08
DataValue, -1.05, 0.1, 0, 3.9455399999999993E-08, -1.084E-12, -3.9631E-08, 3.9455399999999993E-08, 0.00019863383397598707, 2.1296572811224725E-10, 3.9631E-08
DataValue, -1, 0.1, 0, 3.9281899999999995E-08, -6.0400000000000005E-13, -3.9483099999999996E-08, 3.9281899999999995E-08, 0.00019819661954735755, 5.9405556440292832E-11, 3.9483099999999996E-08
DataValue, -0.95000000000000007, 0.1, 0, 3.91498E-08, -9.1400000000000014E-13, -3.9246499999999993E-08, 3.91498E-08, 0.00019786308397475261, 7.4108864757926822E-11, 3.9246499999999993E-08
DataValue, -0.9, 0.1, 0, 3.89414E-08, -5.4900000000000008E-13, -3.89777E-08, 3.89414E-08, 0.00019733575448965148, 1.3968162797653652E-10, 3.89777E-08
DataValue, -0.85000000000000009, 0.1, 0, 3.86835E-08, -3.1200000000000003E-13, -3.8779399999999995E-08, 3.86835E-08, 0.00019668121415122492, 8.92680741773509E-11, 3.8779399999999995E-08
DataValue, -0.8, 0.1, 0, 3.8569399999999995E-08, -7.96E-13, -3.85976E-08, 3.8569399999999995E-08, 0.00019639093665441894, 1.1061094848260357E-10, 3.85976E-08
DataValue, -0.75, 0.1, 0, 3.8270899999999994E-08, -1.3130000000000002E-12, -3.83565E-08, 3.8270899999999994E-08, 0.00019562949675342928, 1.399722526903291E-10, 3.83565E-08
DataValue, -0.70000000000000007, 0.1, 0, 3.8106099999999996E-08, -7.4100000000000007E-13, -3.8136899999999994E-08, 3.8106099999999996E-08, 0.0001952078379573935, 1.1344625569468644E-10, 3.8136899999999994E-08
DataValue, -0.65, 0.1, 0, 3.7855299999999994E-08, -3.7300000000000003E-13, -3.77839E-08, 3.7855299999999994E-08, 0.00019456438523018541, 2.0556180766886538E-10, 3.77839E-08
DataValue, -0.6, 0.1, 0, 3.7548399999999995E-08, -5.21E-13, -3.75969E-08, 3.7548399999999995E-08, 0.00019377409527591657, 2.2117596529455987E-10, 3.75969E-08
DataValue, -0.55, 0.1, 0, 3.7278799999999995E-08, -3.16E-13, -3.7241599999999995E-08, 3.7278799999999995E-08, 0.00019307718663788323, 2.2330853682725352E-10, 3.7241599999999995E-08
DataValue, -0.5, 0.1, 0, 3.6971499999999995E-08, 1.1400000000000002E-13, -3.7027799999999995E-08, 3.6971499999999995E-08, 0.00019227974412298345, 2.1894880404081988E-10, 3.7027799999999995E-08
DataValue, -0.45, 0.1, 0, 3.6709599999999994E-08, -3.04E-13, -3.67376E-08, 3.6709599999999994E-08, 0.00019159749476441491, 2.4370431642970754E-10, 3.67376E-08
DataValue, -0.4, 0.1, 0, 3.63736E-08, -4.94E-13, -3.6373799999999994E-08, 3.63736E-08, 0.000190718640934755, 4.1309194398435156E-10, 3.6373799999999994E-08
DataValue, -0.35000000000000003, 0.1, 0, 3.59349E-08, 2.05E-13, -3.5960299999999995E-08, 3.59349E-08, 0.00018956502842032861, 6.7106546076631923E-10, 3.5960299999999995E-08
DataValue, -0.3, 0.1, 0, 3.5392199999999994E-08, 6.63E-13, -3.53236E-08, 3.5392199999999994E-08, 0.00018812814781419605, 1.4342915082500642E-09, 3.53236E-08
DataValue, -0.25, 0.1, 0, 3.4513399999999995E-08, 4.5600000000000008E-13, -3.4317599999999995E-08, 3.4513399999999995E-08, 0.00018577782429558161, 4.9058217154659875E-09, 3.4317599999999995E-08
DataValue, -0.2, 0.1, 0, 3.28059E-08, 2.2700000000000002E-13, -3.25793E-08, 3.28059E-08, 0.00018112399068041758, 1.4466596136453391E-08, 3.25793E-08
DataValue, -0.15, 0.1, 0, 3.01891E-08, 5.41E-13, -2.9910999999999996E-08, 3.01891E-08, 0.00017375010791363554, 3.7679788673973246E-08, 2.9910999999999996E-08
DataValue, -0.1, 0.1, 0, 2.6150999999999997E-08, 6.1900000000000009E-13, -2.7671499999999997E-08, 2.6150999999999997E-08, 0.0001617127082204735, 8.2676699590056518E-08, 2.7671499999999997E-08
DataValue, -0.05, 0.1, 0, 2.1023999999999997E-08, 5.86E-13, -2.0857E-08, 2.1023999999999997E-08, 0.00014499655168313485, 1.5575514905059375E-07, 2.0857E-08
DataValue, 0, 0.1, 0, 1.4944299999999998E-08, 1.57E-13, -1.4365799999999999E-08, 1.4944299999999998E-08, 0.000122246881350814, 3.3627201553607369E-07, 1.4365799999999999E-08
DataValue, 0.05, 0.1, 0, 7.57032E-09, 1.4E-13, -7.64873E-09, 7.57032E-09, 8.7007585876175186E-05, 1.3443697699368846E-06, 7.64873E-09
DataValue, 0.1, 0.1, 0, -3.9689000000000005E-11, 3.1100000000000004E-13, 3.7213E-11, 3.9689000000000005E-11, 6.2999206344207227E-06, 3.478088171796841E-10, 3.7213E-11
DataValue, 0.15, 0.1, 0, -7.89833E-09, -6.86E-13, 4.56824E-09, 7.89833E-09, 8.8872549192650028E-05, 9.0309327162872453E-07, 4.56824E-09
DataValue, 0.2, 0.1, 0, -1.0268E-08, -4.3100000000000003E-13, 1.0011499999999998E-08, 1.0268E-08, 0.00010133114032714721, 1.6015726926630877E-07, 1.0011499999999998E-08
DataValue, 0.25, 0.1, 0, -1.66132E-08, -4.92E-13, 1.60226E-08, 1.66132E-08, 0.00012889220302252576, 6.9633741965507168E-07, 1.60226E-08
DataValue, 0.3, 0.1, 0, -3.41429E-08, -7.1900000000000007E-13, 3.3148299999999996E-08, 3.41429E-08, 0.00018477797487795994, 2.2509448408380081E-07, 3.3148299999999996E-08
DataValue, 0.35000000000000003, 0.1, 0, -3.1094499999999994E-08, -8.1000000000000008E-13, 3.0761899999999996E-08, 3.1094499999999994E-08, 0.00017633632637661473, 6.3785704620664091E-08, 3.0761899999999996E-08
DataValue, 0.4, 0.1, 0, -4.41142E-08, -6.2100000000000008E-13, 4.3931E-08, 4.41142E-08, 0.00021003380680261927, 3.1633130012994267E-07, 4.3931E-08
DataValue, 0.45, 0.1, 0, -5.4093299999999996E-08, -4.2700000000000005E-13, 5.4212799999999993E-08, 5.4093299999999996E-08, 0.00023257966377136243, 2.8417009188112284E-07, 5.4212799999999993E-08
DataValue, 0.5, 0.1, 0, -6.9348699999999992E-08, -4.3000000000000006E-14, 5.5549399999999992E-08, 6.9348699999999992E-08, 0.00026334141337814682, 1.2042953068070256E-07, 5.5549399999999992E-08
DataValue, 0.55, 0.1, 0, -7.144E-08, 1.8000000000000002E-13, 6.64218E-08, 7.144E-08, 0.00026728262195660978, 4.5685038225698209E-08, 6.64218E-08
DataValue, 0.6, 0.1, 0, -8.10629E-08, 4.0200000000000005E-13, 8.4099899999999987E-08, 8.10629E-08, 0.00028471547200670358, 1.9638081306750223E-07, 8.4099899999999987E-08
DataValue, 0.65, 0.1, 0, -9.7093E-08, 8.2E-14, 1.04044E-07, 9.7093E-08, 0.00031159749678070267, 1.0755671369720414E-06, 1.04044E-07
DataValue, 0.70000000000000007, 0.1, 0, -1.50874E-07, 5.9E-13, 1.75688E-07, 1.50874E-07, 0.00038842502494046389, 1.5371963846280943E-06, 1.75688E-07
DataValue, 0.75, 0.1, 0, -1.89731E-07, 4.6000000000000006E-13, 2.0999E-07, 1.89731E-07, 0.00043558122089915676, 2.0387531873190642E-06, 2.0999E-07
DataValue, 0.8, 0.1, 0, -2.82184E-07, 3.43E-13, 2.23535E-07, 2.82184E-07, 0.00053120993966604207, 1.4311875613281749E-06, 2.23535E-07
DataValue, 0.85000000000000009, 0.1, 0, -3.08262E-07, 4.1900000000000003E-13, 2.4344799999999997E-07, 3.08262E-07, 0.00055521347245901737, 3.3179403827384564E-08, 2.4344799999999997E-07
DataValue, 0.9, 0.1, 0, -3.01868E-07, 5.11E-13, 3.04137E-07, 3.01868E-07, 0.00054942515413839582, 4.289172147057098E-07, 3.04137E-07
DataValue, 0.95000000000000007, 0.1, 0, -3.85275E-07, 7.4500000000000006E-13, 3.49379E-07, 3.85275E-07, 0.00062070524405711278, 1.7381164350824749E-06, 3.49379E-07
DataValue, 1, 0.1, 0, -4.64119E-07, 7.2200000000000005E-13, 3.20452E-07, 4.64119E-07, 0.00068126279804492482, 1.0586847888624363E-07, 3.20452E-07
DataValue, 1.05, 0.1, 0, -4.26726E-07, 6.63E-13, 3.35627E-07, 4.26726E-07, 0.00065324268078563268, 6.1982525385056243E-07, 3.35627E-07
DataValue, 1.1, 0.1, 0, -3.63047E-07, 5.13E-13, 2.87872E-07, 3.63047E-07, 0.00060253381647837822, 4.9153788444937149E-07, 2.87872E-07
DataValue, 1.1500000000000001, 0.1, 0, -3.4004399999999997E-07, 2.93E-13, 3.47151E-07, 3.4004399999999997E-07, 0.00058313291795267393, 7.87762509953764E-08, 3.47151E-07
DataValue, 1.2, 0.1, 0, -3.30012E-07, 4.95E-13, 3.29275E-07, 3.30012E-07, 0.00057446670921821046, 1.75836165260032E-06, 3.29275E-07
DataValue, 1.25, 0.1, 0, -2.02977E-07, 6.33E-13, 3.96049E-07, 2.02977E-07, 0.00045052968825594613, 3.75817637004622E-07, 3.96049E-07
DataValue, 1.3, 0.1, 0, -2.6333599999999997E-07, 7.100000000000001E-13, 2.6861199999999997E-07, 2.6333599999999997E-07, 0.00051316274221732032, 7.9089451502979933E-06, 2.6861199999999997E-07
DataValue, 1.35, 0.1, 0, -5.3547E-07, 5.18E-13, 3.4725899999999997E-07, 5.3547E-07, 0.00073175815677039094, 1.289551601428379E-05, 3.4725899999999997E-07
DataValue, 1.4000000000000001, 0.1, 0, -7.6084799999999993E-07, 4.7E-13, 5.14806E-07, 7.6084799999999993E-07, 0.00087226601447035635, 1.093254818099048E-06, 5.14806E-07
DataValue, 1.4500000000000002, 0.1, 0, -3.93379E-07, 2.8600000000000004E-13, 4.14942E-07, 3.93379E-07, 0.00062719933035678538, 5.2505521006348635E-06, 4.14942E-07
DataValue, 1.5, 0.1, 0, -4.1361E-07, 2.59E-13, 4.7438499999999997E-07, 4.1361E-07, 0.00064312518221571759, 1.5273563218418887E-06, 4.7438499999999997E-07
DataValue, 1.55, 0.1, 0, -5.63679E-07, -2.8E-14, 6.18831E-07, 5.63679E-07, 0.0007507855885670688, 3.9433629239749368E-07, 6.18831E-07
DataValue, 1.6, 0.1, 0, -4.98325E-07, 2.85E-13, 5.45671E-07, 4.98325E-07, 0.00070592138372484506, 1.0933719948585779E-12, 5.45671E-07
DataValue, 1.6500000000000001, 0.1, 0, -5.63522E-07, 1.6600000000000003E-13, 4.94502E-07, 5.63522E-07, 0.00075068102413741614, 5.6878091344735945E-08, 4.94502E-07
DataValue, 1.7000000000000002, 0.1, 0, -5.32565E-07, -2.84E-13, 5.45886E-07, 5.32565E-07, 0.00072977051187342443, 2.515628142039938E-07, 5.45886E-07
DataValue, 1.75, 0.1, 0, -6.4133999999999994E-07, -9.3000000000000008E-14, 1.023467E-06, 6.4133999999999994E-07, 0.000800837062079422, 1.8631840355369213E-06, 1.023467E-06
DataValue, 1.8, 0.1, 0, -7.50422E-07, -4.0400000000000005E-13, 5.9033299999999994E-07, 7.50422E-07, 0.00086626901133539348, 1.6863855299469557E-06, 5.9033299999999994E-07
DataValue, 1.85, 0.1, 0, -4.50209E-07, 3.8100000000000004E-13, 7.96251E-07, 4.50209E-07, 0.000670976154568849, 3.1913902938034295E-08, 7.96251E-07
DataValue, 1.9000000000000001, 0.1, 0, -7.81692E-07, 5.7200000000000009E-13, 1.003853E-06, 7.81692E-07, 0.00088413347408635085, 3.1907495747072736E-06, 1.003853E-06
DataValue, 1.9500000000000002, 0.1, 0, -7.21825E-07, 5.0400000000000007E-13, 6.13306E-07, 7.21825E-07, 0.00084960284839447184, 1.6890775575074749E-07, 6.13306E-07
DataValue, 2, 0.1, 0, -8.5605399999999994E-07, 9.1E-14, 7.08847E-07, 8.5605399999999994E-07, 0.00092523186283223079, 2.1588101274254968E-07, 7.08847E-07
DataValue, 2.05, 0.1, 0, -8.02934E-07, -8.3200000000000009E-13, 3.64664E-06, 8.02934E-07, 0.00089606584579482776, 0.00010361196575732118, 3.64664E-06
DataValue, 2.1, 0.1, 0, -3.7757600000000005E-06, 2.05E-13, 2.80739E-06, 3.7757600000000005E-06, 0.0019431314932345676, 7.1612715961344049E-05, 2.80739E-06
DataValue, 2.15, 0.1, 0, -3.0356400000000005E-06, 7.1E-14, 2.8888200000000003E-06, 3.0356400000000005E-06, 0.001742308813040903, 3.3967351509670722E-06, 2.8888200000000003E-06
DataValue, 2.2, 0.1, 0, -3.0934800000000004E-06, 3.2100000000000005E-13, 2.9001400000000002E-06, 3.0934800000000004E-06, 0.0017588291560012303, 3.8076667291070986E-12, 2.9001400000000002E-06
