
SetupTitle, Transfer lin
PrimitiveTest, I/V Sweep
TestParameter, Context.MainFrame, 4155C
TestParameter, Channel.UnitType, SMU, SMU, SMU
TestParameter, Channel.Unit, SMU1:MP, SMU4:MP, SMU3:MP
TestParameter, Channel.IName, ID, IS, IG
TestParameter, Channel.VName, VD, VS, VG
TestParameter, Channel.Mode, V, COMMON, V
TestParameter, Channel.Func, CONST, CONST, VAR1
TestParameter, Channel.Index, 
TestParameter, Channel.Time, 
TestParameter, Measurement.Port.Unit, SMU1:MP, SMU4:MP, SMU3:MP
TestParameter, Measurement.Port.SeriesResistor, NONE, NONE, NONE
TestParameter, Measurement.Port.Filter, ON, ON, ON
TestParameter, Measurement.Primary.Locus, Double
TestParameter, Measurement.Primary.Scale, LINEAR
TestParameter, Measurement.Primary.Start, -2
TestParameter, Measurement.Primary.Stop, 3
TestParameter, Measurement.Primary.Step, 0.05
TestParameter, Measurement.Primary.Compliance, 0.001
TestParameter, Measurement.Primary.PowerCompliance, 0
TestParameter, Measurement.Aborting.Condition, CONTINUE AT ANY
TestParameter, Measurement.PostOutput.Value, START
TestParameter, Measurement.PostOutput.Retention, OFF
TestParameter, Measurement.Bias.Source, 0.1, 0, -2
TestParameter, Measurement.Bias.Compliance, 0.001, 0.1, 0.001
TestParameter, Measurement.Monitor.Unit, SMU1:MP, SMU4:MP, SMU3:MP
TestParameter, Measurement.Monitor.Adc, HR ADC, HR ADC, HR ADC
TestParameter, Measurement.Monitor.RangingMode, AUTO, AUTO, AUTO
TestParameter, Measurement.Monitor.RangeBoundary, , , 
TestParameter, Measurement.Monitor.RangeRating, BY FULL RANGE, BY FULL RANGE, BY FULL RANGE
TestParameter, Measurement.Monitor.RangeRatingCoeff, 50, 50, 50
TestParameter, Measurement.Timing.Hold, 0.5
TestParameter, Measurement.Timing.Delay, 0.05
TestParameter, Measurement.Adc.HighResolution.AutoZero, OFF
TestParameter, Measurement.Adc.HighResolution.Mode, AUTO
TestParameter, Measurement.Adc.HighResolution.Coeff, 1
TestParameter, Measurement.Ag16440ASelector.SemiconductorRelay.Channel1, DEFAULT
TestParameter, Measurement.Ag16440ASelector.SemiconductorRelay.Channel3, DEFAULT
TestParameter, Function.User.Name, absID, sqrtID, gm2, absIG
TestParameter, Function.User.Unit, A, A, A/V, A
TestParameter, Function.User.Definition, abs(ID), sqrt(abs(ID)), (delta(sqrtID)/delta(VG))^2, abs(IG)
TestParameter, Output.Graph.Enabled, true
TestParameter, Output.Graph.XAxis.Data, VG
TestParameter, Output.Graph.XAxis.Scale, Linear
TestParameter, Output.Graph.XAxis.Left, -5
TestParameter, Output.Graph.XAxis.Right, 7
TestParameter, Output.Graph.YAxis.Data, ID, absIG, gm2
TestParameter, Output.Graph.YAxis.Scale, Log, Log, Linear
TestParameter, Output.Graph.YAxis.Bottom, 1E-14, 1E-14, 0
TestParameter, Output.Graph.YAxis.Top, 0.01, 0.01, 1E-05
TestParameter, Output.Graph.YAxis.Group, , , 
TestParameter, Output.List.Data, VG, IG, VD, ID, VS, IS, sqrtID, gm2, absIG
TestParameter, AutoAnalysis.Interpolation, false
TestParameter, AutoAnalysis.Line1.Enabled, false
TestParameter, AutoAnalysis.Line1.Type, 1
TestParameter, AutoAnalysis.Line1.Fix, True
TestParameter, AutoAnalysis.Line1.YAxis, 0
TestParameter, AutoAnalysis.Line1.Point1.Type, 0
TestParameter, AutoAnalysis.Line1.Point1.XY.X, 
TestParameter, AutoAnalysis.Line1.Point1.XY.Y, 
TestParameter, AutoAnalysis.Line1.Point1.Data.Var, 
TestParameter, AutoAnalysis.Line1.Point1.Data.Condition, 
TestParameter, AutoAnalysis.Line1.Point1.Data.Start, false
TestParameter, AutoAnalysis.Line1.Point1.Data.StartVar, 
TestParameter, AutoAnalysis.Line1.Point1.Data.StartCondition, 
TestParameter, AutoAnalysis.Line1.Point2.Type, 0
TestParameter, AutoAnalysis.Line1.Point2.XY.X, 
TestParameter, AutoAnalysis.Line1.Point2.XY.Y, 
TestParameter, AutoAnalysis.Line1.Point2.Data.Var, 
TestParameter, AutoAnalysis.Line1.Point2.Data.Condition, 
TestParameter, AutoAnalysis.Line1.Point2.Data.Start, false
TestParameter, AutoAnalysis.Line1.Point2.Data.StartVar, 
TestParameter, AutoAnalysis.Line1.Point2.Data.StartCondition, 
TestParameter, AutoAnalysis.Line1.GradientExpr, 0
TestParameter, AutoAnalysis.Line2.Enabled, false
TestParameter, AutoAnalysis.Line2.Type, 1
TestParameter, AutoAnalysis.Line2.Fix, True
TestParameter, AutoAnalysis.Line2.YAxis, 0
TestParameter, AutoAnalysis.Line2.Point1.Type, 0
TestParameter, AutoAnalysis.Line2.Point1.XY.X, 
TestParameter, AutoAnalysis.Line2.Point1.XY.Y, 
TestParameter, AutoAnalysis.Line2.Point1.Data.Var, 
TestParameter, AutoAnalysis.Line2.Point1.Data.Condition, 
TestParameter, AutoAnalysis.Line2.Point1.Data.Start, false
TestParameter, AutoAnalysis.Line2.Point1.Data.StartVar, 
TestParameter, AutoAnalysis.Line2.Point1.Data.StartCondition, 
TestParameter, AutoAnalysis.Line2.Point2.Type, 0
TestParameter, AutoAnalysis.Line2.Point2.XY.X, 
TestParameter, AutoAnalysis.Line2.Point2.XY.Y, 
TestParameter, AutoAnalysis.Line2.Point2.Data.Var, 
TestParameter, AutoAnalysis.Line2.Point2.Data.Condition, 
TestParameter, AutoAnalysis.Line2.Point2.Data.Start, false
TestParameter, AutoAnalysis.Line2.Point2.Data.StartVar, 
TestParameter, AutoAnalysis.Line2.Point2.Data.StartCondition, 
TestParameter, AutoAnalysis.Line2.GradientExpr, 0
TestParameter, AutoAnalysis.Marker.Enabled, false
TestParameter, AutoAnalysis.Marker.Data.Var, 
TestParameter, AutoAnalysis.Marker.Data.Condition, 
TestParameter, AutoAnalysis.Marker.Data.Start, false
TestParameter, AutoAnalysis.Marker.Data.StartVar, 
TestParameter, AutoAnalysis.Marker.Data.StartCondition, 
MetaData, TestRecord.EntryPoint, true
MetaData, TestRecord.RecordTime, 04/24/2019 16:09:09
MetaData, TestRecord.TestTarget, 33
MetaData, TestRecord.IterationIndex, 1
MetaData, TestRecord.Preservation, true
MetaData, TestRecord.Flag, 
MetaData, TestRecord.Remarks, 350-180-G33
MetaData, TestRecord.LinkKey, 39a87f8f-bb0c-4ebe-9421-2144087d30e6
Dimension1, 202, 202, 202, 202, 202, 202, 202, 202, 202, 202
Dimension2, 1, 1, 1, 1, 1, 1, 1, 1, 1, 1
DataName, VG, VD, VS, ID, IS, IG, absID, sqrtID, gm2, absIG
DataValue, -2, 0.1, 0, 1.8829099999999998E-08, 1.571E-12, -2.1137199999999997E-08, 1.8829099999999998E-08, 0.000137219167757278, 2.2313023908613616E-08, 2.1137199999999997E-08
DataValue, -1.9500000000000002, 0.1, 0, 2.0934599999999997E-08, 6.671E-12, -1.90084E-08, 2.0934599999999997E-08, 0.00014468794006412559, 1.8605512595307194E-10, 1.90084E-08
DataValue, -1.9000000000000001, 0.1, 0, 1.92053E-08, -1.3190000000000001E-12, -1.9629699999999998E-08, 1.92053E-08, 0.00013858318801355379, 3.8669105969778067E-09, 1.9629699999999998E-08
DataValue, -1.85, 0.1, 0, 1.91738E-08, 9.4E-14, -1.79224E-08, 1.91738E-08, 0.00013846949122460153, 4.9803295057562686E-09, 1.79224E-08
DataValue, -1.8, 0.1, 0, 1.7299099999999997E-08, 1.1466000000000001E-11, -1.79543E-08, 1.7299099999999997E-08, 0.00013152604304851568, 1.0747859442811743E-08, 1.79543E-08
DataValue, -1.75, 0.1, 0, 1.6410199999999997E-08, -4.904E-12, -1.52543E-08, 1.6410199999999997E-08, 0.000128102302867669, 1.1666482356963993E-08, 1.52543E-08
DataValue, -1.7000000000000002, 0.1, 0, 1.45745E-08, -3.4020000000000002E-12, -1.60661E-08, 1.45745E-08, 0.00012072489387031989, 5.7454628330095186E-08, 1.60661E-08
DataValue, -1.6500000000000001, 0.1, 0, 1.08436E-08, -6.9000000000000009E-13, -1.13896E-08, 1.08436E-08, 0.00010413260776529127, 5.7930886317274714E-09, 1.13896E-08
DataValue, -1.6, 0.1, 0, 1.2794699999999998E-08, -1.565E-12, -1.12172E-08, 1.2794699999999998E-08, 0.0001131136596525813, 3.8073467699500647E-09, 1.12172E-08
DataValue, -1.55, 0.1, 0, 9.5966E-09, 2.0750000000000003E-12, -9.6476999999999984E-09, 9.5966E-09, 9.7962237622463476E-05, 3.0256999765404264E-08, 9.6476999999999984E-09
DataValue, -1.5, 0.1, 0, 9.16215E-09, 3.2450000000000004E-12, -9.4179999999999987E-09, 9.16215E-09, 9.5719120346981874E-05, 2.6423354390040416E-09, 9.4179999999999987E-09
DataValue, -1.4500000000000002, 0.1, 0, 8.6159E-09, -1.9570000000000002E-12, -7.91579E-09, 8.6159E-09, 9.2821872422398373E-05, 3.9775234592827668E-09, 7.91579E-09
DataValue, -1.4000000000000001, 0.1, 0, 7.99457E-09, -4.294E-12, -7.43412E-09, 7.99457E-09, 8.9412359324648178E-05, 1.084043204628906E-08, 7.43412E-09
DataValue, -1.35, 0.1, 0, 6.79143E-09, 3.116E-12, -7.20135E-09, 6.79143E-09, 8.2410132872117123E-05, 2.6314836251365576E-09, 7.20135E-09
DataValue, -1.3, 0.1, 0, 7.10355E-09, 5.356E-12, -7.71623E-09, 7.10355E-09, 8.4282560473682809E-05, 3.9937711459262331E-10, 7.71623E-09
DataValue, -1.25, 0.1, 0, 6.46604E-09, -4.22E-13, -5.50609E-09, 6.46604E-09, 8.0411690692336522E-05, 7.6093866722526959E-09, 5.50609E-09
DataValue, -1.2, 0.1, 0, 5.70922E-09, -5.5960000000000008E-12, -5.89384E-09, 5.70922E-09, 7.555938062213056E-05, 9.82837949512913E-09, 5.89384E-09
DataValue, -1.1500000000000001, 0.1, 0, 4.96995E-09, -6.773E-12, -4.67433E-09, 4.96995E-09, 7.0497872308318636E-05, 7.71522705672024E-09, 4.67433E-09
DataValue, -1.1, 0.1, 0, 4.459E-09, -1.2000000000000002E-13, -4.09887E-09, 4.459E-09, 6.67757440991862E-05, 4.1384278646670714E-09, 4.09887E-09
DataValue, -1.05, 0.1, 0, 4.1043E-09, 4.2110000000000005E-12, -4.36022E-09, 4.1043E-09, 6.4064810933928462E-05, 4.257745779153194E-12, 4.36022E-09
DataValue, -1, 0.1, 0, 4.4866E-09, 8.7300000000000012E-13, -4.46391E-09, 4.4866E-09, 6.6982087157687158E-05, 2.0599861677072211E-10, 4.46391E-09
DataValue, -0.95000000000000007, 0.1, 0, 3.92246E-09, -2.8720000000000003E-12, -4.5829E-09, 3.92246E-09, 6.2629545743203341E-05, 1.3826383901730128E-10, 4.5829E-09
DataValue, -0.9, 0.1, 0, 4.33046E-09, -4.0530000000000006E-12, -4.0846E-09, 4.33046E-09, 6.5806230708041619E-05, 5.6193722898675E-10, 4.0846E-09
DataValue, -0.85000000000000009, 0.1, 0, 3.63115E-09, -1.326E-12, -3.55574E-09, 3.63115E-09, 6.0259024220443529E-05, 1.6398746387412212E-08, 3.55574E-09
DataValue, -0.8, 0.1, 0, 2.80905E-09, 2.803E-12, -3.43495E-09, 2.80905E-09, 5.3000471696014178E-05, 2.7447228530907193E-10, 3.43495E-09
DataValue, -0.75, 0.1, 0, 3.43423E-09, -1.3590000000000002E-12, -2.45201E-09, 3.43423E-09, 5.8602303708984E-05, 2.8010618745205583E-09, 2.45201E-09
DataValue, -0.70000000000000007, 0.1, 0, 2.27605E-09, -8.93E-13, -2.45145E-09, 2.27605E-09, 4.7707965791888462E-05, 1.5877970688610286E-08, 2.45145E-09
DataValue, -0.65, 0.1, 0, 2.11614E-09, 2.0370000000000003E-12, -1.92543E-09, 2.11614E-09, 4.6001521713960724E-05, 4.4578623380202973E-10, 1.92543E-09
DataValue, -0.6, 0.1, 0, 2.07905E-09, 1.4590000000000001E-12, -2.14913E-09, 2.07905E-09, 4.5596600750494552E-05, 1.0499701893172756E-09, 2.14913E-09
DataValue, -0.55, 0.1, 0, 1.82852E-09, 1.389E-12, -1.90823E-09, 1.82852E-09, 4.276119736396538E-05, 4.6551941514716238E-09, 1.90823E-09
DataValue, -0.5, 0.1, 0, 1.5034E-09, -1.9400000000000002E-12, -1.56145E-09, 1.5034E-09, 3.877370242832118E-05, 1.2373503849919524E-09, 1.56145E-09
DataValue, -0.45, 0.1, 0, 1.54006E-09, 2.464E-12, -1.47685E-09, 1.54006E-09, 3.9243598204038324E-05, 1.351173532195039E-11, 1.47685E-09
DataValue, -0.4, 0.1, 0, 1.47503E-09, 2.273E-12, -1.53801E-09, 1.47503E-09, 3.840611930409007E-05, 7.4838020587726851E-10, 1.53801E-09
DataValue, -0.35000000000000003, 0.1, 0, 1.33283E-09, 4.3100000000000003E-13, -1.26453E-09, 1.33283E-09, 3.6507944340923934E-05, 3.7980417252162912E-09, 1.26453E-09
DataValue, -0.3, 0.1, 0, 1.03963E-09, 4.3000000000000004E-13, -1.03596E-09, 1.03963E-09, 3.2243293876401651E-05, 5.0336201517544785E-09, 1.03596E-09
DataValue, -0.25, 0.1, 0, 8.6513300000000012E-10, -4.45E-13, -8.7410000000000011E-10, 8.6513300000000012E-10, 2.9413143320631341E-05, 2.9521107933565141E-09, 8.7410000000000011E-10
DataValue, -0.2, 0.1, 0, 7.18774E-10, 6.8E-14, -7.37083E-10, 7.18774E-10, 2.6809960835480532E-05, 3.3112422649084136E-09, 7.37083E-10
DataValue, -0.15, 0.1, 0, 5.5973900000000007E-10, 3.205E-12, -5.9690000000000008E-10, 5.5973900000000007E-10, 2.3658803858183532E-05, 3.8442251913665093E-09, 5.9690000000000008E-10
DataValue, -0.1, 0.1, 0, 4.24763E-10, -1.414E-12, -4.4771400000000003E-10, 4.24763E-10, 2.0609779232199456E-05, 3.3282354902442843E-09, 4.4771400000000003E-10
DataValue, -0.05, 0.1, 0, 3.2004200000000003E-10, -4.34E-13, -3.41729E-10, 3.2004200000000003E-10, 1.788971771716927E-05, 3.4445388889013321E-09, 3.41729E-10
DataValue, 0, 0.1, 0, 2.1729E-10, 1.304E-12, -2.00088E-10, 2.1729E-10, 1.4740759817594208E-05, 5.377517364740774E-09, 2.00088E-10
DataValue, 0.05, 0.1, 0, 1.1144100000000001E-10, -5.7670000000000008E-12, -9.9303000000000009E-11, 1.1144100000000001E-10, 1.0556561940328869E-05, 1.0876470065172603E-08, 9.9303000000000009E-11
DataValue, 0.1, 0.1, 0, 1.8591000000000003E-11, -1.3792000000000001E-11, -7.06E-13, 1.8591000000000003E-11, 4.3117281918043027E-06, 6.6556044757721855E-10, 7.06E-13
DataValue, 0.15, 0.1, 0, -6.3628E-11, -5.8931E-11, 1.24934E-10, 6.3628E-11, 7.9767161162974829E-06, 1.5033368773796997E-09, 1.24934E-10
DataValue, 0.2, 0.1, 0, -6.706E-11, -1.8195E-10, 2.4791200000000004E-10, 6.706E-11, 8.1890170350292954E-06, 2.0953381443121743E-09, 2.4791200000000004E-10
DataValue, 0.25, 0.1, 0, 1.5760800000000002E-10, -5.30527E-10, 3.81149E-10, 1.5760800000000002E-10, 1.2554202483630732E-05, 4.6840694120266037E-08, 3.81149E-10
DataValue, 0.3, 0.1, 0, 8.8993200000000007E-10, -1.32612E-09, 5.5621800000000005E-10, 8.8993200000000007E-10, 2.9831728075993185E-05, 1.4044047627095579E-07, 5.5621800000000005E-10
DataValue, 0.35000000000000003, 0.1, 0, 2.50296E-09, -3.05339E-09, 6.38427E-10, 2.50296E-09, 5.0029591243583028E-05, 2.3083437561023525E-07, 6.38427E-10
DataValue, 0.4, 0.1, 0, 6.06482E-09, -6.67758E-09, 8.159660000000001E-10, 6.06482E-09, 7.7876954229091412E-05, 2.8589037961528656E-07, 8.159660000000001E-10
DataValue, 0.45, 0.1, 0, 1.07119E-08, -1.1174599999999999E-08, 9.5394E-10, 1.07119E-08, 0.00010349830916493274, 3.2916398685634679E-07, 9.5394E-10
DataValue, 0.5, 0.1, 0, 1.82925E-08, -1.8768799999999997E-08, 8.7187000000000011E-10, 1.82925E-08, 0.00013524976894619821, 3.6715272528254768E-07, 8.7187000000000011E-10
DataValue, 0.55, 0.1, 0, 2.6926E-08, -2.7290599999999998E-08, 9.1581E-10, 2.6926E-08, 0.00016409143792410377, 3.0437322592488683E-07, 9.1581E-10
DataValue, 0.6, 0.1, 0, 3.62597E-08, -3.6667899999999996E-08, 1.22305E-09, 3.62597E-08, 0.00019041979939071461, 3.0213461909255491E-07, 1.22305E-09
DataValue, 0.65, 0.1, 0, 4.79865E-08, -4.83338E-08, 1.3046E-09, 4.79865E-08, 0.00021905821144161658, 3.0902206685460476E-07, 1.3046E-09
DataValue, 0.70000000000000007, 0.1, 0, 6.05207E-08, -6.0671999999999989E-08, 1.51166E-09, 6.05207E-08, 0.00024600955266005422, 2.8095317745525837E-07, 1.51166E-09
DataValue, 0.75, 0.1, 0, 7.401839999999999E-08, -7.43749E-08, 1.82628E-09, 7.401839999999999E-08, 0.0002720632279452701, 2.4310857026701328E-07, 1.82628E-09
DataValue, 0.8, 0.1, 0, 8.7211299999999989E-08, -8.56633E-08, 2.15485E-09, 8.7211299999999989E-08, 0.000295315593899137, 2.1756485185487946E-07, 2.15485E-09
DataValue, 0.85000000000000009, 0.1, 0, 1.0157419999999999E-07, -1.00284E-07, 2.59954E-09, 1.0157419999999999E-07, 0.00031870707554116208, 2.0877348666627993E-07, 2.59954E-09
DataValue, 0.9, 0.1, 0, 1.16286E-07, -1.17764E-07, 2.65308E-09, 1.16286E-07, 0.00034100733129948979, 3.03251304448688E-07, 2.65308E-09
DataValue, 0.95000000000000007, 0.1, 0, 1.39708E-07, -1.40403E-07, 2.87964E-09, 1.39708E-07, 0.00037377533358957758, 4.0631967136613081E-07, 2.87964E-09
DataValue, 1, 0.1, 0, 1.63823E-07, -1.64504E-07, 3.33066E-09, 1.63823E-07, 0.00040475054045671145, 3.4971726695637756E-07, 3.33066E-09
DataValue, 1.05, 0.1, 0, 1.8741299999999999E-07, -1.8846399999999999E-07, 4.00725E-09, 1.8741299999999999E-07, 0.00043291223128943815, 2.9230595565080579E-07, 4.00725E-09
DataValue, 1.1, 0.1, 0, 2.10512E-07, -2.12379E-07, 4.07169E-09, 2.10512E-07, 0.00045881586720600672, 3.0483349503255644E-07, 4.07169E-09
DataValue, 1.1500000000000001, 0.1, 0, 2.38265E-07, -2.39935E-07, 4.25012E-09, 2.38265E-07, 0.00048812395966598484, 3.6433783032191832E-07, 4.25012E-09
DataValue, 1.2, 0.1, 0, 2.6954399999999997E-07, -2.71778E-07, 5.52374E-09, 2.6954399999999997E-07, 0.0005191762706441811, 4.0220113744631663E-07, 5.52374E-09
DataValue, 1.25, 0.1, 0, 3.042E-07, -3.06402E-07, 4.98555E-09, 3.042E-07, 0.00055154328932550706, 4.3398546285557013E-07, 4.98555E-09
DataValue, 1.3, 0.1, 0, 3.42288E-07, -3.44912E-07, 5.4744E-09, 3.42288E-07, 0.00058505384367594745, 4.5597841290334973E-07, 5.4744E-09
DataValue, 1.35, 0.1, 0, 3.83247E-07, -3.86248E-07, 6.47202E-09, 3.83247E-07, 0.0006190694629845669, 4.7569465195065094E-07, 6.47202E-09
DataValue, 1.4000000000000001, 0.1, 0, 4.27748E-07, -4.31512E-07, 7.68293E-09, 4.27748E-07, 0.00065402446437423114, 5.0180933502899149E-07, 7.68293E-09
DataValue, 1.4500000000000002, 0.1, 0, 4.7597299999999997E-07, -4.81092E-07, 8.02109E-09, 4.7597299999999997E-07, 0.0006899079648764754, 5.2832446908653555E-07, 8.02109E-09
DataValue, 1.5, 0.1, 0, 5.28108E-07, -5.33056E-07, 7.73305E-09, 5.28108E-07, 0.000726710396237731, 5.6605258062098061E-07, 7.73305E-09
DataValue, 1.55, 0.1, 0, 5.85446E-07, -5.90707E-07, 9.28886E-09, 5.85446E-07, 0.00076514443081028831, 5.8370257783629018E-07, 9.28886E-09
DataValue, 1.6, 0.1, 0, 6.44987E-07, -6.51331E-07, 1.1395799999999999E-08, 6.44987E-07, 0.00080311082672318644, 6.9175064060443528E-07, 1.1395799999999999E-08
DataValue, 1.6500000000000001, 0.1, 0, 7.1964E-07, -7.2490799999999994E-07, 9.4811E-09, 7.1964E-07, 0.00084831597886636555, 7.8966021284038789E-07, 9.4811E-09
DataValue, 1.7000000000000002, 0.1, 0, 7.95617E-07, -8.00223E-07, 1.0306599999999999E-08, 7.95617E-07, 0.00089197365431945355, 7.2378723445419232E-07, 1.0306599999999999E-08
DataValue, 1.75, 0.1, 0, 8.7121999999999994E-07, -8.79638E-07, 1.3701799999999998E-08, 8.7121999999999994E-07, 0.00093339166484386388, 6.88664831577154E-07, 1.3701799999999998E-08
DataValue, 1.8, 0.1, 0, 9.5054599999999994E-07, -9.6057E-07, 1.50352E-08, 9.5054599999999994E-07, 0.0009749594863377657, 7.0603930611121623E-07, 1.50352E-08
DataValue, 1.85, 0.1, 0, 1.035139E-06, -1.044527E-06, 1.4808799999999998E-08, 1.035139E-06, 0.0010174178099483025, 6.422045445752685E-07, 1.4808799999999998E-08
DataValue, 1.9000000000000001, 0.1, 0, 1.1132300000000002E-06, -1.125425E-06, 1.71401E-08, 1.1132300000000002E-06, 0.0010550971519248833, 5.6492821403368771E-07, 1.71401E-08
DataValue, 1.9500000000000002, 0.1, 0, 1.19373E-06, -1.20839E-06, 2.25761E-08, 1.19373E-06, 0.001092579516557033, 6.0174557468094475E-07, 2.25761E-08
DataValue, 2, 0.1, 0, 1.28294E-06, -1.30435E-06, 2.4828199999999997E-08, 1.28294E-06, 0.0011326694133770895, 6.6963082827662479E-07, 2.4828199999999997E-08
DataValue, 2.05, 0.1, 0, 1.3792400000000001E-06, -1.4002100000000002E-06, 2.8782099999999998E-08, 1.3792400000000001E-06, 0.0011744104904163621, 6.716455665132185E-07, 2.8782099999999998E-08
DataValue, 2.1, 0.1, 0, 1.4753100000000002E-06, -1.4981000000000001E-06, 2.4852499999999997E-08, 1.4753100000000002E-06, 0.0012146233984243842, 6.5903553554446273E-07, 2.4852499999999997E-08
DataValue, 2.15, 0.1, 0, 1.5765100000000001E-06, -1.5986200000000002E-06, 2.5996699999999998E-08, 1.5765100000000001E-06, 0.0012555914940775921, 6.2739263921897993E-07, 2.5996699999999998E-08
DataValue, 2.2, 0.1, 0, 1.6740000000000002E-06, -1.7001500000000002E-06, 2.75973E-08, 1.6740000000000002E-06, 0.0012938315191708696, 5.8151065064757209E-07, 2.75973E-08
DataValue, 2.25, 0.1, 0, 1.7738200000000002E-06, -1.8027100000000002E-06, 3.6048799999999997E-08, 1.7738200000000002E-06, 0.0013318483397143986, 5.5365840820423351E-07, 3.6048799999999997E-08
DataValue, 2.3000000000000003, 0.1, 0, 1.8720800000000001E-06, -1.9069900000000003E-06, 4.1083899999999994E-08, 1.8720800000000001E-06, 0.0013682397450739399, 5.529309410028664E-07, 4.1083899999999994E-08
DataValue, 2.35, 0.1, 0, 1.97742E-06, -2.0132100000000003E-06, 3.62198E-08, 1.97742E-06, 0.0014062076660294525, 5.693220947792649E-07, 3.62198E-08
DataValue, 2.4, 0.1, 0, 2.0842500000000004E-06, -2.1204100000000003E-06, 3.9942999999999996E-08, 2.0842500000000004E-06, 0.00144369318070011, 5.2740933132914778E-07, 3.9942999999999996E-08
