
SetupTitle, Transfer lin
PrimitiveTest, I/V Sweep
TestParameter, Context.MainFrame, 4155C
TestParameter, Channel.UnitType, SMU, SMU, SMU
TestParameter, Channel.Unit, SMU1:MP, SMU4:MP, SMU3:MP
TestParameter, Channel.IName, ID, IS, IG
TestParameter, Channel.VName, VD, VS, VG
TestParameter, Channel.Mode, V, COMMON, V
TestParameter, Channel.Func, CONST, CONST, VAR1
TestParameter, Channel.Index, 
TestParameter, Channel.Time, 
TestParameter, Measurement.Port.Unit, SMU1:MP, SMU4:MP, SMU3:MP
TestParameter, Measurement.Port.SeriesResistor, NONE, NONE, NONE
TestParameter, Measurement.Port.Filter, ON, ON, ON
TestParameter, Measurement.Primary.Locus, Double
TestParameter, Measurement.Primary.Scale, LINEAR
TestParameter, Measurement.Primary.Start, -2
TestParameter, Measurement.Primary.Stop, 3
TestParameter, Measurement.Primary.Step, 0.05
TestParameter, Measurement.Primary.Compliance, 0.001
TestParameter, Measurement.Primary.PowerCompliance, 0
TestParameter, Measurement.Aborting.Condition, CONTINUE AT ANY
TestParameter, Measurement.PostOutput.Value, START
TestParameter, Measurement.PostOutput.Retention, OFF
TestParameter, Measurement.Bias.Source, 0.1, 0, -2
TestParameter, Measurement.Bias.Compliance, 0.001, 0.1, 0.001
TestParameter, Measurement.Monitor.Unit, SMU1:MP, SMU4:MP, SMU3:MP
TestParameter, Measurement.Monitor.Adc, HR ADC, HR ADC, HR ADC
TestParameter, Measurement.Monitor.RangingMode, AUTO, AUTO, AUTO
TestParameter, Measurement.Monitor.RangeBoundary, , , 
TestParameter, Measurement.Monitor.RangeRating, BY FULL RANGE, BY FULL RANGE, BY FULL RANGE
TestParameter, Measurement.Monitor.RangeRatingCoeff, 50, 50, 50
TestParameter, Measurement.Timing.Hold, 0.5
TestParameter, Measurement.Timing.Delay, 0.05
TestParameter, Measurement.Adc.HighResolution.AutoZero, OFF
TestParameter, Measurement.Adc.HighResolution.Mode, AUTO
TestParameter, Measurement.Adc.HighResolution.Coeff, 1
TestParameter, Measurement.Ag16440ASelector.SemiconductorRelay.Channel1, DEFAULT
TestParameter, Measurement.Ag16440ASelector.SemiconductorRelay.Channel3, DEFAULT
TestParameter, Function.User.Name, absID, sqrtID, gm2, absIG
TestParameter, Function.User.Unit, A, A, A/V, A
TestParameter, Function.User.Definition, abs(ID), sqrt(abs(ID)), (delta(sqrtID)/delta(VG))^2, abs(IG)
TestParameter, Output.Graph.Enabled, true
TestParameter, Output.Graph.XAxis.Data, VG
TestParameter, Output.Graph.XAxis.Scale, Linear
TestParameter, Output.Graph.XAxis.Left, -5
TestParameter, Output.Graph.XAxis.Right, 7
TestParameter, Output.Graph.YAxis.Data, ID, absIG, gm2
TestParameter, Output.Graph.YAxis.Scale, Log, Log, Linear
TestParameter, Output.Graph.YAxis.Bottom, 1E-14, 1E-14, 0
TestParameter, Output.Graph.YAxis.Top, 0.01, 0.01, 1E-05
TestParameter, Output.Graph.YAxis.Group, , , 
TestParameter, Output.List.Data, VG, IG, VD, ID, VS, IS, sqrtID, gm2, absIG
TestParameter, AutoAnalysis.Interpolation, false
TestParameter, AutoAnalysis.Line1.Enabled, false
TestParameter, AutoAnalysis.Line1.Type, 1
TestParameter, AutoAnalysis.Line1.Fix, True
TestParameter, AutoAnalysis.Line1.YAxis, 0
TestParameter, AutoAnalysis.Line1.Point1.Type, 0
TestParameter, AutoAnalysis.Line1.Point1.XY.X, 
TestParameter, AutoAnalysis.Line1.Point1.XY.Y, 
TestParameter, AutoAnalysis.Line1.Point1.Data.Var, 
TestParameter, AutoAnalysis.Line1.Point1.Data.Condition, 
TestParameter, AutoAnalysis.Line1.Point1.Data.Start, false
TestParameter, AutoAnalysis.Line1.Point1.Data.StartVar, 
TestParameter, AutoAnalysis.Line1.Point1.Data.StartCondition, 
TestParameter, AutoAnalysis.Line1.Point2.Type, 0
TestParameter, AutoAnalysis.Line1.Point2.XY.X, 
TestParameter, AutoAnalysis.Line1.Point2.XY.Y, 
TestParameter, AutoAnalysis.Line1.Point2.Data.Var, 
TestParameter, AutoAnalysis.Line1.Point2.Data.Condition, 
TestParameter, AutoAnalysis.Line1.Point2.Data.Start, false
TestParameter, AutoAnalysis.Line1.Point2.Data.StartVar, 
TestParameter, AutoAnalysis.Line1.Point2.Data.StartCondition, 
TestParameter, AutoAnalysis.Line1.GradientExpr, 0
TestParameter, AutoAnalysis.Line2.Enabled, false
TestParameter, AutoAnalysis.Line2.Type, 1
TestParameter, AutoAnalysis.Line2.Fix, True
TestParameter, AutoAnalysis.Line2.YAxis, 0
TestParameter, AutoAnalysis.Line2.Point1.Type, 0
TestParameter, AutoAnalysis.Line2.Point1.XY.X, 
TestParameter, AutoAnalysis.Line2.Point1.XY.Y, 
TestParameter, AutoAnalysis.Line2.Point1.Data.Var, 
TestParameter, AutoAnalysis.Line2.Point1.Data.Condition, 
TestParameter, AutoAnalysis.Line2.Point1.Data.Start, false
TestParameter, AutoAnalysis.Line2.Point1.Data.StartVar, 
TestParameter, AutoAnalysis.Line2.Point1.Data.StartCondition, 
TestParameter, AutoAnalysis.Line2.Point2.Type, 0
TestParameter, AutoAnalysis.Line2.Point2.XY.X, 
TestParameter, AutoAnalysis.Line2.Point2.XY.Y, 
TestParameter, AutoAnalysis.Line2.Point2.Data.Var, 
TestParameter, AutoAnalysis.Line2.Point2.Data.Condition, 
TestParameter, AutoAnalysis.Line2.Point2.Data.Start, false
TestParameter, AutoAnalysis.Line2.Point2.Data.StartVar, 
TestParameter, AutoAnalysis.Line2.Point2.Data.StartCondition, 
TestParameter, AutoAnalysis.Line2.GradientExpr, 0
TestParameter, AutoAnalysis.Marker.Enabled, false
TestParameter, AutoAnalysis.Marker.Data.Var, 
TestParameter, AutoAnalysis.Marker.Data.Condition, 
TestParameter, AutoAnalysis.Marker.Data.Start, false
TestParameter, AutoAnalysis.Marker.Data.StartVar, 
TestParameter, AutoAnalysis.Marker.Data.StartCondition, 
MetaData, TestRecord.EntryPoint, true
MetaData, TestRecord.RecordTime, 04/24/2019 15:07:53
MetaData, TestRecord.TestTarget, 35
MetaData, TestRecord.IterationIndex, 1
MetaData, TestRecord.Preservation, true
MetaData, TestRecord.Flag, 
MetaData, TestRecord.Remarks, 350-300-G35
MetaData, TestRecord.LinkKey, 5794c5a6-ae03-4cd1-9790-8f9340bb8fd4
Dimension1, 202, 202, 202, 202, 202, 202, 202, 202, 202, 202
Dimension2, 1, 1, 1, 1, 1, 1, 1, 1, 1, 1
DataName, VG, VD, VS, ID, IS, IG, absID, sqrtID, gm2, absIG
DataValue, -2, 0.1, 0, 1.387E-12, -1.6740000000000001E-12, 1.943E-12, 1.387E-12, 1.177709641634983E-06, 2.4155153612150076E-12, 1.943E-12
DataValue, -1.9500000000000002, 0.1, 0, 1.21E-12, 6.5100000000000005E-13, -5.261E-12, 1.21E-12, 1.1E-06, 9.866821440465546E-11, 5.261E-12
DataValue, -1.9000000000000001, 0.1, 0, 3.4E-14, 4.107E-12, -7.76E-13, 3.4E-14, 1.8439088914585774E-07, 7.4981325423266287E-13, 7.76E-13
DataValue, -1.85, 0.1, 0, 1.408E-12, 6.2000000000000008E-13, -5.36E-13, 1.408E-12, 1.1865917579353061E-06, 7.7776724449761193E-11, 5.36E-13
DataValue, -1.8, 0.1, 0, 1.1370000000000001E-12, -1.4E-14, 1.6390000000000002E-12, 1.1370000000000001E-12, 1.0663020210053061E-06, 1.2413333782297326E-11, 1.6390000000000002E-12
DataValue, -1.75, 0.1, 0, 6.9600000000000006E-13, -1.9200000000000002E-13, -7.1500000000000008E-13, 6.9600000000000006E-13, 8.3426614458456847E-07, 4.7940510110417161E-12, 7.1500000000000008E-13
DataValue, -1.7000000000000002, 0.1, 0, 7.1800000000000007E-13, -1.197E-12, -8.5800000000000008E-13, 7.1800000000000007E-13, 8.4734880657259442E-07, 5.929416152687844E-12, 8.5800000000000008E-13
DataValue, -1.6500000000000001, 0.1, 0, 3.4900000000000003E-13, -2.04E-12, -3.28E-13, 3.4900000000000003E-13, 5.9076221950967717E-07, 4.3188208220633833E-12, 3.28E-13
DataValue, -1.6, 0.1, 0, -4.09E-13, 3.5370000000000004E-12, -1.187E-12, 4.09E-13, 6.3953107821277928E-07, 3.0292265830909494E-13, 1.187E-12
DataValue, -1.55, 0.1, 0, 2.8700000000000004E-13, -1.9650000000000002E-12, -2.8700000000000004E-13, 2.8700000000000004E-13, 5.35723809439155E-07, 2.0470938171336476E-11, 2.8700000000000004E-13
DataValue, -1.5, 0.1, 0, -3.5E-14, 2.0300000000000002E-13, -3.88E-13, 3.5E-14, 1.8708286933869707E-07, 1.3043169729363919E-13, 3.88E-13
DataValue, -1.4500000000000002, 0.1, 0, 3.27E-13, -1.7990000000000001E-12, 1.6200000000000002E-13, 3.27E-13, 5.718391382198319E-07, 7.45036897406387E-11, 1.6200000000000002E-13
DataValue, -1.4000000000000001, 0.1, 0, -1.103E-12, 4.1400000000000005E-13, -1.8820000000000003E-12, 1.103E-12, 1.0502380682492898E-06, 2.0751596834491419E-12, 1.8820000000000003E-12
DataValue, -1.35, 0.1, 0, -1.83E-13, -3.4250000000000005E-12, 1.2700000000000001E-13, 1.83E-13, 4.2778499272414873E-07, 5.9239839977349305E-12, 1.2700000000000001E-13
DataValue, -1.3, 0.1, 0, 6.5100000000000005E-13, -3.686E-12, -2.92E-13, 6.5100000000000005E-13, 8.0684571015777244E-07, 7.0342812882577914E-11, 2.92E-13
DataValue, -1.25, 0.1, 0, -1.604E-12, -3.5110000000000003E-12, -4.0700000000000003E-13, 1.604E-12, 1.2664912159190052E-06, 1.0589080786067941E-11, 4.0700000000000003E-13
DataValue, -1.2, 0.1, 0, 1.2820000000000002E-12, -1.406E-12, -3.1890000000000002E-12, 1.2820000000000002E-12, 1.132254388377453E-06, 1.3281955679010487E-10, 3.1890000000000002E-12
DataValue, -1.1500000000000001, 0.1, 0, 1.3000000000000001E-14, 5.11E-13, -1.34E-13, 1.3000000000000001E-14, 1.1401754250991381E-07, 3.0536600683968352E-11, 1.34E-13
DataValue, -1.1, 0.1, 0, 3.3600000000000003E-13, 3.5500000000000005E-13, 8E-15, 3.3600000000000003E-13, 5.7965506984757759E-07, 7.3977275661338331E-12, 8E-15
DataValue, -1.05, 0.1, 0, 1.4900000000000002E-13, 1.299E-12, -3.4600000000000004E-13, 1.4900000000000002E-13, 3.8600518131237568E-07, 9.2400250312989E-12, 3.4600000000000004E-13
DataValue, -1, 0.1, 0, -7.6E-14, -2.2250000000000003E-12, 8.300000000000001E-13, 7.6E-14, 2.7568097504180444E-07, 2.6448350257020027E-12, 8.300000000000001E-13
DataValue, -0.95000000000000007, 0.1, 0, 3.0100000000000003E-13, -1.552E-12, -1.03E-13, 3.0100000000000003E-13, 5.4863466897380816E-07, 1.381022555408903E-11, 1.03E-13
DataValue, -0.9, 0.1, 0, 4.1900000000000003E-13, -5.0400000000000007E-13, -1.1300000000000001E-13, 4.1900000000000003E-13, 6.4730209330729032E-07, 1.3676783882642817E-12, 1.1300000000000001E-13
DataValue, -0.85000000000000009, 0.1, 0, -4.4300000000000003E-13, -1.0870000000000001E-12, -9.010000000000001E-13, 4.4300000000000003E-13, 6.6558245169174947E-07, 3.0281467556268552E-12, 9.010000000000001E-13
DataValue, -0.8, 0.1, 0, -2.24E-13, 2.2E-14, -1.6620000000000002E-12, 2.24E-13, 4.7328638264796928E-07, 5.4898963596127881E-12, 1.6620000000000002E-12
DataValue, -0.75, 0.1, 0, 1.8600000000000002E-13, -1.1880000000000002E-12, 1.2000000000000001E-14, 1.8600000000000002E-13, 4.312771730569565E-07, 2.9213151994895875E-12, 1.2000000000000001E-14
DataValue, -0.70000000000000007, 0.1, 0, -4.1500000000000005E-13, 6.4400000000000008E-13, 3.1100000000000004E-13, 4.1500000000000005E-13, 6.4420493633625633E-07, 4.0472732120565769E-12, 3.1100000000000004E-13
DataValue, -0.65, 0.1, 0, 4E-13, -3.62E-13, 1.36E-13, 4E-13, 6.3245553203367584E-07, 4.255329994280036E-11, 1.36E-13
DataValue, -0.6, 0.1, 0, 1.6810000000000002E-12, -3.6700000000000005E-13, 2.54E-12, 1.6810000000000002E-12, 1.2965338406690357E-06, 4.2900584800321539E-10, 2.54E-12
DataValue, -0.55, 0.1, 0, 7.31E-12, -6.926E-12, 6.2100000000000008E-13, 7.31E-12, 2.7037011669191551E-06, 1.3048233209772444E-09, 6.2100000000000008E-13
DataValue, -0.5, 0.1, 0, 2.4096E-11, -2.4253000000000003E-11, 1.58E-13, 2.4096E-11, 4.9087676661255825E-06, 3.96727633584913E-09, 1.58E-13
DataValue, -0.45, 0.1, 0, 8.1042E-11, -7.9230000000000007E-11, 1.0730000000000002E-12, 8.1042E-11, 9.00233303094259E-06, 1.222560459347794E-08, 1.0730000000000002E-12
DataValue, -0.4, 0.1, 0, 2.54904E-10, -2.45727E-10, 4.75E-13, 2.54904E-10, 1.5965713263114804E-05, 3.3426447157343985E-08, 4.75E-13
DataValue, -0.35000000000000003, 0.1, 0, 7.44484E-10, -7.0601700000000009E-10, 1.149E-12, 7.44484E-10, 2.7285234101982706E-05, 7.58048330964224E-08, 1.149E-12
DataValue, -0.3, 0.1, 0, 1.89211E-09, -1.7886E-09, 2.2100000000000002E-13, 1.89211E-09, 4.3498390774832119E-05, 1.8440738150413484E-07, 2.2100000000000002E-13
DataValue, -0.25, 0.1, 0, 4.9319599999999996E-09, -4.8281E-09, 2.0900000000000002E-13, 4.9319599999999996E-09, 7.0227914677854417E-05, 3.5386507709033131E-07, 2.0900000000000002E-13
DataValue, -0.2, 0.1, 0, 1.0605899999999999E-08, -1.0162799999999999E-08, 6.77E-13, 1.0605899999999999E-08, 0.00010298495035683612, 5.8206330762529305E-07, 6.77E-13
DataValue, -0.15, 0.1, 0, 2.14684E-08, -2.1044199999999997E-08, -2.54E-12, 2.14684E-08, 0.00014652098825765542, 8.2584623422709779E-07, 2.54E-12
DataValue, -0.1, 0.1, 0, 3.75821E-08, -3.6955499999999996E-08, -1.3420000000000001E-12, 3.75821E-08, 0.00019386103270126258, 8.9171899936275813E-07, 1.3420000000000001E-12
DataValue, -0.05, 0.1, 0, 5.8057799999999992E-08, -5.7221699999999992E-08, 7.08E-13, 5.8057799999999992E-08, 0.00024095186241239138, 8.2962401837881712E-07, 7.08E-13
DataValue, 0, 0.1, 0, 8.1193499999999992E-08, -8.02464E-08, 6.4900000000000006E-13, 8.1193499999999992E-08, 0.00028494473148314215, 7.3476282641255828E-07, 6.4900000000000006E-13
DataValue, 0.05, 0.1, 0, 1.0671339999999999E-07, -1.0564909999999999E-07, -1.9200000000000002E-13, 1.0671339999999999E-07, 0.00032667017004924095, 5.6972331089065185E-07, 1.9200000000000002E-13
DataValue, 0.1, 0.1, 0, 1.29906E-07, -1.27966E-07, 2.6600000000000003E-13, 1.29906E-07, 0.00036042474942767181, 5.352904373678155E-07, 2.6600000000000003E-13
DataValue, 0.15, 0.1, 0, 1.5986699999999999E-07, -1.58539E-07, 7.6500000000000007E-13, 1.5986699999999999E-07, 0.00039983371543680506, 5.7874001785472534E-07, 7.6500000000000007E-13
DataValue, 0.2, 0.1, 0, 1.90532E-07, -1.89165E-07, -1.868E-12, 1.90532E-07, 0.000436499713631063, 5.1865860111885118E-07, 1.868E-12
DataValue, 0.25, 0.1, 0, 2.22644E-07, -2.20823E-07, 2.34E-13, 2.22644E-07, 0.00047185167160878006, 4.8733635591801233E-07, 2.34E-13
DataValue, 0.3, 0.1, 0, 2.56349E-07, -2.5469E-07, 1.199E-12, 2.56349E-07, 0.00050630919407018476, 4.7495839603910065E-07, 1.199E-12
DataValue, 0.35000000000000003, 0.1, 0, 2.92431E-07, -2.90633E-07, -9.8700000000000014E-13, 2.92431E-07, 0.00054076889703458351, 4.7331307498549867E-07, 9.8700000000000014E-13
DataValue, 0.4, 0.1, 0, 3.30748E-07, -3.28585E-07, -4.9130000000000006E-12, 3.30748E-07, 0.000575106946576026, 4.7620062684231877E-07, 4.9130000000000006E-12
DataValue, 0.45, 0.1, 0, 3.71827E-07, -3.69492E-07, -5.700000000000001E-14, 3.71827E-07, 0.00060977618844949984, 4.8429674792095417E-07, 5.700000000000001E-14
DataValue, 0.5, 0.1, 0, 4.15636E-07, -4.1308699999999997E-07, 3.5E-13, 4.15636E-07, 0.00064469837908901243, 4.9096152627939173E-07, 3.5E-13
DataValue, 0.55, 0.1, 0, 4.62189E-07, -4.59728E-07, -1.29E-13, 4.62189E-07, 0.00067984483523815932, 5.0181895748353242E-07, 1.29E-13
DataValue, 0.6, 0.1, 0, 5.11994E-07, -5.09163E-07, 6.6700000000000009E-13, 5.11994E-07, 0.0007155375601601917, 5.2091507174103016E-07, 6.6700000000000009E-13
DataValue, 0.65, 0.1, 0, 5.65533E-07, -5.63285E-07, -3.2E-14, 5.65533E-07, 0.00075201928166769767, 5.3868646811214892E-07, 3.2E-14
DataValue, 0.70000000000000007, 0.1, 0, 6.22415E-07, -6.1968E-07, 5.36E-13, 6.22415E-07, 0.00078893282350273649, 5.44389459904251E-07, 5.36E-13
DataValue, 0.75, 0.1, 0, 6.81949E-07, -6.79463E-07, -1.193E-12, 6.81949E-07, 0.0008258020343883878, 5.4573152466258551E-07, 1.193E-12
DataValue, 0.8, 0.1, 0, 7.44435E-07, -7.41701E-07, 6.9200000000000008E-13, 7.44435E-07, 0.0008628064672914779, 5.5902217075770964E-07, 6.9200000000000008E-13
DataValue, 0.85000000000000009, 0.1, 0, 8.11026E-07, -8.0858E-07, -6.53E-13, 8.11026E-07, 0.00090056981961422625, 5.7768433222752312E-07, 6.53E-13
DataValue, 0.9, 0.1, 0, 8.81368E-07, -8.78714E-07, 6.0200000000000006E-13, 8.81368E-07, 0.0009388120152618414, 5.8513549279861741E-07, 6.0200000000000006E-13
DataValue, 0.95000000000000007, 0.1, 0, 9.54654E-07, -9.5205699999999993E-07, -4.943E-12, 9.54654E-07, 0.00097706396924664043, 5.89288987200298E-07, 4.943E-12
DataValue, 1, 0.1, 0, 1.031397E-06, -1.0289569999999999E-06, 3.9100000000000005E-13, 1.031397E-06, 0.0010155771757970932, 5.9847231639303273E-07, 3.9100000000000005E-13
DataValue, 1.05, 0.1, 0, 1.111812E-06, -1.109264E-06, 3.3000000000000005E-14, 1.111812E-06, 0.0010544249617682616, 5.5640463913480347E-07, 3.3000000000000005E-14
DataValue, 1.1, 0.1, 0, 1.1884700000000002E-06, -1.18549E-06, 3.64E-13, 1.1884700000000002E-06, 0.0010901697115587097, 5.7981661971936113E-07, 3.64E-13
DataValue, 1.1500000000000001, 0.1, 0, 1.27819E-06, -1.2762600000000001E-06, 2.7170000000000002E-12, 1.27819E-06, 0.0011305706523698552, 6.330637150039205E-07, 2.7170000000000002E-12
DataValue, 1.2, 0.1, 0, 1.3682800000000002E-06, -1.3664300000000002E-06, 3.4700000000000004E-13, 1.3682800000000002E-06, 0.0011697350127272417, 6.15044900523495E-07, 3.4700000000000004E-13
DataValue, 1.25, 0.1, 0, 1.4616700000000001E-06, -1.4593800000000003E-06, 1.6600000000000003E-13, 1.4616700000000001E-06, 0.0012089954507772144, 6.149637605244346E-07, 1.6600000000000003E-13
DataValue, 1.3, 0.1, 0, 1.55789E-06, -1.5558700000000002E-06, -6.9200000000000008E-13, 1.55789E-06, 0.0012481546378554221, 6.0702321056219344E-07, 6.9200000000000008E-13
DataValue, 1.35, 0.1, 0, 1.65613E-06, -1.65395E-06, 1.149E-12, 1.65613E-06, 0.0012869071450574824, 6.0021455473264247E-07, 1.149E-12
DataValue, 1.4000000000000001, 0.1, 0, 1.7572900000000003E-06, -1.7554500000000003E-06, 4.86E-13, 1.7572900000000003E-06, 0.0013256281529901211, 5.9418388569929023E-07, 4.86E-13
DataValue, 1.4500000000000002, 0.1, 0, 1.8604700000000003E-06, -1.8590000000000001E-06, 3.06E-13, 1.8604700000000003E-06, 0.0013639904691749134, 5.8575239349844963E-07, 3.06E-13
DataValue, 1.5, 0.1, 0, 1.9660600000000003E-06, -1.9643900000000003E-06, 3.4900000000000003E-13, 1.9660600000000003E-06, 0.0014021626153909539, 5.8112775588119222E-07, 3.4900000000000003E-13
DataValue, 1.55, 0.1, 0, 2.0742400000000002E-06, -2.07305E-06, 6.53E-13, 2.0742400000000002E-06, 0.0014402222050780916, 5.7131937663274952E-07, 6.53E-13
DataValue, 1.6, 0.1, 0, 2.18374E-06, -2.1827000000000003E-06, 3.5500000000000005E-13, 2.18374E-06, 0.00147774828709087, 5.5973961849939363E-07, 3.5500000000000005E-13
DataValue, 1.6500000000000001, 0.1, 0, 2.29534E-06, -2.2939800000000003E-06, 8.5600000000000009E-13, 2.29534E-06, 0.0015150379533199821, 5.5500222771522246E-07, 8.5600000000000009E-13
DataValue, 1.7000000000000002, 0.1, 0, 2.4094700000000004E-06, -2.40828E-06, -9.7E-14, 2.4094700000000004E-06, 0.0015522467587339329, 5.4461593625177148E-07, 9.7E-14
DataValue, 1.75, 0.1, 0, 2.5244000000000003E-06, -2.5237400000000003E-06, 6.170000000000001E-13, 2.5244000000000003E-06, 0.0015888360519575331, 5.3268879332244215E-07, 6.170000000000001E-13
DataValue, 1.8, 0.1, 0, 2.64138E-06, -2.6405600000000003E-06, 6.400000000000001E-13, 2.64138E-06, 0.0016252322910894923, 5.2515607267209043E-07, 6.400000000000001E-13
DataValue, 1.85, 0.1, 0, 2.7599300000000004E-06, -2.7591300000000004E-06, -1E-12, 2.7599300000000004E-06, 0.001661303704925743, 5.1485319862939385E-07, 1E-12
DataValue, 1.9000000000000001, 0.1, 0, 2.87976E-06, -2.8792300000000003E-06, 4E-15, 2.87976E-06, 0.0016969855626963949, 5.0604400804862909E-07, 4E-15
DataValue, 1.9500000000000002, 0.1, 0, 3.0013500000000005E-06, -3.0008800000000002E-06, 1.76E-13, 3.0013500000000005E-06, 0.0017324404751679061, 4.9744304472177315E-07, 1.76E-13
DataValue, 2, 0.1, 0, 3.12411E-06, -3.12365E-06, 1.63E-13, 3.12411E-06, 0.0017675152050265367, 4.8673652444612449E-07, 1.63E-13
DataValue, 2.05, 0.1, 0, 3.2479500000000004E-06, -3.2476700000000003E-06, -1.4280000000000002E-12, 3.2479500000000004E-06, 0.0018022069803438228, 4.7757351562176374E-07, 1.4280000000000002E-12
DataValue, 2.1, 0.1, 0, 3.3731800000000005E-06, -3.3728700000000004E-06, 6.9100000000000008E-13, 3.3731800000000005E-06, 0.0018366218990309357, 4.747529191986136E-07, 6.9100000000000008E-13
DataValue, 2.15, 0.1, 0, 3.5010500000000006E-06, -3.5007200000000003E-06, 2.198E-12, 3.5010500000000006E-06, 0.0018711092966473125, 4.6431350108357505E-07, 2.198E-12
DataValue, 2.2, 0.1, 0, 3.62812E-06, -3.6277500000000005E-06, 3.9000000000000005E-13, 3.62812E-06, 0.0019047624523808738, 4.4876986859743654E-07, 3.9000000000000005E-13
DataValue, 2.25, 0.1, 0, 3.7562300000000005E-06, -3.7561300000000003E-06, 4E-15, 3.7562300000000005E-06, 0.0019380995846447109, 4.3887234455931009E-07, 4E-15
