
SetupTitle, Transfer lin
PrimitiveTest, I/V Sweep
TestParameter, Context.MainFrame, 4155C
TestParameter, Channel.UnitType, SMU, SMU, SMU
TestParameter, Channel.Unit, SMU1:MP, SMU4:MP, SMU3:MP
TestParameter, Channel.IName, ID, IS, IG
TestParameter, Channel.VName, VD, VS, VG
TestParameter, Channel.Mode, V, COMMON, V
TestParameter, Channel.Func, CONST, CONST, VAR1
TestParameter, Channel.Index, 
TestParameter, Channel.Time, 
TestParameter, Measurement.Port.Unit, SMU1:MP, SMU4:MP, SMU3:MP
TestParameter, Measurement.Port.SeriesResistor, NONE, NONE, NONE
TestParameter, Measurement.Port.Filter, ON, ON, ON
TestParameter, Measurement.Primary.Locus, Double
TestParameter, Measurement.Primary.Scale, LINEAR
TestParameter, Measurement.Primary.Start, -2
TestParameter, Measurement.Primary.Stop, 3
TestParameter, Measurement.Primary.Step, 0.05
TestParameter, Measurement.Primary.Compliance, 0.001
TestParameter, Measurement.Primary.PowerCompliance, 0
TestParameter, Measurement.Aborting.Condition, CONTINUE AT ANY
TestParameter, Measurement.PostOutput.Value, START
TestParameter, Measurement.PostOutput.Retention, OFF
TestParameter, Measurement.Bias.Source, 0.1, 0, -2
TestParameter, Measurement.Bias.Compliance, 0.001, 0.1, 0.001
TestParameter, Measurement.Monitor.Unit, SMU1:MP, SMU4:MP, SMU3:MP
TestParameter, Measurement.Monitor.Adc, HR ADC, HR ADC, HR ADC
TestParameter, Measurement.Monitor.RangingMode, AUTO, AUTO, AUTO
TestParameter, Measurement.Monitor.RangeBoundary, , , 
TestParameter, Measurement.Monitor.RangeRating, BY FULL RANGE, BY FULL RANGE, BY FULL RANGE
TestParameter, Measurement.Monitor.RangeRatingCoeff, 50, 50, 50
TestParameter, Measurement.Timing.Hold, 0.5
TestParameter, Measurement.Timing.Delay, 0.05
TestParameter, Measurement.Adc.HighResolution.AutoZero, OFF
TestParameter, Measurement.Adc.HighResolution.Mode, AUTO
TestParameter, Measurement.Adc.HighResolution.Coeff, 1
TestParameter, Measurement.Ag16440ASelector.SemiconductorRelay.Channel1, DEFAULT
TestParameter, Measurement.Ag16440ASelector.SemiconductorRelay.Channel3, DEFAULT
TestParameter, Function.User.Name, absID, sqrtID, gm2, absIG
TestParameter, Function.User.Unit, A, A, A/V, A
TestParameter, Function.User.Definition, abs(ID), sqrt(abs(ID)), (delta(sqrtID)/delta(VG))^2, abs(IG)
TestParameter, Output.Graph.Enabled, true
TestParameter, Output.Graph.XAxis.Data, VG
TestParameter, Output.Graph.XAxis.Scale, Linear
TestParameter, Output.Graph.XAxis.Left, -5
TestParameter, Output.Graph.XAxis.Right, 7
TestParameter, Output.Graph.YAxis.Data, ID, absIG, gm2
TestParameter, Output.Graph.YAxis.Scale, Log, Log, Linear
TestParameter, Output.Graph.YAxis.Bottom, 1E-14, 1E-14, 0
TestParameter, Output.Graph.YAxis.Top, 0.01, 0.01, 1E-05
TestParameter, Output.Graph.YAxis.Group, , , 
TestParameter, Output.List.Data, VG, IG, VD, ID, VS, IS, sqrtID, gm2, absIG
TestParameter, AutoAnalysis.Interpolation, false
TestParameter, AutoAnalysis.Line1.Enabled, false
TestParameter, AutoAnalysis.Line1.Type, 1
TestParameter, AutoAnalysis.Line1.Fix, True
TestParameter, AutoAnalysis.Line1.YAxis, 0
TestParameter, AutoAnalysis.Line1.Point1.Type, 0
TestParameter, AutoAnalysis.Line1.Point1.XY.X, 
TestParameter, AutoAnalysis.Line1.Point1.XY.Y, 
TestParameter, AutoAnalysis.Line1.Point1.Data.Var, 
TestParameter, AutoAnalysis.Line1.Point1.Data.Condition, 
TestParameter, AutoAnalysis.Line1.Point1.Data.Start, false
TestParameter, AutoAnalysis.Line1.Point1.Data.StartVar, 
TestParameter, AutoAnalysis.Line1.Point1.Data.StartCondition, 
TestParameter, AutoAnalysis.Line1.Point2.Type, 0
TestParameter, AutoAnalysis.Line1.Point2.XY.X, 
TestParameter, AutoAnalysis.Line1.Point2.XY.Y, 
TestParameter, AutoAnalysis.Line1.Point2.Data.Var, 
TestParameter, AutoAnalysis.Line1.Point2.Data.Condition, 
TestParameter, AutoAnalysis.Line1.Point2.Data.Start, false
TestParameter, AutoAnalysis.Line1.Point2.Data.StartVar, 
TestParameter, AutoAnalysis.Line1.Point2.Data.StartCondition, 
TestParameter, AutoAnalysis.Line1.GradientExpr, 0
TestParameter, AutoAnalysis.Line2.Enabled, false
TestParameter, AutoAnalysis.Line2.Type, 1
TestParameter, AutoAnalysis.Line2.Fix, True
TestParameter, AutoAnalysis.Line2.YAxis, 0
TestParameter, AutoAnalysis.Line2.Point1.Type, 0
TestParameter, AutoAnalysis.Line2.Point1.XY.X, 
TestParameter, AutoAnalysis.Line2.Point1.XY.Y, 
TestParameter, AutoAnalysis.Line2.Point1.Data.Var, 
TestParameter, AutoAnalysis.Line2.Point1.Data.Condition, 
TestParameter, AutoAnalysis.Line2.Point1.Data.Start, false
TestParameter, AutoAnalysis.Line2.Point1.Data.StartVar, 
TestParameter, AutoAnalysis.Line2.Point1.Data.StartCondition, 
TestParameter, AutoAnalysis.Line2.Point2.Type, 0
TestParameter, AutoAnalysis.Line2.Point2.XY.X, 
TestParameter, AutoAnalysis.Line2.Point2.XY.Y, 
TestParameter, AutoAnalysis.Line2.Point2.Data.Var, 
TestParameter, AutoAnalysis.Line2.Point2.Data.Condition, 
TestParameter, AutoAnalysis.Line2.Point2.Data.Start, false
TestParameter, AutoAnalysis.Line2.Point2.Data.StartVar, 
TestParameter, AutoAnalysis.Line2.Point2.Data.StartCondition, 
TestParameter, AutoAnalysis.Line2.GradientExpr, 0
TestParameter, AutoAnalysis.Marker.Enabled, false
TestParameter, AutoAnalysis.Marker.Data.Var, 
TestParameter, AutoAnalysis.Marker.Data.Condition, 
TestParameter, AutoAnalysis.Marker.Data.Start, false
TestParameter, AutoAnalysis.Marker.Data.StartVar, 
TestParameter, AutoAnalysis.Marker.Data.StartCondition, 
MetaData, TestRecord.EntryPoint, true
MetaData, TestRecord.RecordTime, 04/24/2019 15:00:16
MetaData, TestRecord.TestTarget, 25
MetaData, TestRecord.IterationIndex, 1
MetaData, TestRecord.Preservation, true
MetaData, TestRecord.Flag, 
MetaData, TestRecord.Remarks, 350-300-G25
MetaData, TestRecord.LinkKey, 09818006-ad76-4964-b8b3-960c5099f8c8
Dimension1, 202, 202, 202, 202, 202, 202, 202, 202, 202, 202
Dimension2, 1, 1, 1, 1, 1, 1, 1, 1, 1, 1
DataName, VG, VD, VS, ID, IS, IG, absID, sqrtID, gm2, absIG
DataValue, -2, 0.1, 0, -2.9520000000000003E-12, 6.1830000000000006E-12, -1.4760000000000002E-12, 2.9520000000000003E-12, 1.7181385275931626E-06, 2.2048309234429692E-10, 1.4760000000000002E-12
DataValue, -1.9500000000000002, 0.1, 0, -9.52E-13, -2.616E-12, -1.274E-12, 9.52E-13, 9.7570487341203751E-07, 1.3187629030327454E-11, 1.274E-12
DataValue, -1.9000000000000001, 0.1, 0, 1.8360000000000003E-12, -1.4374000000000002E-11, -1.107E-12, 1.8360000000000003E-12, 1.3549907748763459E-06, 3.3408443389331771E-11, 1.107E-12
DataValue, -1.85, 0.1, 0, 2.414E-12, 1.2400000000000002E-12, -3.7200000000000003E-13, 2.414E-12, 1.5537052487521564E-06, 5.7150002604256915E-12, 3.7200000000000003E-13
DataValue, -1.8, 0.1, 0, -2.541E-12, -3.2560000000000003E-12, -1.0500000000000002E-12, 2.541E-12, 1.5940514420808382E-06, 3.329013195614209E-11, 1.0500000000000002E-12
DataValue, -1.75, 0.1, 0, 9.54E-13, -3.4950000000000004E-12, -7.6800000000000006E-13, 9.54E-13, 9.7672923576598245E-07, 1.4881211293681198E-10, 7.6800000000000006E-13
DataValue, -1.7000000000000002, 0.1, 0, 1.4E-13, 2.8E-12, 1.045E-12, 1.4E-13, 3.7416573867739413E-07, 4.9663916549740934E-12, 1.045E-12
DataValue, -1.6500000000000001, 0.1, 0, 1.439E-12, -9.26E-13, -2.123E-12, 1.439E-12, 1.1995832609702421E-06, 6.8820035523985587E-11, 2.123E-12
DataValue, -1.6, 0.1, 0, 1.4490000000000002E-12, -3.4030000000000003E-12, 3.1100000000000004E-13, 1.4490000000000002E-12, 1.2037441588643329E-06, 6.5630829935160451E-12, 3.1100000000000004E-13
DataValue, -1.55, 0.1, 0, -8.9E-13, -1.2009E-11, 2.097E-12, 8.9E-13, 9.4339811320566042E-07, 9.7865128062519447E-11, 2.097E-12
DataValue, -1.5, 0.1, 0, 4.6000000000000006E-14, -4.91E-13, 1.2290000000000001E-12, 4.6000000000000006E-14, 2.1447610589527219E-07, 6.8075125980198863E-11, 1.2290000000000001E-12
DataValue, -1.4500000000000002, 0.1, 0, -1.4E-14, -2.117E-12, -4.822E-12, 1.4E-14, 1.1832159566199232E-07, 5.274656148480048E-11, 4.822E-12
DataValue, -1.4000000000000001, 0.1, 0, 8.8500000000000007E-13, -3.1430000000000002E-12, -2.0000000000000003E-14, 8.8500000000000007E-13, 9.40744386111339E-07, 3.93546039999097E-11, 2.0000000000000003E-14
DataValue, -1.35, 0.1, 0, 5.5600000000000005E-13, 9.696E-12, -3.65E-13, 5.5600000000000005E-13, 7.4565407529229E-07, 3.2101136372807789E-11, 3.65E-13
DataValue, -1.3, 0.1, 0, -1.4E-13, -4.6000000000000006E-13, 1.082E-12, 1.4E-13, 3.7416573867739413E-07, 4.5004509565280947E-17, 1.082E-12
DataValue, -1.25, 0.1, 0, 5.5500000000000006E-13, -9.94E-13, 3.2000000000000005E-13, 5.5500000000000006E-13, 7.44983221287567E-07, 2.1944468918262179E-11, 3.2000000000000005E-13
DataValue, -1.2, 0.1, 0, 7.100000000000001E-13, -1.88E-12, -1.94E-13, 7.100000000000001E-13, 8.4261497731763587E-07, 3.2869571381023494E-12, 1.94E-13
DataValue, -1.1500000000000001, 0.1, 0, 8.5800000000000008E-13, -3.9400000000000004E-13, -4E-15, 8.5800000000000008E-13, 9.2628289415275289E-07, 7.1111159416089722E-13, 4E-15
DataValue, -1.1, 0.1, 0, 5.7500000000000007E-13, 1.569E-12, -1.262E-12, 5.7500000000000007E-13, 7.5828754440515506E-07, 3.880889750147264E-11, 1.262E-12
DataValue, -1.05, 0.1, 0, 9.2000000000000012E-14, 3.946E-12, 1.1920000000000002E-12, 9.2000000000000012E-14, 3.0331501776206206E-07, 4.8840075951414522E-12, 1.1920000000000002E-12
DataValue, -1, 0.1, 0, 9.59E-13, 2.3723000000000003E-11, -6.2700000000000005E-13, 9.59E-13, 9.7928545378760739E-07, 3.4018218698150222E-11, 6.2700000000000005E-13
DataValue, -0.95000000000000007, 0.1, 0, 7.8600000000000008E-13, -2.7067000000000003E-11, -2.44E-13, 7.8600000000000008E-13, 8.865664103720601E-07, 1.7897752369456186E-10, 2.44E-13
DataValue, -0.9, 0.1, 0, 5.369E-12, 1.827E-12, 1.1650000000000002E-12, 5.369E-12, 2.3171102692793884E-06, 1.6965684573302591E-11, 1.1650000000000002E-12
DataValue, -0.85000000000000009, 0.1, 0, -1.686E-12, 7.110000000000001E-13, -9.32E-13, 1.686E-12, 1.2984606270503546E-06, 2.6081303037767491E-10, 9.32E-13
DataValue, -0.8, 0.1, 0, -4.93E-13, -4.5000000000000004E-14, -3.3700000000000003E-13, 4.93E-13, 7.0213958726167839E-07, 1.2534486034893424E-10, 3.3700000000000003E-13
DataValue, -0.75, 0.1, 0, 3.2E-14, -1.3125000000000002E-11, -5.0900000000000005E-13, 3.2E-14, 1.7888543819998319E-07, 1.6184820108789205E-10, 5.0900000000000005E-13
DataValue, -0.70000000000000007, 0.1, 0, 3.8980000000000006E-12, -3.0180000000000003E-12, -1.544E-12, 3.8980000000000006E-12, 1.9743353311937667E-06, 5.5845298245681752E-10, 1.544E-12
DataValue, -0.65, 0.1, 0, 6.4620000000000005E-12, -8.1200000000000007E-13, -2.35E-13, 6.4620000000000005E-12, 2.5420464197177832E-06, 1.850908566538578E-10, 2.35E-13
DataValue, -0.6, 0.1, 0, 1.1121000000000002E-11, -8.024E-12, 3.66E-13, 1.1121000000000002E-11, 3.334816336771787E-06, 6.298523599792808E-10, 3.66E-13
DataValue, -0.55, 0.1, 0, 2.5520000000000003E-11, -2.7364000000000002E-11, -3.3030000000000004E-12, 2.5520000000000003E-11, 5.0517323761260359E-06, 2.000200262142084E-09, 3.3030000000000004E-12
DataValue, -0.5, 0.1, 0, 6.0952000000000011E-11, -5.9227E-11, 3.1140000000000003E-12, 6.0952000000000011E-11, 7.8071761860483217E-06, 3.8854053342467157E-09, 3.1140000000000003E-12
DataValue, -0.45, 0.1, 0, 1.2735200000000002E-10, -1.24723E-10, 2.45E-13, 1.2735200000000002E-10, 1.1285034337564065E-05, 5.948496761467956E-09, 2.45E-13
DataValue, -0.4, 0.1, 0, 2.4086500000000003E-10, -2.3125300000000003E-10, -1.1670000000000002E-12, 2.4086500000000003E-10, 1.5519826029952784E-05, 8.0788612422552919E-09, 1.1670000000000002E-12
DataValue, -0.35000000000000003, 0.1, 0, 4.1100600000000003E-10, -3.92045E-10, 1.0040000000000002E-12, 4.1100600000000003E-10, 2.0273282911260327E-05, 1.0685498727929243E-08, 1.0040000000000002E-12
DataValue, -0.3, 0.1, 0, 6.6857900000000008E-10, -6.3868700000000007E-10, 3.0000000000000003E-13, 6.6857900000000008E-10, 2.5856894631799853E-05, 1.4549575300610744E-08, 3.0000000000000003E-13
DataValue, -0.25, 0.1, 0, 1.0455810000000001E-09, -9.99836E-10, 4.8100000000000007E-13, 1.0455810000000001E-09, 3.23354449482298E-05, 1.6294497878519038E-08, 4.8100000000000007E-13
DataValue, -0.2, 0.1, 0, 1.49165E-09, -1.41411E-09, 1.9600000000000002E-13, 1.49165E-09, 3.8621884987659519E-05, 2.7105120865813066E-08, 1.9600000000000002E-13
DataValue, -0.15, 0.1, 0, 2.38135E-09, -2.33479E-09, 1.4500000000000001E-13, 2.38135E-09, 4.8799077860139937E-05, 5.1523314965987705E-08, 1.4500000000000001E-13
DataValue, -0.1, 0.1, 0, 3.76022E-09, -3.69897E-09, -2.378E-12, 3.76022E-09, 6.1320632742984638E-05, 7.4975357157353383E-08, 2.378E-12
DataValue, -0.05, 0.1, 0, 5.8035E-09, -5.69848E-09, -1.07E-12, 5.8035E-09, 7.6180706218832077E-05, 9.9254870190499182E-08, 1.07E-12
DataValue, 0, 0.1, 0, 8.61655E-09, -8.46302E-09, -3.1000000000000004E-13, 8.61655E-09, 9.2825373686293341E-05, 1.0405925435348109E-07, 3.1000000000000004E-13
DataValue, 0.05, 0.1, 0, 1.1759E-08, -1.1371599999999999E-08, 5.4700000000000009E-13, 1.1759E-08, 0.00010843892290132727, 1.2331622477665508E-07, 5.4700000000000009E-13
DataValue, 0.1, 0.1, 0, 1.6369099999999998E-08, -1.61024E-08, 3.51E-13, 1.6369099999999998E-08, 0.00012794178363615227, 1.4691322995501715E-07, 3.51E-13
DataValue, 0.15, 0.1, 0, 2.15409E-08, -2.12171E-08, -2.5290000000000002E-12, 2.15409E-08, 0.0001467681845632765, 1.3189138760369396E-07, 2.5290000000000002E-12
DataValue, 0.2, 0.1, 0, 2.6980899999999996E-08, -2.65793E-08, -6.8E-14, 2.6980899999999996E-08, 0.00016425863752022294, 1.1732170596853269E-07, 6.8E-14
DataValue, 0.25, 0.1, 0, 3.2768399999999994E-08, -3.2335E-08, 2.165E-12, 3.2768399999999994E-08, 0.00018102044083473002, 1.1160776324095147E-07, 2.165E-12
DataValue, 0.3, 0.1, 0, 3.9071999999999994E-08, -3.8527399999999993E-08, 6.28E-13, 3.9071999999999994E-08, 0.00019766638560969336, 1.1018065133805948E-07, 6.28E-13
DataValue, 0.35000000000000003, 0.1, 0, 4.58876E-08, -4.5282099999999994E-08, -1.057E-12, 4.58876E-08, 0.00021421391177979082, 1.1182102362210455E-07, 1.057E-12
DataValue, 0.4, 0.1, 0, 5.3409999999999993E-08, -5.2686999999999994E-08, -6.9100000000000008E-13, 5.3409999999999993E-08, 0.00023110603626906847, 1.1723436599854275E-07, 6.9100000000000008E-13
DataValue, 0.45, 0.1, 0, 6.1729099999999989E-08, -6.09199E-08, -1.7E-14, 6.1729099999999989E-08, 0.00024845341615683207, 1.2594407183205542E-07, 1.7E-14
DataValue, 0.5, 0.1, 0, 7.1072699999999988E-08, -7.0158799999999989E-08, -7.1500000000000008E-13, 7.1072699999999988E-08, 0.00026659463610507995, 1.3704711496952912E-07, 7.1500000000000008E-13
DataValue, 0.55, 0.1, 0, 8.149499999999999E-08, -8.0467299999999992E-08, 1.067E-12, 8.149499999999999E-08, 0.00028547329122003686, 1.48583102718215E-07, 1.067E-12
DataValue, 0.6, 0.1, 0, 9.3111099999999985E-08, -9.2044599999999993E-08, 1.5990000000000002E-12, 9.3111099999999985E-08, 0.00030514111489604281, 1.6433839073068846E-07, 1.5990000000000002E-12
DataValue, 0.65, 0.1, 0, 1.0628379999999999E-07, -1.0522269999999999E-07, 8.0800000000000009E-13, 1.0628379999999999E-07, 0.00032601196297068607, 1.38455302900296E-07, 8.0800000000000009E-13
DataValue, 0.70000000000000007, 0.1, 0, 1.17204E-07, -1.14888E-07, -3.279E-12, 1.17204E-07, 0.00034235069738500608, 1.6753313594692387E-07, 3.279E-12
DataValue, 0.75, 0.1, 0, 1.34647E-07, -1.3313799999999998E-07, 2.5970000000000003E-12, 1.34647E-07, 0.00036694277483008164, 2.3807079489001657E-07, 2.5970000000000003E-12
DataValue, 0.8, 0.1, 0, 1.52993E-07, -1.5154E-07, 5.5400000000000006E-13, 1.52993E-07, 0.00039114319628494115, 2.4713782288834609E-07, 5.5400000000000006E-13
DataValue, 0.85000000000000009, 0.1, 0, 1.73602E-07, -1.7183E-07, 8.66E-13, 1.73602E-07, 0.00041665573318988423, 2.6794200071813746E-07, 8.66E-13
DataValue, 0.9, 0.1, 0, 1.9616599999999999E-07, -1.9422899999999999E-07, 8.290000000000001E-13, 1.9616599999999999E-07, 0.00044290631063465327, 2.8482217963388112E-07, 8.290000000000001E-13
DataValue, 0.95000000000000007, 0.1, 0, 2.20923E-07, -2.18886E-07, 8.3900000000000006E-13, 2.20923E-07, 0.00047002446744823825, 3.0366422957621216E-07, 8.3900000000000006E-13
DataValue, 1, 0.1, 0, 2.48016E-07, -2.45825E-07, 6.7500000000000005E-13, 2.48016E-07, 0.00049801204804703276, 3.3160594954660747E-07, 6.7500000000000005E-13
DataValue, 1.05, 0.1, 0, 2.7837199999999997E-07, -2.75954E-07, 6.05E-13, 2.7837199999999997E-07, 0.00052760970423220983, 3.6120037354310965E-07, 6.05E-13
DataValue, 1.1, 0.1, 0, 3.11489E-07, -3.08913E-07, 2.683E-12, 3.11489E-07, 0.00055811199592913248, 3.8459347074211714E-07, 2.683E-12
DataValue, 1.1500000000000001, 0.1, 0, 3.47658E-07, -3.44958E-07, 2.37E-13, 3.47658E-07, 0.00058962530474870227, 4.1563455207847942E-07, 2.37E-13
DataValue, 1.2, 0.1, 0, 3.87608E-07, -3.8486399999999997E-07, 7.55E-13, 3.87608E-07, 0.00062258172154344531, 4.4360014292027834E-07, 7.55E-13
DataValue, 1.25, 0.1, 0, 4.30636E-07, -4.28237E-07, -2.255E-12, 4.30636E-07, 0.00065622861869930665, 4.6982042660637095E-07, 2.255E-12
DataValue, 1.3, 0.1, 0, 4.77654E-07, -4.74473E-07, 2.2900000000000003E-13, 4.77654E-07, 0.0006911251695604784, 4.9916629352408135E-07, 2.2900000000000003E-13
DataValue, 1.35, 0.1, 0, 5.28355E-07, -5.24893E-07, 2.2700000000000002E-13, 5.28355E-07, 0.00072688032027287686, 5.22321940552277E-07, 2.2700000000000002E-13
DataValue, 1.4000000000000001, 0.1, 0, 5.82775E-07, -5.79937E-07, 2.807E-12, 5.82775E-07, 0.00076339701335543619, 5.4525271491102013E-07, 2.807E-12
DataValue, 1.4500000000000002, 0.1, 0, 6.41155E-07, -6.37909E-07, 1.9320000000000002E-12, 6.41155E-07, 0.00080072154960385571, 5.6662586692429E-07, 1.9320000000000002E-12
DataValue, 1.5, 0.1, 0, 7.0337E-07, -7.00809E-07, 4.71E-13, 7.0337E-07, 0.00083867156861312526, 5.9420674970868418E-07, 4.71E-13
DataValue, 1.55, 0.1, 0, 7.70544E-07, -7.67562E-07, 4.13E-13, 7.70544E-07, 0.00087780635677807666, 6.1093159307666822E-07, 4.13E-13
DataValue, 1.6, 0.1, 0, 8.40584E-07, -8.37601E-07, -5.17E-13, 8.40584E-07, 0.00091683368175476628, 6.2715503750333637E-07, 5.17E-13
DataValue, 1.6500000000000001, 0.1, 0, 9.1584799999999993E-07, -9.12541E-07, 5.14E-13, 9.1584799999999993E-07, 0.00095699947753381765, 6.4614983999060249E-07, 5.14E-13
DataValue, 1.7000000000000002, 0.1, 0, 9.94442E-07, -9.90957E-07, 3.66E-13, 9.94442E-07, 0.00099721712781119035, 6.4565920105320377E-07, 3.66E-13
DataValue, 1.75, 0.1, 0, 1.0761E-06, -1.07293E-06, 3.78E-13, 1.0761E-06, 0.0010373523991392703, 6.2532417594200259E-07, 3.78E-13
DataValue, 1.8, 0.1, 0, 1.15841E-06, -1.1546000000000001E-06, 1.0140000000000001E-12, 1.15841E-06, 0.001076294569344285, 6.54347687574918E-07, 1.0140000000000001E-12
DataValue, 1.85, 0.1, 0, 1.2504700000000002E-06, -1.24677E-06, 1.191E-12, 1.2504700000000002E-06, 0.001118244159385597, 6.9720021157129269E-07, 1.191E-12
DataValue, 1.9000000000000001, 0.1, 0, 1.3451200000000002E-06, -1.3424600000000002E-06, 2.0080000000000003E-12, 1.3451200000000002E-06, 0.0011597930849940434, 6.910605837365358E-07, 2.0080000000000003E-12
DataValue, 1.9500000000000002, 0.1, 0, 1.4433000000000002E-06, -1.4399900000000001E-06, -6.0100000000000006E-13, 1.4433000000000002E-06, 0.0012013742131409349, 6.7954884034695258E-07, 6.0100000000000006E-13
DataValue, 2, 0.1, 0, 1.54313E-06, -1.5414300000000002E-06, -1.3380000000000002E-12, 1.54313E-06, 0.001242227837395379, 6.836290039374954E-07, 1.3380000000000002E-12
DataValue, 2.05, 0.1, 0, 1.6488000000000002E-06, -1.6465700000000003E-06, 6.4200000000000009E-13, 1.6488000000000002E-06, 0.0012840560735419618, 6.9392640638252983E-07, 6.4200000000000009E-13
DataValue, 2.1, 0.1, 0, 1.7570300000000003E-06, -1.7551000000000002E-06, 2.0360000000000002E-12, 1.7570300000000003E-06, 0.0013255300826461843, 6.9235075588036085E-07, 2.0360000000000002E-12
DataValue, 2.15, 0.1, 0, 1.8694100000000001E-06, -1.8668000000000003E-06, -5.6550000000000004E-12, 1.8694100000000001E-06, 0.0013672636907341614, 6.8679786601288985E-07, 5.6550000000000004E-12
DataValue, 2.2, 0.1, 0, 1.9836000000000004E-06, -1.98058E-06, 2.4680000000000004E-12, 1.9836000000000004E-06, 0.0014084033513166604, 6.6632919923621517E-07, 2.4680000000000004E-12
DataValue, 2.25, 0.1, 0, 2.09929E-06, -2.09673E-06, 1.159E-12, 2.09929E-06, 0.0014488926806358021, 6.5505435285608116E-07, 1.159E-12
