
SetupTitle, Transfer stab
PrimitiveTest, I/V Sweep
TestParameter, Context.MainFrame, 4155C
TestParameter, Channel.UnitType, SMU, SMU, SMU
TestParameter, Channel.Unit, SMU3:MP, SMU4:MP, SMU1:MP
TestParameter, Channel.IName, ID, IS, IG
TestParameter, Channel.VName, VD, VS, VG
TestParameter, Channel.Mode, V, COMMON, V
TestParameter, Channel.Func, CONST, CONST, VAR1
TestParameter, Channel.Index, 
TestParameter, Channel.Time, 
TestParameter, Measurement.Port.Unit, SMU3:MP, SMU4:MP, SMU1:MP
TestParameter, Measurement.Port.SeriesResistor, NONE, NONE, NONE
TestParameter, Measurement.Port.Filter, ON, ON, ON
TestParameter, Measurement.Primary.Locus, Single
TestParameter, Measurement.Primary.Scale, LINEAR
TestParameter, Measurement.Primary.Start, -2
TestParameter, Measurement.Primary.Stop, 3
TestParameter, Measurement.Primary.Step, 0.05
TestParameter, Measurement.Primary.Compliance, 0.1
TestParameter, Measurement.Primary.PowerCompliance, 0
TestParameter, Measurement.Aborting.Condition, CONTINUE AT ANY
TestParameter, Measurement.PostOutput.Value, START
TestParameter, Measurement.PostOutput.Retention, OFF
TestParameter, Measurement.Bias.Source, 3, 0, -2
TestParameter, Measurement.Bias.Compliance, 0.1, 0.1, 0.1
TestParameter, Measurement.Monitor.Unit, SMU3:MP, SMU4:MP, SMU1:MP
TestParameter, Measurement.Monitor.Adc, HR ADC, HR ADC, HR ADC
TestParameter, Measurement.Monitor.RangingMode, AUTO, AUTO, AUTO
TestParameter, Measurement.Monitor.RangeBoundary, , , 
TestParameter, Measurement.Monitor.RangeRating, BY FULL RANGE, BY FULL RANGE, BY FULL RANGE
TestParameter, Measurement.Monitor.RangeRatingCoeff, 50, 50, 50
TestParameter, Measurement.Timing.Hold, 0.5
TestParameter, Measurement.Timing.Delay, 0.05
TestParameter, Measurement.Adc.HighResolution.AutoZero, OFF
TestParameter, Measurement.Adc.HighResolution.Mode, AUTO
TestParameter, Measurement.Adc.HighResolution.Coeff, 1
TestParameter, Measurement.Ag16440ASelector.SemiconductorRelay.Channel1, DEFAULT
TestParameter, Measurement.Ag16440ASelector.SemiconductorRelay.Channel3, DEFAULT
TestParameter, Function.User.Name, absID, sqrtID, gm2, absIG
TestParameter, Function.User.Unit, A, A, A/V, A
TestParameter, Function.User.Definition, abs(ID), sqrt(abs(ID)), (delta(sqrtID)/delta(VG))^2, abs(IG)
TestParameter, Output.Graph.Enabled, true
TestParameter, Output.Graph.XAxis.Data, VG
TestParameter, Output.Graph.XAxis.Scale, Linear
TestParameter, Output.Graph.XAxis.Left, -5
TestParameter, Output.Graph.XAxis.Right, 7
TestParameter, Output.Graph.YAxis.Data, ID, absIG, gm2
TestParameter, Output.Graph.YAxis.Scale, Log, Log, Linear
TestParameter, Output.Graph.YAxis.Bottom, 1E-14, 1E-14, 0
TestParameter, Output.Graph.YAxis.Top, 0.01, 0.01, 1E-05
TestParameter, Output.Graph.YAxis.Group, , , 
TestParameter, Output.List.Data, VG, IG, VD, ID, VS, IS, sqrtID, gm2, absIG
TestParameter, AutoAnalysis.Interpolation, false
TestParameter, AutoAnalysis.Line1.Enabled, false
TestParameter, AutoAnalysis.Line1.Type, 1
TestParameter, AutoAnalysis.Line1.Fix, True
TestParameter, AutoAnalysis.Line1.YAxis, 0
TestParameter, AutoAnalysis.Line1.Point1.Type, 0
TestParameter, AutoAnalysis.Line1.Point1.XY.X, 
TestParameter, AutoAnalysis.Line1.Point1.XY.Y, 
TestParameter, AutoAnalysis.Line1.Point1.Data.Var, 
TestParameter, AutoAnalysis.Line1.Point1.Data.Condition, 
TestParameter, AutoAnalysis.Line1.Point1.Data.Start, false
TestParameter, AutoAnalysis.Line1.Point1.Data.StartVar, 
TestParameter, AutoAnalysis.Line1.Point1.Data.StartCondition, 
TestParameter, AutoAnalysis.Line1.Point2.Type, 0
TestParameter, AutoAnalysis.Line1.Point2.XY.X, 
TestParameter, AutoAnalysis.Line1.Point2.XY.Y, 
TestParameter, AutoAnalysis.Line1.Point2.Data.Var, 
TestParameter, AutoAnalysis.Line1.Point2.Data.Condition, 
TestParameter, AutoAnalysis.Line1.Point2.Data.Start, false
TestParameter, AutoAnalysis.Line1.Point2.Data.StartVar, 
TestParameter, AutoAnalysis.Line1.Point2.Data.StartCondition, 
TestParameter, AutoAnalysis.Line1.GradientExpr, 0
TestParameter, AutoAnalysis.Line2.Enabled, false
TestParameter, AutoAnalysis.Line2.Type, 1
TestParameter, AutoAnalysis.Line2.Fix, True
TestParameter, AutoAnalysis.Line2.YAxis, 0
TestParameter, AutoAnalysis.Line2.Point1.Type, 0
TestParameter, AutoAnalysis.Line2.Point1.XY.X, 
TestParameter, AutoAnalysis.Line2.Point1.XY.Y, 
TestParameter, AutoAnalysis.Line2.Point1.Data.Var, 
TestParameter, AutoAnalysis.Line2.Point1.Data.Condition, 
TestParameter, AutoAnalysis.Line2.Point1.Data.Start, false
TestParameter, AutoAnalysis.Line2.Point1.Data.StartVar, 
TestParameter, AutoAnalysis.Line2.Point1.Data.StartCondition, 
TestParameter, AutoAnalysis.Line2.Point2.Type, 0
TestParameter, AutoAnalysis.Line2.Point2.XY.X, 
TestParameter, AutoAnalysis.Line2.Point2.XY.Y, 
TestParameter, AutoAnalysis.Line2.Point2.Data.Var, 
TestParameter, AutoAnalysis.Line2.Point2.Data.Condition, 
TestParameter, AutoAnalysis.Line2.Point2.Data.Start, false
TestParameter, AutoAnalysis.Line2.Point2.Data.StartVar, 
TestParameter, AutoAnalysis.Line2.Point2.Data.StartCondition, 
TestParameter, AutoAnalysis.Line2.GradientExpr, 0
TestParameter, AutoAnalysis.Marker.Enabled, false
TestParameter, AutoAnalysis.Marker.Data.Var, 
TestParameter, AutoAnalysis.Marker.Data.Condition, 
TestParameter, AutoAnalysis.Marker.Data.Start, false
TestParameter, AutoAnalysis.Marker.Data.StartVar, 
TestParameter, AutoAnalysis.Marker.Data.StartCondition, 
MetaData, TestRecord.EntryPoint, true
MetaData, TestRecord.RecordTime, 05/27/2019 11:15:53
MetaData, TestRecord.TestTarget, 250-180-G41
MetaData, TestRecord.IterationIndex, 1
MetaData, TestRecord.Preservation, true
MetaData, TestRecord.Flag, 
MetaData, TestRecord.Remarks, BAD
MetaData, TestRecord.LinkKey, 455928a2-423c-4137-90ad-9cc19eea7313
Dimension1, 101, 101, 101, 101, 101, 101, 101, 101, 101, 101
Dimension2, 1, 1, 1, 1, 1, 1, 1, 1, 1, 1
DataName, VG, VD, VS, ID, IS, IG, absID, sqrtID, gm2, absIG
DataValue, -2, 3, 0, 1.822E-12, 8.7900000000000009E-13, -6.6600000000000009E-13, 1.822E-12, 1.3498148021117564E-06, 7.456582835214259E-11, 6.6600000000000009E-13
DataValue, -1.9500000000000002, 3, 0, -3.1740000000000004E-12, 6.7000000000000007E-13, -2.37E-13, 3.1740000000000004E-12, 1.7815723392554119E-06, 1.224664732879852E-12, 2.37E-13
DataValue, -1.9000000000000001, 3, 0, 2.1330000000000003E-12, 1.059E-12, -1.6560000000000002E-12, 2.1330000000000003E-12, 1.4604793733565702E-06, 1.298430561491803E-12, 1.6560000000000002E-12
DataValue, -1.85, 3, 0, 3.593E-12, 1.7050000000000001E-12, -2.9890000000000003E-12, 3.593E-12, 1.8955210365490539E-06, 1.9378894025324474E-12, 2.9890000000000003E-12
DataValue, -1.8, 3, 0, 2.5590000000000003E-12, -7.56E-13, -2.265E-12, 2.5590000000000003E-12, 1.5996874694764601E-06, 1.1136221574199375E-10, 2.265E-12
DataValue, -1.75, 3, 0, 7.06E-13, -2.6600000000000003E-13, -1.17E-12, 7.06E-13, 8.4023806150400019E-07, 5.937389600515544E-11, 1.17E-12
DataValue, -1.7000000000000002, 3, 0, 5.6180000000000005E-12, -5.5300000000000007E-13, -6.77E-13, 5.6180000000000005E-12, 2.370232056149777E-06, 1.1966911928801976E-11, 6.77E-13
DataValue, -1.6500000000000001, 3, 0, 1.4070000000000002E-12, 1.057E-12, -1.1250000000000002E-12, 1.4070000000000002E-12, 1.1861703081766968E-06, 1.1553146962248562E-10, 1.1250000000000002E-12
DataValue, -1.6, 3, 0, -1.6780000000000001E-12, 2.72E-13, -1.2290000000000001E-12, 1.6780000000000001E-12, 1.2953763931769021E-06, 4.8820855616043994E-12, 1.2290000000000001E-12
DataValue, -1.55, 3, 0, 1.98E-12, 1.3900000000000001E-13, -1.7930000000000001E-12, 1.98E-12, 1.4071247279470289E-06, 1.1560804824894661E-12, 1.7930000000000001E-12
DataValue, -1.5, 3, 0, 1.4110000000000002E-12, -3.43E-13, -9.3700000000000015E-13, 1.4110000000000002E-12, 1.1878552100319298E-06, 1.8923685235728091E-11, 9.3700000000000015E-13
DataValue, -1.4500000000000002, 3, 0, 9.4500000000000011E-13, -1.5100000000000001E-13, -5.37E-13, 9.4500000000000011E-13, 9.7211110476117919E-07, 7.22821553903013E-12, 5.37E-13
DataValue, -1.4000000000000001, 3, 0, 2.122E-12, -1.0700000000000001E-13, -3.2E-14, 2.122E-12, 1.4567086187704115E-06, 4.8191850843061193E-12, 3.2E-14
DataValue, -1.35, 3, 0, 1.4200000000000002E-12, 7.8000000000000011E-13, -4.0500000000000004E-13, 1.4200000000000002E-12, 1.1916375287812987E-06, 5.33005904590189E-11, 4.0500000000000004E-13
DataValue, -1.3, 3, 0, 5.2800000000000007E-13, 6.0000000000000009E-14, -5.0400000000000007E-13, 5.2800000000000007E-13, 7.26636084983398E-07, 1.9005866014297958E-13, 5.0400000000000007E-13
DataValue, -1.25, 3, 0, 1.318E-12, -5.46E-13, -5.5600000000000005E-13, 1.318E-12, 1.1480418110852933E-06, 2.3406904657570839E-14, 5.5600000000000005E-13
DataValue, -1.2, 3, 0, -5.0600000000000007E-13, -1.16E-13, -2.94E-13, 5.0600000000000007E-13, 7.1133676975114961E-07, 2.1321067397954556E-11, 2.94E-13
DataValue, -1.1500000000000001, 3, 0, -4.71E-13, -1.53E-13, -2.72E-13, 4.71E-13, 6.8629439747093963E-07, 2.9426010864812567E-11, 2.72E-13
DataValue, -1.1, 3, 0, -1.5720000000000002E-12, 2.35E-13, -1.17E-13, 1.5720000000000002E-12, 1.2537942414925985E-06, 8.0187863075322146E-11, 1.17E-13
DataValue, -1.05, 3, 0, -2.502E-12, 5.12E-13, -1.17E-13, 2.502E-12, 1.5817711591756881E-06, 8.4454698770438162E-13, 1.17E-13
DataValue, -1, 3, 0, -1.3500000000000001E-12, -1E-13, -2.3000000000000003E-14, 1.3500000000000001E-12, 1.1618950038622252E-06, 5.677923746389871E-11, 2.3000000000000003E-14
DataValue, -0.95000000000000007, 3, 0, 6.86E-13, 2.38E-13, -1.5000000000000002E-13, 6.86E-13, 8.2825116963394622E-07, 1.0384649501890816E-11, 1.5000000000000002E-13
DataValue, -0.9, 3, 0, 7.05E-13, -2.11E-13, -2.33E-13, 7.05E-13, 8.3964278118733324E-07, 1.5498025682846955E-10, 2.33E-13
DataValue, -0.85000000000000009, 3, 0, 4.2980000000000005E-12, 1.6100000000000002E-13, -6.7E-14, 4.2980000000000005E-12, 2.0731618364228104E-06, 1.9068947653402326E-11, 6.7E-14
DataValue, -0.8, 3, 0, 1.629E-12, -2.32E-13, 5.6E-14, 1.629E-12, 1.2763228431709589E-06, 1.7965622435205256E-10, 5.6E-14
DataValue, -0.75, 3, 0, 5.37E-13, 3.77E-13, -7E-15, 5.37E-13, 7.328028384224505E-07, 4.9288246155012534E-12, 7E-15
DataValue, -0.70000000000000007, 3, 0, -2.2450000000000002E-12, -4.71E-13, -7E-14, 2.2450000000000002E-12, 1.4983324063771697E-06, 2.0896039798059413E-11, 7E-14
DataValue, -0.65, 3, 0, 7.6E-14, 3.54E-13, -3.9000000000000004E-14, 7.6E-14, 2.7568097504180444E-07, 7.2162863629398075E-11, 3.9000000000000004E-14
DataValue, -0.6, 3, 0, 4.21E-13, 5.2000000000000006E-14, -1.0500000000000001E-13, 4.21E-13, 6.4884512790033339E-07, 3.2023341139737284E-10, 1.0500000000000001E-13
DataValue, -0.55, 3, 0, -4.265E-12, -4.7E-14, 1.2000000000000001E-14, 4.265E-12, 2.0651876428063385E-06, 5.1620783860816717E-14, 1.2000000000000001E-14
DataValue, -0.5, 3, 0, 4.5100000000000005E-13, 2.44E-13, -5.1000000000000004E-14, 4.5100000000000005E-13, 6.7156533561523263E-07, 1.7341101604877596E-10, 5.1000000000000004E-14
DataValue, -0.45, 3, 0, 5.6E-13, 6.1E-14, 7.7E-14, 5.6E-13, 7.4833147735478826E-07, 5.1423023591117957E-12, 7.7E-14
DataValue, -0.4, 3, 0, 8.070000000000001E-13, -2.2100000000000002E-13, 9.0000000000000008E-14, 8.070000000000001E-13, 8.9833178725902834E-07, 1.0681399744105206E-12, 9.0000000000000008E-14
DataValue, -0.35000000000000003, 3, 0, 4.1600000000000004E-13, 3.3700000000000003E-13, 1.19E-13, 4.1600000000000004E-13, 6.44980619863884E-07, 2.9280279174228439E-11, 1.19E-13
DataValue, -0.3, 3, 0, -2.072E-12, -8.1000000000000008E-14, -7.9E-14, 2.072E-12, 1.4394443372357265E-06, 3.2488844586398873E-12, 7.9E-14
DataValue, -0.25, 3, 0, 6.81E-13, -1.18E-13, 7.8000000000000008E-14, 6.81E-13, 8.2522724143111032E-07, 8.0667269163375071E-11, 7.8000000000000008E-14
DataValue, -0.2, 3, 0, -2.93E-13, 2.4200000000000003E-13, -1.4E-14, 2.93E-13, 5.4129474410897439E-07, 1.3006917532392211E-10, 1.4E-14
DataValue, -0.15, 3, 0, -3.8640000000000005E-12, -3.1300000000000003E-13, 3.8E-14, 3.8640000000000005E-12, 1.9657059800488985E-06, 1.1150224274671757E-11, 3.8E-14
DataValue, -0.1, 3, 0, -7.6600000000000007E-13, 1.7200000000000002E-13, 1.24E-13, 7.6600000000000007E-13, 8.7521425948164258E-07, 7.3927783776377961E-11, 1.24E-13
DataValue, -0.05, 3, 0, -1.2230000000000001E-12, -6.8E-14, 7.8000000000000008E-14, 1.2230000000000001E-12, 1.1058933040759402E-06, 1.1295990802972598E-10, 7.8000000000000008E-14
DataValue, 0, 3, 0, -3.7560000000000006E-12, -1.42E-13, 2.4000000000000002E-14, 3.7560000000000006E-12, 1.938040247260103E-06, 3.6953915185332159E-11, 2.4000000000000002E-14
DataValue, 0.05, 3, 0, 2.48E-13, -2.3100000000000003E-13, 5.5000000000000005E-14, 2.48E-13, 4.9799598391954932E-07, 2.620079162466356E-10, 5.5000000000000005E-14
DataValue, 0.1, 3, 0, 1.0200000000000001E-13, 7.9E-14, 1.22E-13, 1.0200000000000001E-13, 3.1937438845342623E-07, 1.3547344623897952E-10, 1.22E-13
DataValue, 0.15, 3, 0, 2.762E-12, -1E-15, 1.9100000000000002E-13, 2.762E-12, 1.6619265928433782E-06, 4.7996260573403355E-10, 1.9100000000000002E-13
DataValue, 0.2, 3, 0, -6.3010000000000007E-12, -3.3600000000000003E-13, 1.28E-13, 6.3010000000000007E-12, 2.5101792764661255E-06, 9.062983239400786E-11, 1.28E-13
DataValue, 0.25, 3, 0, -5.0400000000000007E-13, -1.0700000000000001E-13, 1.65E-13, 5.0400000000000007E-13, 7.09929573971954E-07, 3.8656296479605726E-10, 1.65E-13
DataValue, 0.3, 3, 0, 2.96E-13, -1.65E-13, 9.0000000000000008E-14, 2.96E-13, 5.4405882034941774E-07, 1.7921538462526214E-12, 9.0000000000000008E-14
DataValue, 0.35000000000000003, 3, 0, -7.120000000000001E-13, 3.8300000000000003E-13, 2.91E-13, 7.120000000000001E-13, 8.4380092438915948E-07, 2.6153319595209873E-11, 2.91E-13
DataValue, 0.4, 3, 0, -1.114E-12, 9.4E-14, 1.87E-13, 1.114E-12, 1.0554619841567009E-06, 1.2941626833830572E-10, 1.87E-13
DataValue, 0.45, 3, 0, 3.926E-12, 2.06E-13, 5E-14, 3.926E-12, 1.9814136367755219E-06, 2.1752422621106132E-11, 5E-14
DataValue, 0.5, 3, 0, 3.4700000000000004E-13, -1.64E-13, 2.1000000000000002E-14, 3.4700000000000004E-13, 5.8906705900092564E-07, 1.5929656261970116E-16, 2.1000000000000002E-14
DataValue, 0.55, 3, 0, -3.921E-12, -1.59E-13, 1.25E-13, 3.921E-12, 1.9801515093547767E-06, 1.83031581572094E-11, 1.25E-13
DataValue, 0.6, 3, 0, -2.6000000000000003E-14, 6.7E-14, 1.7200000000000002E-13, 2.6000000000000003E-14, 1.61245154965971E-07, 2.2239018619914956E-10, 1.7200000000000002E-13
DataValue, 0.65, 3, 0, 2.3900000000000004E-13, 1.6800000000000002E-13, 9.3000000000000008E-14, 2.3900000000000004E-13, 4.8887626246321274E-07, 1.4144589571578792E-10, 9.3000000000000008E-14
DataValue, 0.70000000000000007, 3, 0, -1.8240000000000003E-12, 1.8500000000000002E-13, 2.36E-13, 1.8240000000000003E-12, 1.3505554412907306E-06, 1.7994190434629685E-10, 2.36E-13
DataValue, 0.75, 3, 0, -3.35E-12, -1.6800000000000002E-13, 1.6100000000000002E-13, 3.35E-12, 1.8303005217723127E-06, 3.5078126168126289E-11, 1.6100000000000002E-13
DataValue, 0.8, 3, 0, -5.7500000000000007E-13, 5.2800000000000007E-13, 2.17E-13, 5.7500000000000007E-13, 7.5828754440515506E-07, 1.3272595786107623E-10, 2.17E-13
DataValue, 0.85000000000000009, 3, 0, 4.6000000000000006E-13, 4.3000000000000006E-14, 5.700000000000001E-14, 4.6000000000000006E-13, 6.7823299831252686E-07, 1.0029857398987122E-11, 5.700000000000001E-14
DataValue, 0.9, 3, 0, 1.9500000000000003E-13, -3.2400000000000003E-13, 2.5400000000000003E-13, 1.9500000000000003E-13, 4.415880433163924E-07, 6.0987179627659835E-12, 2.5400000000000003E-13
DataValue, 0.95000000000000007, 3, 0, -1.8600000000000002E-13, 3.3000000000000005E-14, 2.57E-13, 1.8600000000000002E-13, 4.312771730569565E-07, 4.8500639387234864E-12, 2.57E-13
DataValue, 1, 3, 0, 4.9000000000000006E-14, 2.6600000000000003E-13, 1.75E-13, 4.9000000000000006E-14, 2.2135943621178657E-07, 7.1267858267787443E-12, 1.75E-13
DataValue, 1.05, 3, 0, 2.7000000000000002E-14, -2.1400000000000002E-13, 2.0900000000000002E-13, 2.7000000000000002E-14, 1.6431676725154984E-07, 6.6899135186962939E-10, 2.0900000000000002E-13
DataValue, 1.1, 3, 0, -7.884E-12, 2.06E-13, 2.2800000000000004E-13, 7.884E-12, 2.8078461496314216E-06, 5.10250974027616E-11, 2.2800000000000004E-13
DataValue, 1.1500000000000001, 3, 0, 7.72E-13, -1.7E-13, 3.05E-13, 7.72E-13, 8.786353054595519E-07, 1.2483237889635218E-10, 3.05E-13
DataValue, 1.2, 3, 0, 2.858E-12, 2.4200000000000003E-13, 1.6600000000000003E-13, 2.858E-12, 1.6905620367203328E-06, 1.2820603412571675E-11, 1.6600000000000003E-13
DataValue, 1.25, 3, 0, -2.71E-13, 2.6000000000000003E-14, 2.2000000000000002E-13, 2.71E-13, 5.2057660339281479E-07, 1.1224128034867893E-11, 2.2000000000000002E-13
DataValue, 1.3, 3, 0, -4.1030000000000006E-12, 2.8700000000000004E-13, 2.3100000000000003E-13, 4.1030000000000006E-12, 2.0255863348670182E-06, 8.8792416472455164E-11, 2.3100000000000003E-13
DataValue, 1.35, 3, 0, 2.14E-12, 8E-15, 1.58E-13, 2.14E-12, 1.4628738838327793E-06, 3.4643244033314665E-10, 1.58E-13
DataValue, 1.4000000000000001, 3, 0, 2.7000000000000002E-14, 7E-15, 1.88E-13, 2.7000000000000002E-14, 1.6431676725154984E-07, 1.8547264319110367E-12, 1.88E-13
DataValue, 1.4500000000000002, 3, 0, -2.557E-12, -3.9500000000000003E-13, 1.3900000000000001E-13, 2.557E-12, 1.5990622251807464E-06, 1.0925028301987579E-10, 1.3900000000000001E-13
DataValue, 1.5, 3, 0, -1.4630000000000001E-12, -1.25E-13, 2.2500000000000003E-13, 1.4630000000000001E-12, 1.2095453691366852E-06, 1.6875626648915563E-10, 2.2500000000000003E-13
DataValue, 1.55, 3, 0, -9.0000000000000008E-14, -1.7200000000000002E-13, 1.1500000000000002E-13, 9.0000000000000008E-14, 3.0000000000000004E-07, 6.0085138742821109E-11, 1.1500000000000002E-13
DataValue, 1.6, 3, 0, -3.939E-12, 2.11E-13, 3.3300000000000005E-13, 3.939E-12, 1.9846914117816904E-06, 1.8491084396381267E-10, 3.3300000000000005E-13
DataValue, 1.6500000000000001, 3, 0, -2.7550000000000003E-12, -1.1500000000000002E-13, 1.99E-13, 2.7550000000000003E-12, 1.6598192672697833E-06, 1.5861710714250451E-10, 1.99E-13
DataValue, 1.7000000000000002, 3, 0, -5.2600000000000008E-13, 1.9600000000000002E-13, 1.3700000000000002E-13, 5.2600000000000008E-13, 7.2525857457874991E-07, 1.0988571478834335E-10, 1.3700000000000002E-13
DataValue, 1.75, 3, 0, -3.74E-13, -3.65E-13, 2.0100000000000003E-13, 3.74E-13, 6.1155539405682625E-07, 1.1686332615084666E-11, 2.0100000000000003E-13
DataValue, 1.8, 3, 0, -1.47E-13, -3.0000000000000003E-13, 1.9600000000000002E-13, 1.47E-13, 3.8340579025361627E-07, 9.4001340484982271E-12, 1.9600000000000002E-13
DataValue, 1.85, 3, 0, -9.3000000000000008E-14, 4.36E-13, 1.35E-13, 9.3000000000000008E-14, 3.0495901363953816E-07, 4.2151835813570973E-13, 1.35E-13
DataValue, 1.9000000000000001, 3, 0, 2.0100000000000003E-13, -7.5000000000000009E-14, 2.82E-13, 2.0100000000000003E-13, 4.4833023542919789E-07, 1.3713594475846741E-11, 2.82E-13
DataValue, 1.9500000000000002, 3, 0, 4.5600000000000008E-13, -4.33E-13, 1.6200000000000002E-13, 4.5600000000000008E-13, 6.7527772064536529E-07, 2.7704347934236519E-11, 1.6200000000000002E-13
DataValue, 2, 3, 0, -9.5E-13, -5.0100000000000009E-13, 1.59E-13, 9.5E-13, 9.7467943448089629E-07, 7.6757791840473818E-13, 1.59E-13
DataValue, 2.05, 3, 0, 5.82E-13, 1.82E-13, 4.3700000000000006E-13, 5.82E-13, 7.62889244910426E-07, 6.2030834942378936E-11, 4.3700000000000006E-13
DataValue, 2.1, 3, 0, 3.5E-14, 5.8E-14, 1.9500000000000003E-13, 3.5E-14, 1.8708286933869707E-07, 2.3253335879806531E-10, 1.9500000000000003E-13
DataValue, 2.15, 3, 0, -5.2340000000000005E-12, -4.22E-13, 2.5E-13, 5.2340000000000005E-12, 2.2877936969928039E-06, 9.7377340699816324E-11, 2.5E-13
DataValue, 2.2, 3, 0, -1.3780000000000002E-12, 5.2E-13, 3.3600000000000003E-13, 1.3780000000000002E-12, 1.1738824472663352E-06, 4.7763376309743706E-13, 3.3600000000000003E-13
DataValue, 2.25, 3, 0, 5.5550000000000005E-12, -2.9000000000000003E-13, 3.04E-13, 5.5550000000000005E-12, 2.3569047498785354E-06, 1.2021429132532891E-10, 3.04E-13
DataValue, 2.3000000000000003, 3, 0, -6.0000000000000005E-15, -4.13E-13, 7.2100000000000006E-13, 6.0000000000000005E-15, 7.7459666924148335E-08, 3.1043823790042208E-10, 7.2100000000000006E-13
