
SetupTitle, Transfer lin
PrimitiveTest, I/V Sweep
TestParameter, Context.MainFrame, 4155C
TestParameter, Channel.UnitType, SMU, SMU, SMU
TestParameter, Channel.Unit, SMU1:MP, SMU4:MP, SMU3:MP
TestParameter, Channel.IName, ID, IS, IG
TestParameter, Channel.VName, VD, VS, VG
TestParameter, Channel.Mode, V, COMMON, V
TestParameter, Channel.Func, CONST, CONST, VAR1
TestParameter, Channel.Index, 
TestParameter, Channel.Time, 
TestParameter, Measurement.Port.Unit, SMU1:MP, SMU4:MP, SMU3:MP
TestParameter, Measurement.Port.SeriesResistor, NONE, NONE, NONE
TestParameter, Measurement.Port.Filter, ON, ON, ON
TestParameter, Measurement.Primary.Locus, Double
TestParameter, Measurement.Primary.Scale, LINEAR
TestParameter, Measurement.Primary.Start, -2
TestParameter, Measurement.Primary.Stop, 3
TestParameter, Measurement.Primary.Step, 0.05
TestParameter, Measurement.Primary.Compliance, 0.001
TestParameter, Measurement.Primary.PowerCompliance, 0
TestParameter, Measurement.Aborting.Condition, CONTINUE AT ANY
TestParameter, Measurement.PostOutput.Value, START
TestParameter, Measurement.PostOutput.Retention, OFF
TestParameter, Measurement.Bias.Source, 0.1, 0, -2
TestParameter, Measurement.Bias.Compliance, 0.001, 0.1, 0.001
TestParameter, Measurement.Monitor.Unit, SMU1:MP, SMU4:MP, SMU3:MP
TestParameter, Measurement.Monitor.Adc, HR ADC, HR ADC, HR ADC
TestParameter, Measurement.Monitor.RangingMode, AUTO, AUTO, AUTO
TestParameter, Measurement.Monitor.RangeBoundary, , , 
TestParameter, Measurement.Monitor.RangeRating, BY FULL RANGE, BY FULL RANGE, BY FULL RANGE
TestParameter, Measurement.Monitor.RangeRatingCoeff, 50, 50, 50
TestParameter, Measurement.Timing.Hold, 0.5
TestParameter, Measurement.Timing.Delay, 0.05
TestParameter, Measurement.Adc.HighResolution.AutoZero, OFF
TestParameter, Measurement.Adc.HighResolution.Mode, AUTO
TestParameter, Measurement.Adc.HighResolution.Coeff, 1
TestParameter, Measurement.Ag16440ASelector.SemiconductorRelay.Channel1, DEFAULT
TestParameter, Measurement.Ag16440ASelector.SemiconductorRelay.Channel3, DEFAULT
TestParameter, Function.User.Name, absID, sqrtID, gm2, absIG
TestParameter, Function.User.Unit, A, A, A/V, A
TestParameter, Function.User.Definition, abs(ID), sqrt(abs(ID)), (delta(sqrtID)/delta(VG))^2, abs(IG)
TestParameter, Output.Graph.Enabled, true
TestParameter, Output.Graph.XAxis.Data, VG
TestParameter, Output.Graph.XAxis.Scale, Linear
TestParameter, Output.Graph.XAxis.Left, -5
TestParameter, Output.Graph.XAxis.Right, 7
TestParameter, Output.Graph.YAxis.Data, ID, absIG, gm2
TestParameter, Output.Graph.YAxis.Scale, Log, Log, Linear
TestParameter, Output.Graph.YAxis.Bottom, 1E-14, 1E-14, 0
TestParameter, Output.Graph.YAxis.Top, 0.01, 0.01, 1E-05
TestParameter, Output.Graph.YAxis.Group, , , 
TestParameter, Output.List.Data, VG, IG, VD, ID, VS, IS, sqrtID, gm2, absIG
TestParameter, AutoAnalysis.Interpolation, false
TestParameter, AutoAnalysis.Line1.Enabled, false
TestParameter, AutoAnalysis.Line1.Type, 1
TestParameter, AutoAnalysis.Line1.Fix, True
TestParameter, AutoAnalysis.Line1.YAxis, 0
TestParameter, AutoAnalysis.Line1.Point1.Type, 0
TestParameter, AutoAnalysis.Line1.Point1.XY.X, 
TestParameter, AutoAnalysis.Line1.Point1.XY.Y, 
TestParameter, AutoAnalysis.Line1.Point1.Data.Var, 
TestParameter, AutoAnalysis.Line1.Point1.Data.Condition, 
TestParameter, AutoAnalysis.Line1.Point1.Data.Start, false
TestParameter, AutoAnalysis.Line1.Point1.Data.StartVar, 
TestParameter, AutoAnalysis.Line1.Point1.Data.StartCondition, 
TestParameter, AutoAnalysis.Line1.Point2.Type, 0
TestParameter, AutoAnalysis.Line1.Point2.XY.X, 
TestParameter, AutoAnalysis.Line1.Point2.XY.Y, 
TestParameter, AutoAnalysis.Line1.Point2.Data.Var, 
TestParameter, AutoAnalysis.Line1.Point2.Data.Condition, 
TestParameter, AutoAnalysis.Line1.Point2.Data.Start, false
TestParameter, AutoAnalysis.Line1.Point2.Data.StartVar, 
TestParameter, AutoAnalysis.Line1.Point2.Data.StartCondition, 
TestParameter, AutoAnalysis.Line1.GradientExpr, 0
TestParameter, AutoAnalysis.Line2.Enabled, false
TestParameter, AutoAnalysis.Line2.Type, 1
TestParameter, AutoAnalysis.Line2.Fix, True
TestParameter, AutoAnalysis.Line2.YAxis, 0
TestParameter, AutoAnalysis.Line2.Point1.Type, 0
TestParameter, AutoAnalysis.Line2.Point1.XY.X, 
TestParameter, AutoAnalysis.Line2.Point1.XY.Y, 
TestParameter, AutoAnalysis.Line2.Point1.Data.Var, 
TestParameter, AutoAnalysis.Line2.Point1.Data.Condition, 
TestParameter, AutoAnalysis.Line2.Point1.Data.Start, false
TestParameter, AutoAnalysis.Line2.Point1.Data.StartVar, 
TestParameter, AutoAnalysis.Line2.Point1.Data.StartCondition, 
TestParameter, AutoAnalysis.Line2.Point2.Type, 0
TestParameter, AutoAnalysis.Line2.Point2.XY.X, 
TestParameter, AutoAnalysis.Line2.Point2.XY.Y, 
TestParameter, AutoAnalysis.Line2.Point2.Data.Var, 
TestParameter, AutoAnalysis.Line2.Point2.Data.Condition, 
TestParameter, AutoAnalysis.Line2.Point2.Data.Start, false
TestParameter, AutoAnalysis.Line2.Point2.Data.StartVar, 
TestParameter, AutoAnalysis.Line2.Point2.Data.StartCondition, 
TestParameter, AutoAnalysis.Line2.GradientExpr, 0
TestParameter, AutoAnalysis.Marker.Enabled, false
TestParameter, AutoAnalysis.Marker.Data.Var, 
TestParameter, AutoAnalysis.Marker.Data.Condition, 
TestParameter, AutoAnalysis.Marker.Data.Start, false
TestParameter, AutoAnalysis.Marker.Data.StartVar, 
TestParameter, AutoAnalysis.Marker.Data.StartCondition, 
MetaData, TestRecord.EntryPoint, true
MetaData, TestRecord.RecordTime, 04/23/2019 17:29:09
MetaData, TestRecord.TestTarget, 24
MetaData, TestRecord.IterationIndex, 1
MetaData, TestRecord.Preservation, true
MetaData, TestRecord.Flag, 
MetaData, TestRecord.Remarks, 150-300-G24
MetaData, TestRecord.LinkKey, d410cb5d-fe4a-4438-bfe3-d4a5379f5ba7
Dimension1, 202, 202, 202, 202, 202, 202, 202, 202, 202, 202
Dimension2, 1, 1, 1, 1, 1, 1, 1, 1, 1, 1
DataName, VG, VD, VS, ID, IS, IG, absID, sqrtID, gm2, absIG
DataValue, -2, 0.1, 0, 9.399E-12, 1.7852000000000003E-11, -2.7304E-11, 9.399E-12, 3.0657788569953966E-06, 1.966463491173348E-12, 2.7304E-11
DataValue, -1.9500000000000002, 0.1, 0, 8.9740000000000011E-12, 2.1174000000000002E-11, -2.2774E-11, 8.9740000000000011E-12, 2.9956635325082823E-06, 1.0028486603923423E-12, 2.2774E-11
DataValue, -1.9000000000000001, 0.1, 0, 8.795E-12, 7.675E-12, -2.0474E-11, 8.795E-12, 2.9656365252673836E-06, 1.7692202477233047E-11, 2.0474E-11
DataValue, -1.85, 0.1, 0, 1.1671E-11, 1.625E-12, -1.6784E-11, 1.1671E-11, 3.416284531475679E-06, 1.2550519594611962E-15, 1.6784E-11
DataValue, -1.8, 0.1, 0, 8.7740000000000012E-12, 5.645E-12, -1.4619E-11, 8.7740000000000012E-12, 2.9620938540161084E-06, 2.3895310474450391E-11, 1.4619E-11
DataValue, -1.75, 0.1, 0, 8.5700000000000008E-12, 3.0280000000000004E-12, -1.2850000000000001E-11, 8.5700000000000008E-12, 2.9274562336608897E-06, 4.6187804462996169E-12, 1.2850000000000001E-11
DataValue, -1.7000000000000002, 0.1, 0, 7.5470000000000009E-12, 4.501E-12, -1.3490000000000002E-11, 7.5470000000000009E-12, 2.7471803726730432E-06, 1.0348663684916552E-11, 1.3490000000000002E-11
DataValue, -1.6500000000000001, 0.1, 0, 6.7900000000000008E-12, 7.218000000000001E-12, -1.1237000000000002E-11, 6.7900000000000008E-12, 2.6057628441590766E-06, 9.7999102736683121E-12, 1.1237000000000002E-11
DataValue, -1.6, 0.1, 0, 5.9250000000000007E-12, 2.1400000000000002E-13, -8.463E-12, 5.9250000000000007E-12, 2.4341322889276171E-06, 1.8924162549611946E-12, 8.463E-12
DataValue, -1.55, 0.1, 0, 6.092E-12, 3.3060000000000003E-12, -7.2140000000000006E-12, 6.092E-12, 2.4681977230359809E-06, 1.4227441957789594E-11, 7.2140000000000006E-12
DataValue, -1.5, 0.1, 0, 4.231E-12, 2.073E-12, -6.5990000000000005E-12, 4.231E-12, 2.0569394740730706E-06, 3.3962722828211845E-10, 6.5990000000000005E-12
DataValue, -1.4500000000000002, 0.1, 0, 3.9100000000000005E-13, 7.0080000000000008E-12, -6E-12, 3.9100000000000005E-13, 6.2529992803453927E-07, 8.2852997180688E-12, 6E-12
DataValue, -1.4000000000000001, 0.1, 0, 5.498E-12, -8.391E-12, -3.692E-12, 5.498E-12, 2.3447814397081874E-06, 1.9489655573490067E-11, 3.692E-12
DataValue, -1.35, 0.1, 0, -1.138E-12, -3.2440000000000003E-12, -2.9650000000000004E-12, 1.138E-12, 1.0667708282475669E-06, 1.5034452596960855E-11, 2.9650000000000004E-12
DataValue, -1.3, 0.1, 0, 3.8300000000000004E-12, 1.0954E-11, -4.793E-12, 3.8300000000000004E-12, 1.957038579078093E-06, 1.1933241222944273E-12, 4.793E-12
DataValue, -1.25, 0.1, 0, 1.383E-12, 9.8740000000000009E-12, -4.8580000000000005E-12, 1.383E-12, 1.1760102040373631E-06, 9.483479829625214E-11, 4.8580000000000005E-12
DataValue, -1.2, 0.1, 0, 8.5900000000000012E-12, 1.3584E-11, -3.4250000000000005E-12, 8.5900000000000012E-12, 2.9308701779505691E-06, 1.953418889894786E-13, 3.4250000000000005E-12
DataValue, -1.1500000000000001, 0.1, 0, 1.281E-12, 4.241E-12, -2.8100000000000003E-12, 1.281E-12, 1.131812705353673E-06, 5.197111214614723E-10, 2.8100000000000003E-12
DataValue, -1.1, 0.1, 0, 4.24E-13, 4.872E-12, -2.557E-12, 4.24E-13, 6.5115282384398826E-07, 1.0350482016776346E-10, 2.557E-12
DataValue, -1.05, 0.1, 0, 4.6190000000000004E-12, 1.5396E-11, -7.6600000000000007E-13, 4.6190000000000004E-12, 2.1491858923787865E-06, 3.8204628013970037E-11, 7.6600000000000007E-13
DataValue, -1, 0.1, 0, -1.6110000000000001E-12, -1.9030000000000003E-12, -4.109E-12, 1.6110000000000001E-12, 1.2692517480783708E-06, 1.783702773208472E-11, 4.109E-12
DataValue, -0.95000000000000007, 0.1, 0, 2.9820000000000004E-12, -9.2510000000000009E-12, -4.2800000000000004E-13, 2.9820000000000004E-12, 1.7268468374467958E-06, 6.3207438666950592E-12, 4.2800000000000004E-13
DataValue, -0.9, 0.1, 0, 1.036E-12, 2.9180000000000003E-12, 4.1E-14, 1.036E-12, 1.0178408519999578E-06, 1.1521756825131477E-10, 4.1E-14
DataValue, -0.85000000000000009, 0.1, 0, 4.2700000000000005E-13, -2.2000000000000002E-13, -1.6260000000000001E-12, 4.2700000000000005E-13, 6.5345237010818166E-07, 9.6116937430382637E-12, 1.6260000000000001E-12
DataValue, -0.8, 0.1, 0, -5.0100000000000009E-13, 6.4200000000000005E-12, 9.65E-13, 5.0100000000000009E-13, 7.0781353476745557E-07, 6.9776918167432764E-12, 9.65E-13
DataValue, -0.75, 0.1, 0, -8.42E-13, 6.534E-12, 1.6790000000000002E-12, 8.42E-13, 9.17605579756357E-07, 7.7087410443069578E-13, 1.6790000000000002E-12
DataValue, -0.70000000000000007, 0.1, 0, -6.33E-13, -5.2790000000000004E-12, 1.297E-12, 6.33E-13, 7.9561297123664342E-07, 3.3067453558362312E-11, 1.297E-12
DataValue, -0.65, 0.1, 0, -2.228E-12, 6.889E-12, -1.573E-12, 2.228E-12, 1.4926486525636233E-06, 1.039585209842601E-10, 1.573E-12
DataValue, -0.6, 0.1, 0, -3.2950000000000004E-12, -1.0250000000000002E-12, 6.84E-13, 3.2950000000000004E-12, 1.8152134860671348E-06, 1.137362730755984E-12, 6.84E-13
DataValue, -0.55, 0.1, 0, 1.921E-12, 7.348E-12, 2.445E-12, 1.921E-12, 1.3860014430006918E-06, 4.2380724366852947E-12, 2.445E-12
DataValue, -0.5, 0.1, 0, -2.59E-12, -8.7770000000000011E-12, 1.4760000000000002E-12, 2.59E-12, 1.6093476939431082E-06, 3.8178418191109588E-11, 1.4760000000000002E-12
DataValue, -0.45, 0.1, 0, 5.9E-13, -6.726E-12, 4.2790000000000006E-12, 5.9E-13, 7.6811457478686082E-07, 1.7320932249422095E-10, 4.2790000000000006E-12
DataValue, -0.4, 0.1, 0, 8.6000000000000012E-14, 7.6900000000000006E-13, 9.21E-13, 8.6000000000000012E-14, 2.9325756597230364E-07, 3.0273952292550792E-11, 9.21E-13
DataValue, -0.35000000000000003, 0.1, 0, 1.738E-12, -9.883E-12, 3.2930000000000002E-12, 1.738E-12, 1.3183322798141599E-06, 5.0368644570426446E-12, 3.2930000000000002E-12
DataValue, -0.3, 0.1, 0, 2.68E-13, -3.0650000000000004E-12, 2.557E-12, 2.68E-13, 5.176871642217914E-07, 3.6281911855431416E-11, 2.557E-12
DataValue, -0.25, 0.1, 0, 3.689E-12, -8.41E-12, 4.028E-12, 3.689E-12, 1.92067696398952E-06, 1.0912704763291802E-09, 4.028E-12
DataValue, -0.2, 0.1, 0, 1.4601000000000002E-11, -1.7279000000000002E-11, 3.4110000000000003E-12, 1.4601000000000002E-11, 3.8211254886486E-06, 3.4865086227668586E-09, 3.4110000000000003E-12
DataValue, -0.15, 0.1, 0, 6.1236E-11, -6.0862E-11, 3.054E-12, 6.1236E-11, 7.8253434429422972E-06, 1.2459467703048008E-08, 3.054E-12
DataValue, -0.1, 0.1, 0, 2.2450000000000003E-10, -2.12541E-10, -3.3000000000000005E-14, 2.2450000000000003E-10, 1.4983324063771698E-05, 3.837916406109486E-08, 3.3000000000000005E-14
DataValue, -0.05, 0.1, 0, 7.5163400000000005E-10, -7.1832400000000009E-10, 3.413E-12, 7.5163400000000005E-10, 2.7415944266065324E-05, 9.8570766478830228E-08, 3.413E-12
DataValue, 0, 0.1, 0, 2.15104E-09, -2.02015E-09, 4.5500000000000008E-13, 2.15104E-09, 4.6379305730034379E-05, 2.5523537563263203E-07, 4.5500000000000008E-13
DataValue, 0.05, 0.1, 0, 6.07414E-09, -5.92394E-09, 1.955E-12, 6.07414E-09, 7.7936769242765E-05, 4.9158584722110174E-07, 1.955E-12
DataValue, 0.1, 0.1, 0, 1.3570499999999999E-08, -1.3017899999999999E-08, 2.833E-12, 1.3570499999999999E-08, 0.0001164924890282631, 8.228071323618562E-07, 2.833E-12
DataValue, 0.15, 0.1, 0, 2.8441299999999996E-08, -2.7935899999999997E-08, 3.1910000000000004E-12, 2.8441299999999996E-08, 0.00016864548615364716, 1.1575386331110666E-06, 3.1910000000000004E-12
DataValue, 0.2, 0.1, 0, 5.0212499999999994E-08, -4.94078E-08, 5.6620000000000007E-12, 5.0212499999999994E-08, 0.00022408145840296557, 1.2272802172127774E-06, 5.6620000000000007E-12
DataValue, 0.25, 0.1, 0, 7.8080099999999987E-08, -7.70121E-08, 5.2400000000000009E-13, 7.8080099999999987E-08, 0.00027942816608208983, 1.1040763890254755E-06, 5.2400000000000009E-13
DataValue, 0.3, 0.1, 0, 1.08344E-07, -1.0734609999999999E-07, 2.28E-12, 1.08344E-07, 0.00032915649773322111, 1.0456610319960872E-06, 2.28E-12
DataValue, 0.35000000000000003, 0.1, 0, 1.45684E-07, -1.42181E-07, 3.384E-12, 1.45684E-07, 0.00038168573460374441, 1.0849500978498444E-06, 3.384E-12
DataValue, 0.4, 0.1, 0, 1.8776399999999999E-07, -1.85938E-07, 1.017E-12, 1.8776399999999999E-07, 0.00043331743560581543, 1.0340834893463684E-06, 1.017E-12
DataValue, 0.45, 0.1, 0, 2.33652E-07, -2.31632E-07, 1.906E-12, 2.33652E-07, 0.00048337563033318097, 9.7529069948089283E-07, 1.906E-12
DataValue, 0.5, 0.1, 0, 2.83103E-07, -2.8072699999999997E-07, 2.578E-12, 2.83103E-07, 0.00053207424293983633, 9.3913121628488162E-07, 2.578E-12
DataValue, 0.55, 0.1, 0, 3.3672999999999997E-07, -3.34205E-07, 5.593E-12, 3.3672999999999997E-07, 0.00058028441302519925, 9.1121208596563181E-07, 5.593E-12
DataValue, 0.6, 0.1, 0, 3.93796E-07, -3.91661E-07, 3.716E-12, 3.93796E-07, 0.000627531672507452, 9.0362521163788632E-07, 3.716E-12
DataValue, 0.65, 0.1, 0, 4.56089E-07, -4.53316E-07, -1.4900000000000002E-13, 4.56089E-07, 0.00067534361624287228, 9.1535877314141756E-07, 1.4900000000000002E-13
DataValue, 0.70000000000000007, 0.1, 0, 5.23027E-07, -5.20187E-07, 5.254E-12, 5.23027E-07, 0.00072320605639056984, 9.2775752738144161E-07, 5.254E-12
DataValue, 0.75, 0.1, 0, 5.9546499999999994E-07, -5.91924E-07, 4.919E-12, 5.9546499999999994E-07, 0.00077166378689167466, 9.26062973610397E-07, 4.919E-12
DataValue, 0.8, 0.1, 0, 6.71479E-07, -6.67752E-07, 3.4070000000000003E-12, 6.71479E-07, 0.00081943822219859874, 9.3401280949613563E-07, 3.4070000000000003E-12
DataValue, 0.85000000000000009, 0.1, 0, 7.53959E-07, -7.50283E-07, 1.5850000000000002E-12, 7.53959E-07, 0.0008683081250339651, 9.63116078422452E-07, 1.5850000000000002E-12
DataValue, 0.9, 0.1, 0, 8.41947E-07, -8.38119E-07, 2.42E-12, 8.41947E-07, 0.000917576699791358, 9.8094954635421218E-07, 2.42E-12
DataValue, 0.95000000000000007, 0.1, 0, 9.35768E-07, -9.31455E-07, 5.4000000000000004E-12, 9.35768E-07, 0.00096735102212175286, 9.9054342730904756E-07, 5.4000000000000004E-12
DataValue, 1, 0.1, 0, 1.034498E-06, -1.03097E-06, 3.1940000000000003E-12, 1.034498E-06, 0.001017102748005333, 9.624910070523966E-07, 3.1940000000000003E-12
DataValue, 1.05, 0.1, 0, 1.1352000000000002E-06, -1.1313699999999999E-06, 6.1800000000000007E-12, 1.1352000000000002E-06, 0.0010654576481493763, 9.6441011511136047E-07, 6.1800000000000007E-12
DataValue, 1.1, 0.1, 0, 1.2439100000000001E-06, -1.2373900000000002E-06, 5.0730000000000007E-12, 1.2439100000000001E-06, 0.0011153071325872529, 1.0564678364502507E-06, 5.0730000000000007E-12
DataValue, 1.1500000000000001, 0.1, 0, 1.3647900000000002E-06, -1.3603700000000002E-06, 4.2900000000000005E-12, 1.3647900000000002E-06, 0.0011682422693944951, 1.125500510650718E-06, 4.2900000000000005E-12
DataValue, 1.2, 0.1, 0, 1.4918100000000001E-06, -1.48755E-06, -9.1800000000000013E-13, 1.4918100000000001E-06, 0.0012213967414398976, 1.137754391131202E-06, 9.1800000000000013E-13
DataValue, 1.25, 0.1, 0, 1.62539E-06, -1.6199400000000002E-06, 2.6800000000000003E-12, 1.62539E-06, 0.00127490783980647, 1.1447558013603065E-06, 2.6800000000000003E-12
DataValue, 1.3, 0.1, 0, 1.7646200000000001E-06, -1.7594300000000002E-06, 5.732E-12, 1.7646200000000001E-06, 0.0013283900029735245, 1.1387962122489708E-06, 5.732E-12
DataValue, 1.35, 0.1, 0, 1.9088800000000003E-06, -1.9044500000000003E-06, 3.4810000000000002E-12, 1.9088800000000003E-06, 0.0013816222349108313, 1.1464326511286684E-06, 3.4810000000000002E-12
DataValue, 1.4000000000000001, 0.1, 0, 2.06055E-06, -2.0569E-06, 4.162E-12, 2.06055E-06, 0.0014354615982324292, 1.1629628561032333E-06, 4.162E-12
DataValue, 1.4500000000000002, 0.1, 0, 2.2185E-06, -2.21307E-06, 3.766E-12, 2.2185E-06, 0.0014894629904767692, 1.1760487722364918E-06, 3.766E-12
DataValue, 1.5, 0.1, 0, 2.38365E-06, -2.37937E-06, 2.03E-12, 2.38365E-06, 0.0015439073806417275, 1.1850746026870567E-06, 2.03E-12
DataValue, 1.55, 0.1, 0, 2.5546400000000003E-06, -2.5505900000000003E-06, 3.9160000000000007E-12, 2.5546400000000003E-06, 0.001598324122323129, 1.1656940448073652E-06, 3.9160000000000007E-12
DataValue, 1.6, 0.1, 0, 2.7286900000000004E-06, -2.7254500000000003E-06, 3.3790000000000004E-12, 2.7286900000000004E-06, 0.0016518746925841561, 1.1492937979287454E-06, 3.3790000000000004E-12
DataValue, 1.6500000000000001, 0.1, 0, 2.9088300000000004E-06, -2.90491E-06, 5.501E-12, 2.9088300000000004E-06, 0.00170552924337286, 1.15159983650825E-06, 5.501E-12
DataValue, 1.7000000000000002, 0.1, 0, 3.0947400000000005E-06, -3.09031E-06, -1.8440000000000002E-12, 3.0947400000000005E-06, 0.0017591873123689815, 1.1419367997030158E-06, 1.8440000000000002E-12
DataValue, 1.75, 0.1, 0, 3.2847600000000005E-06, -3.2816000000000005E-06, 3.5E-13, 3.2847600000000005E-06, 0.0018123906863587664, 1.1116744609401032E-06, 3.5E-13
DataValue, 1.8, 0.1, 0, 3.4768200000000005E-06, -3.4741300000000003E-06, 2.6340000000000003E-12, 3.4768200000000005E-06, 0.0018646232863503557, 1.1227004835557682E-06, 2.6340000000000003E-12
DataValue, 1.85, 0.1, 0, 3.6800600000000003E-06, -3.67691E-06, 2.5800000000000003E-12, 3.6800600000000003E-06, 0.0019183482478423986, 1.0973033711169036E-06, 2.5800000000000003E-12
DataValue, 1.9000000000000001, 0.1, 0, 3.87844E-06, -3.87608E-06, 4.523E-12, 3.87844E-06, 0.001969375535544199, 1.0460261179594988E-06, 4.523E-12
DataValue, 1.9500000000000002, 0.1, 0, 4.08292E-06, -4.0808600000000008E-06, 5.6440000000000006E-12, 4.08292E-06, 0.0020206236660991576, 1.0166155125808203E-06, 5.6440000000000006E-12
DataValue, 2, 0.1, 0, 4.2857400000000006E-06, -4.2838900000000008E-06, 6.597E-12, 4.2857400000000006E-06, 0.0020702028886077808, 9.994590344595596E-07, 6.597E-12
DataValue, 2.05, 0.1, 0, 4.4969300000000005E-06, -4.49573E-06, 4.039E-12, 4.4969300000000005E-06, 0.002120596614163099, 9.8406906151424866E-07, 4.039E-12
DataValue, 2.1, 0.1, 0, 4.7063100000000009E-06, -4.7059100000000008E-06, 5.269E-12, 4.7063100000000009E-06, 0.0021694031437240985, 9.4376824925138041E-07, 5.269E-12
DataValue, 2.15, 0.1, 0, 4.91839E-06, -4.9180900000000005E-06, 3.3E-12, 4.91839E-06, 0.0022177443495588036, 9.0463414267356882E-07, 3.3E-12
DataValue, 2.2, 0.1, 0, 5.12803E-06, -5.12751E-06, 3.5000000000000004E-12, 5.12803E-06, 0.0022645154006983481, 8.657878650767E-07, 3.5000000000000004E-12
DataValue, 2.25, 0.1, 0, 5.3397600000000007E-06, -5.3386200000000006E-06, -1.6100000000000002E-12, 5.3397600000000007E-06, 0.0023107920719960939, 8.3773551278324979E-07, 1.6100000000000002E-12
