
SetupTitle, Transfer stab
PrimitiveTest, I/V Sweep
TestParameter, Context.MainFrame, 4155C
TestParameter, Channel.UnitType, SMU, SMU, SMU
TestParameter, Channel.Unit, SMU1:MP, SMU4:MP, SMU3:MP
TestParameter, Channel.IName, ID, IS, IG
TestParameter, Channel.VName, VD, VS, VG
TestParameter, Channel.Mode, V, COMMON, V
TestParameter, Channel.Func, CONST, CONST, VAR1
TestParameter, Channel.Index, 
TestParameter, Channel.Time, 
TestParameter, Measurement.Port.Unit, SMU1:MP, SMU4:MP, SMU3:MP
TestParameter, Measurement.Port.SeriesResistor, NONE, NONE, NONE
TestParameter, Measurement.Port.Filter, ON, ON, ON
TestParameter, Measurement.Primary.Locus, Single
TestParameter, Measurement.Primary.Scale, LINEAR
TestParameter, Measurement.Primary.Start, -2
TestParameter, Measurement.Primary.Stop, 3
TestParameter, Measurement.Primary.Step, 0.005
TestParameter, Measurement.Primary.Compliance, 0.1
TestParameter, Measurement.Primary.PowerCompliance, 0
TestParameter, Measurement.Aborting.Condition, CONTINUE AT ANY
TestParameter, Measurement.PostOutput.Value, START
TestParameter, Measurement.PostOutput.Retention, OFF
TestParameter, Measurement.Bias.Source, 3, 0, -2
TestParameter, Measurement.Bias.Compliance, 0.1, 0.1, 0.1
TestParameter, Measurement.Monitor.Unit, SMU1:MP, SMU4:MP, SMU3:MP
TestParameter, Measurement.Monitor.Adc, HR ADC, HR ADC, HR ADC
TestParameter, Measurement.Monitor.RangingMode, AUTO, AUTO, AUTO
TestParameter, Measurement.Monitor.RangeBoundary, , , 
TestParameter, Measurement.Monitor.RangeRating, BY FULL RANGE, BY FULL RANGE, BY FULL RANGE
TestParameter, Measurement.Monitor.RangeRatingCoeff, 50, 50, 50
TestParameter, Measurement.Timing.Hold, 0.5
TestParameter, Measurement.Timing.Delay, 0.05
TestParameter, Measurement.Adc.HighResolution.AutoZero, OFF
TestParameter, Measurement.Adc.HighResolution.Mode, AUTO
TestParameter, Measurement.Adc.HighResolution.Coeff, 1
TestParameter, Measurement.Ag16440ASelector.SemiconductorRelay.Channel1, DEFAULT
TestParameter, Measurement.Ag16440ASelector.SemiconductorRelay.Channel3, DEFAULT
TestParameter, Function.User.Name, absID, sqrtID, gm2, absIG
TestParameter, Function.User.Unit, A, A, A/V, A
TestParameter, Function.User.Definition, abs(ID), sqrt(abs(ID)), (delta(sqrtID)/delta(VG))^2, abs(IG)
TestParameter, Output.Graph.Enabled, true
TestParameter, Output.Graph.XAxis.Data, VG
TestParameter, Output.Graph.XAxis.Scale, Linear
TestParameter, Output.Graph.XAxis.Left, -5
TestParameter, Output.Graph.XAxis.Right, 7
TestParameter, Output.Graph.YAxis.Data, ID, absIG, gm2
TestParameter, Output.Graph.YAxis.Scale, Log, Log, Linear
TestParameter, Output.Graph.YAxis.Bottom, 1E-14, 1E-14, 0
TestParameter, Output.Graph.YAxis.Top, 0.01, 0.01, 1E-05
TestParameter, Output.Graph.YAxis.Group, , , 
TestParameter, Output.List.Data, VG, IG, VD, ID, VS, IS, sqrtID, gm2, absIG
TestParameter, AutoAnalysis.Interpolation, false
TestParameter, AutoAnalysis.Line1.Enabled, false
TestParameter, AutoAnalysis.Line1.Type, 1
TestParameter, AutoAnalysis.Line1.Fix, True
TestParameter, AutoAnalysis.Line1.YAxis, 0
TestParameter, AutoAnalysis.Line1.Point1.Type, 0
TestParameter, AutoAnalysis.Line1.Point1.XY.X, 
TestParameter, AutoAnalysis.Line1.Point1.XY.Y, 
TestParameter, AutoAnalysis.Line1.Point1.Data.Var, 
TestParameter, AutoAnalysis.Line1.Point1.Data.Condition, 
TestParameter, AutoAnalysis.Line1.Point1.Data.Start, false
TestParameter, AutoAnalysis.Line1.Point1.Data.StartVar, 
TestParameter, AutoAnalysis.Line1.Point1.Data.StartCondition, 
TestParameter, AutoAnalysis.Line1.Point2.Type, 0
TestParameter, AutoAnalysis.Line1.Point2.XY.X, 
TestParameter, AutoAnalysis.Line1.Point2.XY.Y, 
TestParameter, AutoAnalysis.Line1.Point2.Data.Var, 
TestParameter, AutoAnalysis.Line1.Point2.Data.Condition, 
TestParameter, AutoAnalysis.Line1.Point2.Data.Start, false
TestParameter, AutoAnalysis.Line1.Point2.Data.StartVar, 
TestParameter, AutoAnalysis.Line1.Point2.Data.StartCondition, 
TestParameter, AutoAnalysis.Line1.GradientExpr, 0
TestParameter, AutoAnalysis.Line2.Enabled, false
TestParameter, AutoAnalysis.Line2.Type, 1
TestParameter, AutoAnalysis.Line2.Fix, True
TestParameter, AutoAnalysis.Line2.YAxis, 0
TestParameter, AutoAnalysis.Line2.Point1.Type, 0
TestParameter, AutoAnalysis.Line2.Point1.XY.X, 
TestParameter, AutoAnalysis.Line2.Point1.XY.Y, 
TestParameter, AutoAnalysis.Line2.Point1.Data.Var, 
TestParameter, AutoAnalysis.Line2.Point1.Data.Condition, 
TestParameter, AutoAnalysis.Line2.Point1.Data.Start, false
TestParameter, AutoAnalysis.Line2.Point1.Data.StartVar, 
TestParameter, AutoAnalysis.Line2.Point1.Data.StartCondition, 
TestParameter, AutoAnalysis.Line2.Point2.Type, 0
TestParameter, AutoAnalysis.Line2.Point2.XY.X, 
TestParameter, AutoAnalysis.Line2.Point2.XY.Y, 
TestParameter, AutoAnalysis.Line2.Point2.Data.Var, 
TestParameter, AutoAnalysis.Line2.Point2.Data.Condition, 
TestParameter, AutoAnalysis.Line2.Point2.Data.Start, false
TestParameter, AutoAnalysis.Line2.Point2.Data.StartVar, 
TestParameter, AutoAnalysis.Line2.Point2.Data.StartCondition, 
TestParameter, AutoAnalysis.Line2.GradientExpr, 0
TestParameter, AutoAnalysis.Marker.Enabled, false
TestParameter, AutoAnalysis.Marker.Data.Var, 
TestParameter, AutoAnalysis.Marker.Data.Condition, 
TestParameter, AutoAnalysis.Marker.Data.Start, false
TestParameter, AutoAnalysis.Marker.Data.StartVar, 
TestParameter, AutoAnalysis.Marker.Data.StartCondition, 
MetaData, TestRecord.EntryPoint, true
MetaData, TestRecord.RecordTime, 04/26/2019 09:59:11
MetaData, TestRecord.TestTarget, 100-20
MetaData, TestRecord.IterationIndex, 1
MetaData, TestRecord.Preservation, true
MetaData, TestRecord.Flag, 
MetaData, TestRecord.Remarks, 100-20-300-250
MetaData, TestRecord.LinkKey, 745d8bd8-8489-472e-814e-ad352e103883
Dimension1, 1001, 1001, 1001, 1001, 1001, 1001, 1001, 1001, 1001, 1001
Dimension2, 1, 1, 1, 1, 1, 1, 1, 1, 1, 1
DataName, VG, VD, VS, ID, IS, IG, absID, sqrtID, gm2, absIG
DataValue, -2, 3, 0, 3.5375E-11, 4.46E-13, -3.0826E-11, 3.5375E-11, 5.94768862668516E-06, 8.4419692591029178E-10, 3.0826E-11
DataValue, -1.995, 3, 0, 3.3668E-11, -3.0610000000000004E-12, -3.0636E-11, 3.3668E-11, 5.8024132910367559E-06, 2.6389608473035889E-10, 3.0636E-11
DataValue, -1.99, 3, 0, 3.3469E-11, -2.46E-13, -3.0482000000000005E-11, 3.3469E-11, 5.7852398394535034E-06, 1.3433898605355832E-11, 3.0482000000000005E-11
DataValue, -1.985, 3, 0, 3.3244E-11, -9.51E-13, -3.1094E-11, 3.3244E-11, 5.76576100788092E-06, 1.8168278206763906E-11, 3.1094E-11
DataValue, -1.9800000000000002, 3, 0, 3.3964E-11, -1.3590000000000002E-12, -2.9625E-11, 3.3964E-11, 5.8278641027395277E-06, 5.829327348134384E-12, 2.9625E-11
DataValue, -1.975, 3, 0, 3.3523000000000004E-11, -3.6070000000000003E-12, -2.9963000000000006E-11, 3.3523000000000004E-11, 5.7899050078563472E-06, 4.3340116404145724E-11, 2.9963000000000006E-11
DataValue, -1.9700000000000002, 3, 0, 3.3201E-11, -2.2630000000000004E-12, -3.0018E-11, 3.3201E-11, 5.7620308919685606E-06, 1.5068490840128355E-11, 3.0018E-11
DataValue, -1.965, 3, 0, 3.3075E-11, -1.2920000000000002E-12, -3.005E-11, 3.3075E-11, 5.7510868538042437E-06, 2.6538572180192812E-12, 3.005E-11
DataValue, -1.9600000000000002, 3, 0, 3.3389000000000005E-11, -2.2420000000000003E-12, -2.9608000000000004E-11, 3.3389000000000005E-11, 5.7783215556076493E-06, 4.8197545517779913E-12, 2.9608000000000004E-11
DataValue, -1.955, 3, 0, 3.3328000000000005E-11, -2.633E-12, -2.9704E-11, 3.3328000000000005E-11, 5.7730407932042193E-06, 1.172116314236892E-12, 2.9704E-11
DataValue, -1.9500000000000002, 3, 0, 3.3264000000000005E-11, -2.364E-12, -2.9254000000000004E-11, 3.3264000000000005E-11, 5.767495123535E-06, 1.633361543638351E-11, 2.9254000000000004E-11
DataValue, -1.945, 3, 0, 3.2863000000000003E-11, -2.545E-12, -2.9659E-11, 3.2863000000000003E-11, 5.7326259253504411E-06, 1.2726299132406378E-12, 2.9659E-11
DataValue, -1.9400000000000002, 3, 0, 3.3134E-11, -2.9940000000000004E-12, -2.9413000000000005E-11, 3.3134E-11, 5.7562140335467026E-06, 3.1252633645824646E-12, 2.9413000000000005E-11
DataValue, -1.935, 3, 0, 3.3066E-11, -1.6070000000000001E-12, -2.8930000000000004E-11, 3.3066E-11, 5.75030433977194E-06, 6.39507078827176E-13, 2.8930000000000004E-11
DataValue, -1.9300000000000002, 3, 0, 3.3042E-11, -2.0370000000000003E-12, -2.8854E-11, 3.3042E-11, 5.7482171148974529E-06, 1.033148475747406E-12, 2.8854E-11
DataValue, -1.925, 3, 0, 3.3183E-11, -4.9870000000000005E-12, -2.8569000000000002E-11, 3.3183E-11, 5.7604687309280661E-06, 2.88554108147585E-12, 2.8569000000000002E-11
DataValue, -1.9200000000000002, 3, 0, 3.2847E-11, -1.3740000000000002E-12, -2.8602E-11, 3.2847E-11, 5.7312302344261131E-06, 1.8849149189421017E-13, 2.8602E-11
DataValue, -1.915, 3, 0, 3.3133E-11, -3.4150000000000003E-12, -2.9568000000000003E-11, 3.3133E-11, 5.7561271702421582E-06, 6.8468143058771309E-14, 2.9568000000000003E-11
DataValue, -1.9100000000000001, 3, 0, 3.2877E-11, -3.676E-12, -2.8065000000000002E-11, 3.2877E-11, 5.7338468762254195E-06, 2.2100954289850227E-11, 2.8065000000000002E-11
DataValue, -1.905, 3, 0, 3.2594E-11, -1.954E-12, -2.6960000000000003E-11, 3.2594E-11, 5.7091155181866834E-06, 1.0412333422564053E-11, 2.6960000000000003E-11
DataValue, -1.9000000000000001, 3, 0, 3.2508E-11, -3.0230000000000003E-12, -2.7955000000000002E-11, 3.2508E-11, 5.7015787287382084E-06, 1.3744235395732993E-12, 2.7955000000000002E-11
DataValue, -1.895, 3, 0, 3.2728E-11, -2.974E-12, -2.8257E-11, 3.2728E-11, 5.72083909929304E-06, 3.7642514649530609E-13, 2.8257E-11
DataValue, -1.8900000000000001, 3, 0, 3.2578E-11, -4.515E-12, -2.8283E-11, 3.2578E-11, 5.7077140783329365E-06, 7.6162155990393282E-12, 2.8283E-11
DataValue, -1.885, 3, 0, 3.2413E-11, -4.351E-12, -3.1682000000000005E-11, 3.2413E-11, 5.6932416073797535E-06, 1.272877376191613E-11, 3.1682000000000005E-11
DataValue, -1.8800000000000001, 3, 0, 3.2172E-11, -2.1790000000000003E-12, -2.7801000000000002E-11, 3.2172E-11, 5.6720366712495789E-06, 1.4236030499721457E-12, 2.7801000000000002E-11
DataValue, -1.875, 3, 0, 3.2549000000000004E-11, -1.258E-12, -2.8516000000000003E-11, 3.2549000000000004E-11, 5.7051730911515739E-06, 3.0986688164263003E-12, 2.8516000000000003E-11
DataValue, -1.87, 3, 0, 3.2372000000000005E-11, -3.802E-12, -2.697E-11, 3.2372000000000005E-11, 5.689639707398E-06, 5.91855650893325E-12, 2.697E-11
DataValue, -1.865, 3, 0, 3.2272E-11, -2.37E-12, -2.7921E-11, 3.2272E-11, 5.6808450075670964E-06, 4.8794743821359366E-11, 2.7921E-11
DataValue, -1.86, 3, 0, 3.1582E-11, -2.849E-12, -2.7172000000000003E-11, 3.1582E-11, 5.6197864728119345E-06, 2.2570362158433425E-13, 2.7172000000000003E-11
DataValue, -1.855, 3, 0, 3.2326000000000004E-11, -4.8870000000000005E-12, -2.7824000000000003E-11, 3.2326000000000004E-11, 5.6855958350906373E-06, 4.4253905924879604E-12, 2.7824000000000003E-11
DataValue, -1.85, 3, 0, 3.1346000000000005E-11, -1.1E-14, -2.7172000000000003E-11, 3.1346000000000005E-11, 5.5987498604599231E-06, 2.9436011804547628E-11, 2.7172000000000003E-11
DataValue, -1.8450000000000002, 3, 0, 3.1712000000000004E-11, -1.0185000000000002E-11, -2.7709E-11, 3.1712000000000004E-11, 5.6313408705209812E-06, 1.9617981981107047E-11, 2.7709E-11
DataValue, -1.84, 3, 0, 3.0852E-11, 1.8000000000000002E-14, -2.5086000000000002E-11, 3.0852E-11, 5.5544576692958961E-06, 1.008435356369147E-12, 2.5086000000000002E-11
DataValue, -1.8350000000000002, 3, 0, 3.1599000000000004E-11, -3.671E-12, -2.7626000000000004E-11, 3.1599000000000004E-11, 5.6212987823100106E-06, 1.6331665531351182E-10, 2.7626000000000004E-11
DataValue, -1.83, 3, 0, 3.2288E-11, -5.064E-12, -2.7303000000000002E-11, 3.2288E-11, 5.6822530742655241E-06, 3.3774973419477446E-11, 2.7303000000000002E-11
DataValue, -1.8250000000000002, 3, 0, 3.0949000000000005E-11, -7.0870000000000008E-12, -2.6684E-11, 3.0949000000000005E-11, 5.563182542394237E-06, 9.2887248417795566E-11, 2.6684E-11
DataValue, -1.82, 3, 0, 3.1202000000000004E-11, 1.2800000000000002E-12, -2.7898E-11, 3.1202000000000004E-11, 5.5858750433571289E-06, 9.176227932280932E-11, 2.7898E-11
DataValue, -1.8150000000000002, 3, 0, 3.2024000000000005E-11, -2.736E-12, -2.8516000000000003E-11, 3.2024000000000005E-11, 5.6589751722374611E-06, 6.7412633008374937E-11, 2.8516000000000003E-11
DataValue, -1.81, 3, 0, 3.2126E-11, -4.346E-12, -2.726E-11, 3.2126E-11, 5.6679802399090982E-06, 1.2261621693175475E-10, 2.726E-11
DataValue, -1.8050000000000002, 3, 0, 3.0783E-11, -6.31E-12, -2.6248000000000002E-11, 3.0783E-11, 5.5482429651196785E-06, 3.5514046278296734E-11, 2.6248000000000002E-11
DataValue, -1.8, 3, 0, 3.1454E-11, -5.5420000000000004E-12, -2.6457000000000002E-11, 3.1454E-11, 5.60838657726088E-06, 3.5953384656612128E-10, 2.6457000000000002E-11
DataValue, -1.7950000000000002, 3, 0, 3.2923E-11, -1.0311000000000002E-11, -2.6241000000000003E-11, 3.2923E-11, 5.7378567427219725E-06, 3.372272504190876E-11, 2.6241000000000003E-11
DataValue, -1.79, 3, 0, 3.0806E-11, -1.7434E-11, -2.6883000000000002E-11, 3.0806E-11, 5.55031530635873E-06, 1.3110028213237304E-09, 2.6883000000000002E-11
DataValue, -1.7850000000000001, 3, 0, 2.8899000000000003E-11, 1.0033000000000001E-11, -2.7178000000000002E-11, 2.8899000000000003E-11, 5.3757790133151872E-06, 3.7360959646568745E-10, 2.7178000000000002E-11
DataValue, -1.78, 3, 0, 3.2989000000000005E-11, -2.0870000000000003E-12, -2.6895E-11, 3.2989000000000005E-11, 5.74360513963138E-06, 7.9800189364052246E-10, 2.6895E-11
DataValue, -1.7750000000000001, 3, 0, 3.2016E-11, -8.070000000000001E-12, -2.6416000000000002E-11, 3.2016E-11, 5.6582682863222385E-06, 3.8625550378315471E-10, 2.6416000000000002E-11
DataValue, -1.77, 3, 0, 3.077E-11, -5.5750000000000008E-12, -2.6687E-11, 3.077E-11, 5.5470712993434651E-06, 1.5111117417881872E-10, 2.6687E-11
DataValue, -1.7650000000000001, 3, 0, 3.0640000000000004E-11, -2.699E-12, -2.6170000000000002E-11, 3.0640000000000004E-11, 5.5353410012392192E-06, 8.8431624104861847E-14, 2.6170000000000002E-11
DataValue, -1.76, 3, 0, 3.0803E-11, -2.105E-12, -2.6580000000000003E-11, 3.0803E-11, 5.5500450448622488E-06, 3.1250506117841685E-11, 2.6580000000000003E-11
DataValue, -1.7550000000000001, 3, 0, 3.1262E-11, -1.6310000000000002E-12, -2.7010000000000002E-11, 3.1262E-11, 5.5912431533604406E-06, 8.0122770922500845E-12, 2.7010000000000002E-11
DataValue, -1.75, 3, 0, 3.1118E-11, -6.11E-13, -2.6349000000000003E-11, 3.1118E-11, 5.5783510108274832E-06, 3.6158192726371507E-12, 2.6349000000000003E-11
DataValue, -1.745, 3, 0, 3.1475E-11, -1.9800000000000002E-13, -2.4944000000000002E-11, 3.1475E-11, 5.6102584610693291E-06, 1.7426911624400338E-11, 2.4944000000000002E-11
DataValue, -1.74, 3, 0, 3.0654E-11, -8.01E-12, -2.5899000000000003E-11, 3.0654E-11, 5.5366054582207679E-06, 9.7466451941127353E-11, 2.5899000000000003E-11
DataValue, -1.735, 3, 0, 3.0377E-11, -7.1700000000000008E-13, -2.5949000000000003E-11, 3.0377E-11, 5.5115333619601727E-06, 4.7182913307063645E-12, 2.5949000000000003E-11
DataValue, -1.73, 3, 0, 3.0895E-11, -2.255E-12, -2.4738000000000002E-11, 3.0895E-11, 5.5583270864532609E-06, 1.3475949641283985E-11, 2.4738000000000002E-11
DataValue, -1.725, 3, 0, 3.0783E-11, -4.84E-12, -2.6132000000000002E-11, 3.0783E-11, 5.5482429651196785E-06, 1.2300054596485025E-13, 2.6132000000000002E-11
DataValue, -1.72, 3, 0, 3.0934000000000005E-11, -7.3220000000000013E-12, -2.5504E-11, 3.0934000000000005E-11, 5.5618342298202314E-06, 8.8379395701747978E-12, 2.5504E-11
DataValue, -1.715, 3, 0, 3.0454000000000004E-11, -6.38E-13, -2.6152000000000002E-11, 3.0454000000000004E-11, 5.5185142928146885E-06, 4.2167567983761779E-12, 2.6152000000000002E-11
DataValue, -1.7100000000000002, 3, 0, 3.0706E-11, -5.2000000000000005E-12, -2.5502000000000003E-11, 3.0706E-11, 5.5412994865825476E-06, 7.3520242878881433E-12, 2.5502000000000003E-11
DataValue, -1.705, 3, 0, 3.0754E-11, -2.368E-12, -2.5835E-11, 3.0754E-11, 5.5456289093303027E-06, 1.2952400855391513E-12, 2.5835E-11
DataValue, -1.7000000000000002, 3, 0, 3.058E-11, -4.3820000000000005E-12, -2.6369000000000003E-11, 3.058E-11, 5.5299186250793961E-06, 1.6880044662026859E-11, 2.6369000000000003E-11
DataValue, -1.695, 3, 0, 3.03E-11, -4.0850000000000005E-12, -2.5274000000000002E-11, 3.03E-11, 5.504543577809154E-06, 7.370653200020035E-12, 2.5274000000000002E-11
DataValue, -1.6900000000000002, 3, 0, 3.0881E-11, -3.141E-12, -2.5372000000000003E-11, 3.0881E-11, 5.5570675720203366E-06, 5.5799520515071024E-14, 2.5372000000000003E-11
DataValue, -1.685, 3, 0, 3.0274000000000004E-11, -3.8530000000000006E-12, -2.5238E-11, 3.0274000000000004E-11, 5.50218138559608E-06, 1.0612378155543006E-11, 2.5238E-11
DataValue, -1.6800000000000002, 3, 0, 3.052E-11, -5.2680000000000006E-12, -2.5314000000000003E-11, 3.052E-11, 5.5244909267732535E-06, 2.1886005893108632E-11, 2.5314000000000003E-11
DataValue, -1.675, 3, 0, 3.0791E-11, -3.7030000000000007E-12, -2.3919E-11, 3.0791E-11, 5.548963867245848E-06, 1.430355656003575E-12, 2.3919E-11
DataValue, -1.6700000000000002, 3, 0, 3.0388E-11, -4.104E-12, -2.5323000000000003E-11, 3.0388E-11, 5.5125311790501468E-06, 2.197111451090045E-11, 2.5323000000000003E-11
DataValue, -1.665, 3, 0, 3.0273E-11, -3.844E-12, -2.4821000000000003E-11, 3.0273E-11, 5.5020905117964026E-06, 1.019462468380037E-11, 2.4821000000000003E-11
DataValue, -1.6600000000000001, 3, 0, 3.0037E-11, -2.908E-12, -2.5238E-11, 3.0037E-11, 5.4806021566977471E-06, 3.99841398443075E-14, 2.5238E-11
DataValue, -1.655, 3, 0, 3.0251E-11, -3.5520000000000002E-12, -2.3768E-11, 3.0251E-11, 5.5000909083396066E-06, 2.9195889959420202E-12, 2.3768E-11
DataValue, -1.6500000000000001, 3, 0, 2.9850000000000005E-11, -4.105E-12, -2.4579000000000002E-11, 2.9850000000000005E-11, 5.4635153518590945E-06, 6.462764863365406E-12, 2.4579000000000002E-11
DataValue, -1.645, 3, 0, 2.9972000000000005E-11, -6.1560000000000008E-12, -2.511E-11, 2.9972000000000005E-11, 5.4746689397624774E-06, 3.8068376893337287E-11, 2.511E-11
DataValue, -1.6400000000000001, 3, 0, 3.0528E-11, -5.6960000000000008E-12, -2.4639000000000003E-11, 3.0528E-11, 5.5252149279462422E-06, 4.3909564435221871E-12, 2.4639000000000003E-11
DataValue, -1.635, 3, 0, 2.9743000000000005E-11, -2.9840000000000002E-12, -2.4798000000000003E-11, 2.9743000000000005E-11, 5.453714330619088E-06, 4.8663101756072849E-11, 2.4798000000000003E-11
DataValue, -1.6300000000000001, 3, 0, 2.9762E-11, -6.7280000000000004E-12, -2.4403E-11, 2.9762E-11, 5.4554559846084357E-06, 9.60484099705012E-12, 2.4403E-11
DataValue, -1.625, 3, 0, 3.0082000000000005E-11, -3.58E-12, -2.4751E-11, 3.0082000000000005E-11, 5.484706008529537E-06, 7.825222492150528E-12, 2.4751E-11
DataValue, -1.62, 3, 0, 3.0068E-11, -4.12E-12, -2.3508E-11, 3.0068E-11, 5.4834295837550428E-06, 8.82583089230362E-12, 2.3508E-11
DataValue, -1.615, 3, 0, 2.9757E-11, -4.838E-12, -2.4465000000000003E-11, 2.9757E-11, 5.4549977085238086E-06, 3.7519176438253206E-11, 2.4465000000000003E-11
DataValue, -1.61, 3, 0, 2.94E-11, -8.534E-12, -2.3291000000000003E-11, 2.94E-11, 5.4221766846903836E-06, 8.9227555927347331E-12, 2.3291000000000003E-11
DataValue, -1.605, 3, 0, 2.9432E-11, -4.1160000000000006E-12, -2.4902000000000004E-11, 2.9432E-11, 5.425126726630448E-06, 7.2639337694263273E-12, 2.4902000000000004E-11
DataValue, -1.6, 3, 0, 2.9693E-11, -2.8940000000000004E-12, -2.4601000000000003E-11, 2.9693E-11, 5.4491283706662671E-06, 1.0825416449602845E-12, 2.4601000000000003E-11
DataValue, -1.595, 3, 0, 2.9545E-11, -3.7350000000000005E-12, -2.4184000000000003E-11, 2.9545E-11, 5.4355312527847728E-06, 4.0902010696555977E-12, 2.4184000000000003E-11
DataValue, -1.59, 3, 0, 2.9473E-11, -4.1690000000000005E-12, -2.3816000000000003E-11, 2.9473E-11, 5.42890412514349E-06, 2.7518513011951666E-13, 2.3816000000000003E-11
DataValue, -1.5850000000000002, 3, 0, 2.9488E-11, -5.3650000000000007E-12, -2.4528E-11, 2.9488E-11, 5.4302854436944655E-06, 1.913398582466643E-12, 2.4528E-11
DataValue, -1.58, 3, 0, 2.9323E-11, -4.083E-12, -2.5071000000000003E-11, 2.9323E-11, 5.41507156000731E-06, 7.1335271590311988E-14, 2.5071000000000003E-11
