
SetupTitle, Transfer stab
PrimitiveTest, I/V Sweep
TestParameter, Context.MainFrame, 4155C
TestParameter, Channel.UnitType, SMU, SMU, SMU
TestParameter, Channel.Unit, SMU3:MP, SMU4:MP, SMU1:MP
TestParameter, Channel.IName, ID, IS, IG
TestParameter, Channel.VName, VD, VS, VG
TestParameter, Channel.Mode, V, COMMON, V
TestParameter, Channel.Func, CONST, CONST, VAR1
TestParameter, Channel.Index, 
TestParameter, Channel.Time, 
TestParameter, Measurement.Port.Unit, SMU3:MP, SMU4:MP, SMU1:MP
TestParameter, Measurement.Port.SeriesResistor, NONE, NONE, NONE
TestParameter, Measurement.Port.Filter, ON, ON, ON
TestParameter, Measurement.Primary.Locus, Single
TestParameter, Measurement.Primary.Scale, LINEAR
TestParameter, Measurement.Primary.Start, -2
TestParameter, Measurement.Primary.Stop, 3
TestParameter, Measurement.Primary.Step, 0.05
TestParameter, Measurement.Primary.Compliance, 0.1
TestParameter, Measurement.Primary.PowerCompliance, 0
TestParameter, Measurement.Aborting.Condition, CONTINUE AT ANY
TestParameter, Measurement.PostOutput.Value, START
TestParameter, Measurement.PostOutput.Retention, OFF
TestParameter, Measurement.Bias.Source, 3, 0, -2
TestParameter, Measurement.Bias.Compliance, 0.1, 0.1, 0.1
TestParameter, Measurement.Monitor.Unit, SMU3:MP, SMU4:MP, SMU1:MP
TestParameter, Measurement.Monitor.Adc, HR ADC, HR ADC, HR ADC
TestParameter, Measurement.Monitor.RangingMode, AUTO, AUTO, AUTO
TestParameter, Measurement.Monitor.RangeBoundary, , , 
TestParameter, Measurement.Monitor.RangeRating, BY FULL RANGE, BY FULL RANGE, BY FULL RANGE
TestParameter, Measurement.Monitor.RangeRatingCoeff, 50, 50, 50
TestParameter, Measurement.Timing.Hold, 0.5
TestParameter, Measurement.Timing.Delay, 0.05
TestParameter, Measurement.Adc.HighResolution.AutoZero, OFF
TestParameter, Measurement.Adc.HighResolution.Mode, AUTO
TestParameter, Measurement.Adc.HighResolution.Coeff, 1
TestParameter, Measurement.Ag16440ASelector.SemiconductorRelay.Channel1, DEFAULT
TestParameter, Measurement.Ag16440ASelector.SemiconductorRelay.Channel3, DEFAULT
TestParameter, Function.User.Name, absID, sqrtID, gm2, absIG
TestParameter, Function.User.Unit, A, A, A/V, A
TestParameter, Function.User.Definition, abs(ID), sqrt(abs(ID)), (delta(sqrtID)/delta(VG))^2, abs(IG)
TestParameter, Output.Graph.Enabled, true
TestParameter, Output.Graph.XAxis.Data, VG
TestParameter, Output.Graph.XAxis.Scale, Linear
TestParameter, Output.Graph.XAxis.Left, -5
TestParameter, Output.Graph.XAxis.Right, 7
TestParameter, Output.Graph.YAxis.Data, ID, absIG, gm2
TestParameter, Output.Graph.YAxis.Scale, Log, Log, Linear
TestParameter, Output.Graph.YAxis.Bottom, 1E-14, 1E-14, 0
TestParameter, Output.Graph.YAxis.Top, 0.01, 0.01, 1E-05
TestParameter, Output.Graph.YAxis.Group, , , 
TestParameter, Output.List.Data, VG, IG, VD, ID, VS, IS, sqrtID, gm2, absIG
TestParameter, AutoAnalysis.Interpolation, false
TestParameter, AutoAnalysis.Line1.Enabled, false
TestParameter, AutoAnalysis.Line1.Type, 1
TestParameter, AutoAnalysis.Line1.Fix, True
TestParameter, AutoAnalysis.Line1.YAxis, 0
TestParameter, AutoAnalysis.Line1.Point1.Type, 0
TestParameter, AutoAnalysis.Line1.Point1.XY.X, 
TestParameter, AutoAnalysis.Line1.Point1.XY.Y, 
TestParameter, AutoAnalysis.Line1.Point1.Data.Var, 
TestParameter, AutoAnalysis.Line1.Point1.Data.Condition, 
TestParameter, AutoAnalysis.Line1.Point1.Data.Start, false
TestParameter, AutoAnalysis.Line1.Point1.Data.StartVar, 
TestParameter, AutoAnalysis.Line1.Point1.Data.StartCondition, 
TestParameter, AutoAnalysis.Line1.Point2.Type, 0
TestParameter, AutoAnalysis.Line1.Point2.XY.X, 
TestParameter, AutoAnalysis.Line1.Point2.XY.Y, 
TestParameter, AutoAnalysis.Line1.Point2.Data.Var, 
TestParameter, AutoAnalysis.Line1.Point2.Data.Condition, 
TestParameter, AutoAnalysis.Line1.Point2.Data.Start, false
TestParameter, AutoAnalysis.Line1.Point2.Data.StartVar, 
TestParameter, AutoAnalysis.Line1.Point2.Data.StartCondition, 
TestParameter, AutoAnalysis.Line1.GradientExpr, 0
TestParameter, AutoAnalysis.Line2.Enabled, false
TestParameter, AutoAnalysis.Line2.Type, 1
TestParameter, AutoAnalysis.Line2.Fix, True
TestParameter, AutoAnalysis.Line2.YAxis, 0
TestParameter, AutoAnalysis.Line2.Point1.Type, 0
TestParameter, AutoAnalysis.Line2.Point1.XY.X, 
TestParameter, AutoAnalysis.Line2.Point1.XY.Y, 
TestParameter, AutoAnalysis.Line2.Point1.Data.Var, 
TestParameter, AutoAnalysis.Line2.Point1.Data.Condition, 
TestParameter, AutoAnalysis.Line2.Point1.Data.Start, false
TestParameter, AutoAnalysis.Line2.Point1.Data.StartVar, 
TestParameter, AutoAnalysis.Line2.Point1.Data.StartCondition, 
TestParameter, AutoAnalysis.Line2.Point2.Type, 0
TestParameter, AutoAnalysis.Line2.Point2.XY.X, 
TestParameter, AutoAnalysis.Line2.Point2.XY.Y, 
TestParameter, AutoAnalysis.Line2.Point2.Data.Var, 
TestParameter, AutoAnalysis.Line2.Point2.Data.Condition, 
TestParameter, AutoAnalysis.Line2.Point2.Data.Start, false
TestParameter, AutoAnalysis.Line2.Point2.Data.StartVar, 
TestParameter, AutoAnalysis.Line2.Point2.Data.StartCondition, 
TestParameter, AutoAnalysis.Line2.GradientExpr, 0
TestParameter, AutoAnalysis.Marker.Enabled, false
TestParameter, AutoAnalysis.Marker.Data.Var, 
TestParameter, AutoAnalysis.Marker.Data.Condition, 
TestParameter, AutoAnalysis.Marker.Data.Start, false
TestParameter, AutoAnalysis.Marker.Data.StartVar, 
TestParameter, AutoAnalysis.Marker.Data.StartCondition, 
MetaData, TestRecord.EntryPoint, true
MetaData, TestRecord.RecordTime, 05/27/2019 12:31:00
MetaData, TestRecord.TestTarget, 350-300-G46-2
MetaData, TestRecord.IterationIndex, 1
MetaData, TestRecord.Preservation, true
MetaData, TestRecord.Flag, 
MetaData, TestRecord.Remarks, MEH
MetaData, TestRecord.LinkKey, 1274c9a0-9242-4a4f-80b2-763db1ea0c25
Dimension1, 101, 101, 101, 101, 101, 101, 101, 101, 101, 101
Dimension2, 1, 1, 1, 1, 1, 1, 1, 1, 1, 1
DataName, VG, VD, VS, ID, IS, IG, absID, sqrtID, gm2, absIG
DataValue, -2, 3, 0, 3.17653E-10, 1.7174000000000003E-11, -3.45206E-10, 3.17653E-10, 1.7822822447637189E-05, 9.45850934089574E-12, 3.45206E-10
DataValue, -1.9500000000000002, 3, 0, 3.2315800000000003E-10, 1.1034000000000002E-11, -3.5553E-10, 3.2315800000000003E-10, 1.7976595895775153E-05, 5.9252540364397431E-11, 3.5553E-10
DataValue, -1.9000000000000001, 3, 0, 3.45684E-10, 4.651E-12, -3.25627E-10, 3.45684E-10, 1.8592579164817346E-05, 6.7928048211396661E-13, 3.25627E-10
DataValue, -1.85, 3, 0, 3.26128E-10, 5.2000000000000006E-14, -3.3893500000000003E-10, 3.26128E-10, 1.8059014369560705E-05, 1.4624288933807464E-11, 3.3893500000000003E-10
DataValue, -1.8, 3, 0, 3.3161E-10, -3.707E-12, -3.13436E-10, 3.3161E-10, 1.8210161998181125E-05, 9.628536230647924E-11, 3.13436E-10
DataValue, -1.75, 3, 0, 2.9165E-10, -6.7160000000000009E-12, -3.0595200000000003E-10, 2.9165E-10, 1.7077763319591945E-05, 2.1069173800549057E-10, 3.0595200000000003E-10
DataValue, -1.7000000000000002, 3, 0, 2.8085200000000003E-10, -1.0533000000000001E-11, -2.6382700000000003E-10, 2.8085200000000003E-10, 1.6758639562923957E-05, 4.0800773754509465E-11, 2.6382700000000003E-10
DataValue, -1.6500000000000001, 3, 0, 2.70241E-10, -1.4705000000000002E-11, -2.65944E-10, 2.70241E-10, 1.6439008485915444E-05, 8.4648360839032614E-12, 2.65944E-10
DataValue, -1.6, 3, 0, 2.7118500000000003E-10, -1.8302000000000002E-11, -2.55009E-10, 2.7118500000000003E-10, 1.646769564936151E-05, 1.9051430748963607E-12, 2.55009E-10
DataValue, -1.55, 3, 0, 2.65722E-10, -2.447E-11, -2.43353E-10, 2.65722E-10, 1.6300981565537702E-05, 3.6163885156411453E-13, 2.43353E-10
DataValue, -1.5, 3, 0, 2.6920800000000003E-10, -3.2016E-11, -2.3890800000000004E-10, 2.6920800000000003E-10, 1.6407559233475284E-05, 1.8825399297359646E-12, 2.3890800000000004E-10
DataValue, -1.4500000000000002, 3, 0, 2.70214E-10, -4.2024E-11, -2.32903E-10, 2.70214E-10, 1.6438187247990578E-05, 2.4312511933648742E-12, 2.32903E-10
DataValue, -1.4000000000000001, 3, 0, 2.7434900000000003E-10, -5.4750000000000005E-11, -2.1718600000000002E-10, 2.7434900000000003E-10, 1.6563483933037761E-05, 1.1431536205584055E-11, 2.1718600000000002E-10
DataValue, -1.35, 3, 0, 2.8144400000000005E-10, -7.2743000000000012E-11, -2.1032500000000002E-10, 2.8144400000000005E-10, 1.6776292796681872E-05, 3.0487204426926278E-11, 2.1032500000000002E-10
DataValue, -1.3, 3, 0, 2.92945E-10, -9.561800000000001E-11, -1.9920600000000002E-10, 2.92945E-10, 1.7115636126069051E-05, 8.5438347416497135E-11, 1.9920600000000002E-10
DataValue, -1.25, 3, 0, 3.1331200000000004E-10, -1.23563E-10, -1.95811E-10, 3.1331200000000004E-10, 1.7700621458016666E-05, 1.641781311222869E-10, 1.95811E-10
DataValue, -1.2, 3, 0, 3.3844800000000004E-10, -1.57112E-10, -1.84223E-10, 3.3844800000000004E-10, 1.8396956269992057E-05, 2.4062512967439487E-10, 1.84223E-10
DataValue, -1.1500000000000001, 3, 0, 3.70633E-10, -1.9660800000000002E-10, -1.7228500000000002E-10, 3.70633E-10, 1.9251831081743886E-05, 3.2170398255472544E-10, 1.7228500000000002E-10
DataValue, -1.1, 3, 0, 4.07659E-10, -2.44119E-10, -1.69196E-10, 4.07659E-10, 2.0190567104467375E-05, 4.7083077348921743E-10, 1.69196E-10
DataValue, -1.05, 3, 0, 4.5888900000000005E-10, -3.0076500000000005E-10, -1.61418E-10, 4.5888900000000005E-10, 2.1421694610837866E-05, 6.2661133308523355E-10, 1.61418E-10
DataValue, -1, 3, 0, 5.15008E-10, -3.63955E-10, -1.52138E-10, 5.15008E-10, 2.2693787696195628E-05, 7.1094341473024983E-10, 1.52138E-10
DataValue, -0.95000000000000007, 3, 0, 5.80234E-10, -4.3733900000000005E-10, -1.46032E-10, 5.80234E-10, 2.408804682825073E-05, 8.2751957748051843E-10, 1.46032E-10
DataValue, -0.9, 3, 0, 6.5384800000000006E-10, -5.19161E-10, -1.3757900000000002E-10, 6.5384800000000006E-10, 2.5570451697222717E-05, 9.6247261681844434E-10, 1.3757900000000002E-10
DataValue, -0.85000000000000009, 3, 0, 7.3931900000000008E-10, -6.10537E-10, -1.36146E-10, 7.3931900000000008E-10, 2.71904211074415E-05, 1.1804527675610651E-09, 1.36146E-10
DataValue, -0.8, 3, 0, 8.4136100000000009E-10, -7.1268100000000007E-10, -1.26962E-10, 8.4136100000000009E-10, 2.9006223470145163E-05, 1.2718508064279831E-09, 1.26962E-10
DataValue, -0.75, 3, 0, 9.45976E-10, -8.2937800000000007E-10, -1.2046000000000002E-10, 9.45976E-10, 3.0756722842331559E-05, 1.3214397709017294E-09, 1.2046000000000002E-10
DataValue, -0.70000000000000007, 3, 0, 1.06546E-09, -9.60035E-10, -1.09822E-10, 1.06546E-09, 3.2641384774546563E-05, 1.4356853696354595E-09, 1.09822E-10
DataValue, -0.65, 3, 0, 1.19341E-09, -1.10069E-09, -1.02525E-10, 1.19341E-09, 3.4545766745000752E-05, 1.743786199976091E-09, 1.02525E-10
DataValue, -0.6, 3, 0, 1.35551E-09, -1.26035E-09, -9.4591E-11, 1.35551E-09, 3.6817251391161723E-05, 1.9395857161971516E-09, 9.4591E-11
DataValue, -0.55, 3, 0, 1.51709E-09, -1.42926E-09, -8.825500000000001E-11, 1.51709E-09, 3.8949839537538531E-05, 1.8337767733464081E-09, 8.825500000000001E-11
DataValue, -0.5, 3, 0, 1.68917E-09, -1.60215E-09, -8.2641000000000007E-11, 1.68917E-09, 4.109951337911436E-05, 1.8712447941656943E-09, 8.2641000000000007E-11
DataValue, -0.45, 3, 0, 1.87278E-09, -1.79657E-09, -7.7431E-11, 1.87278E-09, 4.3275628245006448E-05, 2.1539432540875783E-09, 7.7431E-11
DataValue, -0.4, 3, 0, 2.0922E-09, -2.01518E-09, -7.452E-11, 2.0922E-09, 4.5740572799211863E-05, 2.50532320929131E-09, 7.452E-11
DataValue, -0.35000000000000003, 3, 0, 2.33105E-09, -2.25523E-09, -6.6931E-11, 2.33105E-09, 4.828094862365486E-05, 2.5118796450211839E-09, 6.6931E-11
DataValue, -0.3, 3, 0, 2.57581E-09, -2.5096E-09, -5.9932000000000011E-11, 2.57581E-09, 5.075243836506774E-05, 2.5660849357022152E-09, 5.9932000000000011E-11
DataValue, -0.25, 3, 0, 2.84586E-09, -2.7866E-09, -5.3755000000000006E-11, 2.84586E-09, 5.3346602515999082E-05, 2.8148098020581019E-09, 5.3755000000000006E-11
DataValue, -0.2, 3, 0, 3.14249E-09, -3.08844E-09, -4.9123E-11, 3.14249E-09, 5.6057916479298446E-05, 3.036013185553365E-09, 4.9123E-11
DataValue, -0.15, 3, 0, 3.4641E-09, -3.41426E-09, -4.5731E-11, 3.4641E-09, 5.8856605406700107E-05, 3.390188792405957E-09, 4.5731E-11
DataValue, -0.1, 3, 0, 3.82919E-09, -3.77476E-09, -3.9876E-11, 3.82919E-09, 6.188044925499491E-05, 3.680899932226531E-09, 3.9876E-11
DataValue, -0.05, 3, 0, 4.21508E-09, -4.15439E-09, -3.5129000000000003E-11, 4.21508E-09, 6.4923647463770859E-05, 3.7556964231736632E-09, 3.5129000000000003E-11
DataValue, 0, 3, 0, 4.6252E-09, -4.58113E-09, -3.1010000000000005E-11, 4.6252E-09, 6.8008822957025216E-05, 3.9931107637558849E-09, 3.1010000000000005E-11
DataValue, 0.05, 3, 0, 5.07553E-09, -5.0299E-09, -2.7454E-11, 5.07553E-09, 7.1242754017513947E-05, 4.31930210427463E-09, 2.7454E-11
DataValue, 0.1, 3, 0, 5.56232E-09, -5.52763E-09, -2.4175000000000003E-11, 5.56232E-09, 7.45809627183774E-05, 4.7706290790186037E-09, 2.4175000000000003E-11
DataValue, 0.15, 3, 0, 6.10738E-09, -6.06663E-09, -2.1220000000000002E-11, 6.10738E-09, 7.8149728086539111E-05, 5.1586212425676293E-09, 2.1220000000000002E-11
DataValue, 0.2, 3, 0, 6.68524E-09, -6.645E-09, -1.7788000000000003E-11, 6.68524E-09, 8.1763316958156739E-05, 5.5275256564443732E-09, 1.7788000000000003E-11
DataValue, 0.25, 3, 0, 7.3247E-09, -7.27354E-09, -1.539E-11, 7.3247E-09, 8.5584461206459673E-05, 6.090378681605013E-09, 1.539E-11
DataValue, 0.3, 3, 0, 8.02232E-09, -7.97588E-09, -1.361E-11, 8.02232E-09, 8.9567404785446364E-05, 6.4481127569562362E-09, 1.361E-11
DataValue, 0.35000000000000003, 3, 0, 8.76367E-09, -8.71064E-09, -1.1062000000000001E-11, 8.76367E-09, 9.361447537640747E-05, 6.8306049481362263E-09, 1.1062000000000001E-11
DataValue, 0.4, 3, 0, 9.57113E-09, -9.5055E-09, -9.021E-12, 9.57113E-09, 9.7832152179127692E-05, 7.371123306231374E-09, 9.021E-12
DataValue, 0.45, 3, 0, 1.044484E-08, -1.040265E-08, -7.4410000000000011E-12, 1.044484E-08, 0.0001022, 6.5753758872021437E-09, 7.4410000000000011E-12
DataValue, 0.5, 3, 0, 1.12235E-08, -1.1126099999999999E-08, -6.6690000000000008E-12, 1.12235E-08, 0.00010594102132790679, 7.46881431642939E-09, 6.6690000000000008E-12
DataValue, 0.55, 3, 0, 1.2285999999999998E-08, -1.2246299999999999E-08, -4.4240000000000005E-12, 1.2285999999999998E-08, 0.00011084223021935276, 1.023132174641665E-08, 4.4240000000000005E-12
DataValue, 0.6, 3, 0, 1.3468999999999998E-08, -1.3401199999999998E-08, -2.8970000000000003E-12, 1.3468999999999998E-08, 0.00011605602095539894, 1.1127003687975291E-08, 2.8970000000000003E-12
DataValue, 0.65, 3, 0, 1.4735699999999999E-08, -1.46378E-08, -1.36E-12, 1.4735699999999999E-08, 0.00012139069157064721, 1.1576036207497729E-08, 1.36E-12
DataValue, 0.70000000000000007, 3, 0, 1.6082099999999997E-08, -1.5992099999999997E-08, 2.69E-13, 1.6082099999999997E-08, 0.0001268152199067604, 1.2203269329322613E-08, 2.69E-13
DataValue, 0.75, 3, 0, 1.7539699999999997E-08, -1.74624E-08, 1.6110000000000001E-12, 1.7539699999999997E-08, 0.00013243753244454533, 1.3031100372397041E-08, 1.6110000000000001E-12
DataValue, 0.8, 3, 0, 1.91077E-08, -1.8988899999999997E-08, 2.786E-12, 1.91077E-08, 0.00013823060442608214, 1.386625042070605E-08, 2.786E-12
DataValue, 0.85000000000000009, 3, 0, 2.07974E-08, -2.06982E-08, 3.9900000000000006E-12, 2.07974E-08, 0.00014421303685866962, 1.4601660033395311E-08, 3.9900000000000006E-12
DataValue, 0.9, 3, 0, 2.25944E-08, -2.2520699999999997E-08, 5.1000000000000005E-12, 2.25944E-08, 0.00015031433730685839, 1.6617965359107383E-08, 5.1000000000000005E-12
DataValue, 0.95000000000000007, 3, 0, 2.46817E-08, -2.4556899999999997E-08, 6.46E-12, 2.46817E-08, 0.0001571041056115339, 1.80593961258821E-08, 6.46E-12
DataValue, 1, 3, 0, 2.6815E-08, -2.6694199999999998E-08, 7.028E-12, 2.6815E-08, 0.00016375286257039906, 1.8426813082026836E-08, 7.028E-12
DataValue, 1.05, 3, 0, 2.91312E-08, -2.8999199999999998E-08, 8.213E-12, 2.91312E-08, 0.00017067864541295142, 2.0693645523264724E-08, 8.213E-12
DataValue, 1.1, 3, 0, 3.1733199999999995E-08, -3.1590899999999996E-08, 9.2710000000000012E-12, 3.1733199999999995E-08, 0.00017813814863751109, 2.2293954977062622E-08, 9.2710000000000012E-12
DataValue, 1.1500000000000001, 3, 0, 3.4450999999999995E-08, -3.4274799999999997E-08, 9.966E-12, 3.4450999999999995E-08, 0.00018560980577544926, 2.3893628867651492E-08, 9.966E-12
DataValue, 1.2, 3, 0, 3.74793E-08, -3.73098E-08, 1.0821E-11, 3.74793E-08, 0.00019359571276244728, 2.5903875766094308E-08, 1.0821E-11
DataValue, 1.25, 3, 0, 4.0684699999999994E-08, -4.0556499999999997E-08, 1.1805000000000002E-11, 4.0684699999999994E-08, 0.00020170448681177124, 2.7166060778944597E-08, 1.1805000000000002E-11
DataValue, 1.3, 3, 0, 4.4132699999999993E-08, -4.3901E-08, 1.2701000000000001E-11, 4.4132699999999993E-08, 0.00021007784271550391, 2.9741540472133013E-08, 1.2701000000000001E-11
DataValue, 1.35, 3, 0, 4.7939199999999994E-08, -4.7744999999999995E-08, 1.3557000000000001E-11, 4.7939199999999994E-08, 0.00021895022265346065, 3.1938244917105888E-08, 1.3557000000000001E-11
DataValue, 1.4000000000000001, 3, 0, 5.1960799999999994E-08, -5.1778499999999996E-08, 1.4297000000000002E-11, 5.1960799999999994E-08, 0.00022794911712924003, 3.40622804524997E-08, 1.4297000000000002E-11
DataValue, 1.4500000000000002, 3, 0, 5.6361699999999996E-08, -5.6146399999999994E-08, 1.5199E-11, 5.6361699999999996E-08, 0.00023740619200012455, 3.6612801740328062E-08, 1.5199E-11
DataValue, 1.5, 3, 0, 6.10503E-08, -6.07578E-08, 1.606E-11, 6.10503E-08, 0.00024708358909486479, 3.8808280025613293E-08, 1.606E-11
DataValue, 1.55, 3, 0, 6.61035E-08, -6.58392E-08, 1.6954000000000002E-11, 6.61035E-08, 0.00025710600926466109, 4.1875139934288528E-08, 1.6954000000000002E-11
DataValue, 1.6, 3, 0, 7.1581399999999993E-08, -7.12572E-08, 1.7853E-11, 7.1581399999999993E-08, 0.00026754700521590592, 4.360629347880216E-08, 1.7853E-11
DataValue, 1.6500000000000001, 3, 0, 7.7277399999999993E-08, -7.718409999999999E-08, 1.8672000000000003E-11, 7.7277399999999993E-08, 0.00027798812924295885, 4.7042271584971385E-08, 1.8672000000000003E-11
DataValue, 1.7000000000000002, 3, 0, 8.3657599999999985E-08, -8.33585E-08, 1.9431E-11, 8.3657599999999985E-08, 0.00028923623562755757, 5.0825738786459845E-08, 1.9431E-11
DataValue, 1.75, 3, 0, 9.0319899999999985E-08, -8.99968E-08, 2.0337E-11, 9.0319899999999985E-08, 0.00030053269372898512, 5.2872992461631769E-08, 2.0337E-11
DataValue, 1.8, 3, 0, 9.74878E-08, -9.71302E-08, 2.1059E-11, 9.74878E-08, 0.00031223036367400273, 5.5932841550158859E-08, 2.1059E-11
DataValue, 1.85, 3, 0, 1.0509449999999999E-07, -1.0475669999999999E-07, 2.1741000000000003E-11, 1.0509449999999999E-07, 0.000324182818792113, 5.0615479853099196E-08, 2.1741000000000003E-11
DataValue, 1.9000000000000001, 3, 0, 1.1204299999999999E-07, -1.11497E-07, 2.0964000000000003E-11, 1.1204299999999999E-07, 0.00033472824798633292, 5.6349972958595739E-08, 2.0964000000000003E-11
DataValue, 1.9500000000000002, 3, 0, 1.21049E-07, -1.20739E-07, 2.2354E-11, 1.21049E-07, 0.00034792096803728286, 7.0777329937534144E-08, 2.2354E-11
DataValue, 2, 3, 0, 1.30561E-07, -1.2996399999999999E-07, 2.3520000000000003E-11, 1.30561E-07, 0.00036133225707096788, 7.486567263885241E-08, 2.3520000000000003E-11
DataValue, 2.05, 3, 0, 1.40837E-07, -1.40342E-07, 2.4188E-11, 1.40837E-07, 0.00037528256021296809, 7.8979163816959179E-08, 2.4188E-11
DataValue, 2.1, 3, 0, 1.5166E-07, -1.5122E-07, 2.5171E-11, 1.5166E-07, 0.00038943548888102121, 8.07502313924809E-08, 2.5171E-11
DataValue, 2.15, 3, 0, 1.6297299999999999E-07, -1.62409E-07, 2.5959E-11, 1.6297299999999999E-07, 0.00040369914540409917, 8.46465489118505E-08, 2.5959E-11
DataValue, 2.2, 3, 0, 1.75167E-07, -1.74555E-07, 2.6791E-11, 1.75167E-07, 0.00041852956884788915, 8.6967128527895459E-08, 2.6791E-11
DataValue, 2.25, 3, 0, 1.87653E-07, -1.87221E-07, 2.7647000000000003E-11, 1.87653E-07, 0.00043318933504877518, 9.15932122071686E-08, 2.7647000000000003E-11
DataValue, 2.3000000000000003, 3, 0, 2.01416E-07, -2.0078899999999999E-07, 2.8541E-11, 2.01416E-07, 0.00044879393935301758, 9.70656737192116E-08, 2.8541E-11
DataValue, 2.35, 3, 0, 2.15616E-07, -2.14835E-07, 2.9223000000000003E-11, 2.15616E-07, 0.00046434469954980643, 9.9505440848687518E-08, 2.9223000000000003E-11
