
SetupTitle, Transfer stab
PrimitiveTest, I/V Sweep
TestParameter, Context.MainFrame, 4155C
TestParameter, Channel.UnitType, SMU, SMU, SMU
TestParameter, Channel.Unit, SMU3:MP, SMU4:MP, SMU1:MP
TestParameter, Channel.IName, ID, IS, IG
TestParameter, Channel.VName, VD, VS, VG
TestParameter, Channel.Mode, V, COMMON, V
TestParameter, Channel.Func, CONST, CONST, VAR1
TestParameter, Channel.Index, 
TestParameter, Channel.Time, 
TestParameter, Measurement.Port.Unit, SMU3:MP, SMU4:MP, SMU1:MP
TestParameter, Measurement.Port.SeriesResistor, NONE, NONE, NONE
TestParameter, Measurement.Port.Filter, ON, ON, ON
TestParameter, Measurement.Primary.Locus, Single
TestParameter, Measurement.Primary.Scale, LINEAR
TestParameter, Measurement.Primary.Start, -2
TestParameter, Measurement.Primary.Stop, 3
TestParameter, Measurement.Primary.Step, 0.05
TestParameter, Measurement.Primary.Compliance, 0.1
TestParameter, Measurement.Primary.PowerCompliance, 0
TestParameter, Measurement.Aborting.Condition, CONTINUE AT ANY
TestParameter, Measurement.PostOutput.Value, START
TestParameter, Measurement.PostOutput.Retention, OFF
TestParameter, Measurement.Bias.Source, 3, 0, -2
TestParameter, Measurement.Bias.Compliance, 0.1, 0.1, 0.1
TestParameter, Measurement.Monitor.Unit, SMU3:MP, SMU4:MP, SMU1:MP
TestParameter, Measurement.Monitor.Adc, HR ADC, HR ADC, HR ADC
TestParameter, Measurement.Monitor.RangingMode, AUTO, AUTO, AUTO
TestParameter, Measurement.Monitor.RangeBoundary, , , 
TestParameter, Measurement.Monitor.RangeRating, BY FULL RANGE, BY FULL RANGE, BY FULL RANGE
TestParameter, Measurement.Monitor.RangeRatingCoeff, 50, 50, 50
TestParameter, Measurement.Timing.Hold, 0.5
TestParameter, Measurement.Timing.Delay, 0.05
TestParameter, Measurement.Adc.HighResolution.AutoZero, OFF
TestParameter, Measurement.Adc.HighResolution.Mode, AUTO
TestParameter, Measurement.Adc.HighResolution.Coeff, 1
TestParameter, Measurement.Ag16440ASelector.SemiconductorRelay.Channel1, DEFAULT
TestParameter, Measurement.Ag16440ASelector.SemiconductorRelay.Channel3, DEFAULT
TestParameter, Function.User.Name, absID, sqrtID, gm2, absIG
TestParameter, Function.User.Unit, A, A, A/V, A
TestParameter, Function.User.Definition, abs(ID), sqrt(abs(ID)), (delta(sqrtID)/delta(VG))^2, abs(IG)
TestParameter, Output.Graph.Enabled, true
TestParameter, Output.Graph.XAxis.Data, VG
TestParameter, Output.Graph.XAxis.Scale, Linear
TestParameter, Output.Graph.XAxis.Left, -5
TestParameter, Output.Graph.XAxis.Right, 7
TestParameter, Output.Graph.YAxis.Data, ID, absIG, gm2
TestParameter, Output.Graph.YAxis.Scale, Log, Log, Linear
TestParameter, Output.Graph.YAxis.Bottom, 1E-14, 1E-14, 0
TestParameter, Output.Graph.YAxis.Top, 0.01, 0.01, 1E-05
TestParameter, Output.Graph.YAxis.Group, , , 
TestParameter, Output.List.Data, VG, IG, VD, ID, VS, IS, sqrtID, gm2, absIG
TestParameter, AutoAnalysis.Interpolation, false
TestParameter, AutoAnalysis.Line1.Enabled, false
TestParameter, AutoAnalysis.Line1.Type, 1
TestParameter, AutoAnalysis.Line1.Fix, True
TestParameter, AutoAnalysis.Line1.YAxis, 0
TestParameter, AutoAnalysis.Line1.Point1.Type, 0
TestParameter, AutoAnalysis.Line1.Point1.XY.X, 
TestParameter, AutoAnalysis.Line1.Point1.XY.Y, 
TestParameter, AutoAnalysis.Line1.Point1.Data.Var, 
TestParameter, AutoAnalysis.Line1.Point1.Data.Condition, 
TestParameter, AutoAnalysis.Line1.Point1.Data.Start, false
TestParameter, AutoAnalysis.Line1.Point1.Data.StartVar, 
TestParameter, AutoAnalysis.Line1.Point1.Data.StartCondition, 
TestParameter, AutoAnalysis.Line1.Point2.Type, 0
TestParameter, AutoAnalysis.Line1.Point2.XY.X, 
TestParameter, AutoAnalysis.Line1.Point2.XY.Y, 
TestParameter, AutoAnalysis.Line1.Point2.Data.Var, 
TestParameter, AutoAnalysis.Line1.Point2.Data.Condition, 
TestParameter, AutoAnalysis.Line1.Point2.Data.Start, false
TestParameter, AutoAnalysis.Line1.Point2.Data.StartVar, 
TestParameter, AutoAnalysis.Line1.Point2.Data.StartCondition, 
TestParameter, AutoAnalysis.Line1.GradientExpr, 0
TestParameter, AutoAnalysis.Line2.Enabled, false
TestParameter, AutoAnalysis.Line2.Type, 1
TestParameter, AutoAnalysis.Line2.Fix, True
TestParameter, AutoAnalysis.Line2.YAxis, 0
TestParameter, AutoAnalysis.Line2.Point1.Type, 0
TestParameter, AutoAnalysis.Line2.Point1.XY.X, 
TestParameter, AutoAnalysis.Line2.Point1.XY.Y, 
TestParameter, AutoAnalysis.Line2.Point1.Data.Var, 
TestParameter, AutoAnalysis.Line2.Point1.Data.Condition, 
TestParameter, AutoAnalysis.Line2.Point1.Data.Start, false
TestParameter, AutoAnalysis.Line2.Point1.Data.StartVar, 
TestParameter, AutoAnalysis.Line2.Point1.Data.StartCondition, 
TestParameter, AutoAnalysis.Line2.Point2.Type, 0
TestParameter, AutoAnalysis.Line2.Point2.XY.X, 
TestParameter, AutoAnalysis.Line2.Point2.XY.Y, 
TestParameter, AutoAnalysis.Line2.Point2.Data.Var, 
TestParameter, AutoAnalysis.Line2.Point2.Data.Condition, 
TestParameter, AutoAnalysis.Line2.Point2.Data.Start, false
TestParameter, AutoAnalysis.Line2.Point2.Data.StartVar, 
TestParameter, AutoAnalysis.Line2.Point2.Data.StartCondition, 
TestParameter, AutoAnalysis.Line2.GradientExpr, 0
TestParameter, AutoAnalysis.Marker.Enabled, false
TestParameter, AutoAnalysis.Marker.Data.Var, 
TestParameter, AutoAnalysis.Marker.Data.Condition, 
TestParameter, AutoAnalysis.Marker.Data.Start, false
TestParameter, AutoAnalysis.Marker.Data.StartVar, 
TestParameter, AutoAnalysis.Marker.Data.StartCondition, 
MetaData, TestRecord.EntryPoint, true
MetaData, TestRecord.RecordTime, 05/27/2019 12:04:05
MetaData, TestRecord.TestTarget, 350-180-G19-2
MetaData, TestRecord.IterationIndex, 3
MetaData, TestRecord.Preservation, true
MetaData, TestRecord.Flag, 
MetaData, TestRecord.Remarks, MEH
MetaData, TestRecord.LinkKey, 13f55b10-cbf1-40d2-a8a6-8a4209579b40
Dimension1, 101, 101, 101, 101, 101, 101, 101, 101, 101, 101
Dimension2, 1, 1, 1, 1, 1, 1, 1, 1, 1, 1
DataName, VG, VD, VS, ID, IS, IG, absID, sqrtID, gm2, absIG
DataValue, -2, 3, 0, 2.1866600000000002E-10, 1.592E-12, -2.7869400000000003E-10, 2.1866600000000002E-10, 1.4787359466787843E-05, 1.6781922452776659E-09, 2.7869400000000003E-10
DataValue, -1.9500000000000002, 3, 0, 2.83439E-10, -2.9850000000000003E-12, -2.91256E-10, 2.83439E-10, 1.6835646705725325E-05, 6.1342223203070974E-10, 2.91256E-10
DataValue, -1.9000000000000001, 3, 0, 2.98049E-10, 6.2670000000000007E-12, -2.9807500000000003E-10, 2.98049E-10, 1.726409569018893E-05, 3.7635690905851E-11, 2.9807500000000003E-10
DataValue, -1.85, 3, 0, 3.04472E-10, 4.712E-12, -2.99506E-10, 3.04472E-10, 1.7449126052613638E-05, 6.8699269910443717E-13, 2.99506E-10
DataValue, -1.8, 3, 0, 2.95194E-10, 7.1E-14, -2.9259900000000005E-10, 2.95194E-10, 1.7181210667470441E-05, 1.9013336854967426E-11, 2.9259900000000005E-10
DataValue, -1.75, 3, 0, 2.8944500000000003E-10, 3.042E-12, -2.9292E-10, 2.8944500000000003E-10, 1.7013083200878083E-05, 2.2703395120437059E-11, 2.9292E-10
DataValue, -1.7000000000000002, 3, 0, 2.79048E-10, 8.8E-14, -2.7677900000000004E-10, 2.79048E-10, 1.6704729869111924E-05, 1.1684439691179955E-10, 2.7677900000000004E-10
DataValue, -1.6500000000000001, 3, 0, 2.53833E-10, 1.931E-12, -2.57938E-10, 2.53833E-10, 1.5932137333076188E-05, 1.2370592941214739E-10, 2.57938E-10
DataValue, -1.6, 3, 0, 2.4312600000000003E-10, -2.716E-12, -2.38324E-10, 2.4312600000000003E-10, 1.5592498196248093E-05, 6.6940261148566051E-11, 2.38324E-10
DataValue, -1.55, 3, 0, 2.2843200000000002E-10, -6.6500000000000009E-13, -2.22874E-10, 2.2843200000000002E-10, 1.5113967050380916E-05, 7.702550552810311E-11, 2.22874E-10
DataValue, -1.5, 3, 0, 2.1652700000000003E-10, -1.4050000000000002E-12, -2.0967500000000003E-10, 2.1652700000000003E-10, 1.4714856438307512E-05, 9.4040655870912607E-11, 2.0967500000000003E-10
DataValue, -1.4500000000000002, 3, 0, 2.0005900000000002E-10, 3.5290000000000004E-12, -1.9980200000000002E-10, 2.0005900000000002E-10, 1.414422143491822E-05, 9.2181467303982282E-11, 1.9980200000000002E-10
DataValue, -1.4000000000000001, 3, 0, 1.8919300000000002E-10, -7.31E-13, -1.8523400000000002E-10, 1.8919300000000002E-10, 1.3754744635942902E-05, 1.2806330573269119E-10, 1.8523400000000002E-10
DataValue, -1.35, 3, 0, 1.6932700000000002E-10, 3.4710000000000005E-12, -1.7050100000000001E-10, 1.6932700000000002E-10, 1.3012570845148164E-05, 1.1132338398600291E-10, 1.7050100000000001E-10
DataValue, -1.3, 3, 0, 1.6128100000000002E-10, 7.4200000000000007E-13, -1.58567E-10, 1.6128100000000002E-10, 1.2699645664348279E-05, 6.3261320843519351E-11, 1.58567E-10
DataValue, -1.25, 3, 0, 1.4926E-10, 2.4870000000000002E-12, -1.48594E-10, 1.4926E-10, 1.2217200988769891E-05, 9.6116064755847739E-11, 1.48594E-10
DataValue, -1.2, 3, 0, 1.3734100000000002E-10, 5.256E-12, -1.3259500000000002E-10, 1.3734100000000002E-10, 1.1719257655670858E-05, 1.181703196979117E-10, 1.3259500000000002E-10
DataValue, -1.1500000000000001, 3, 0, 1.2388000000000002E-10, 5.569E-12, -1.24252E-10, 1.2388000000000002E-10, 1.1130139262381222E-05, 1.3589204658135079E-10, 1.24252E-10
DataValue, -1.1, 3, 0, 1.1137700000000001E-10, 3.3440000000000003E-12, -1.16699E-10, 1.1137700000000001E-10, 1.0553530215051266E-05, 5.15292606136003E-11, 1.16699E-10
DataValue, -1.05, 3, 0, 1.08416E-10, -2.172E-12, -1.07919E-10, 1.08416E-10, 1.0412300418255325E-05, 5.3682736428320659E-11, 1.07919E-10
DataValue, -1, 3, 0, 9.6449E-11, -3.493E-12, -8.4395000000000009E-11, 9.6449E-11, 9.8208451774783618E-06, 1.2530561412021255E-10, 8.4395000000000009E-11
DataValue, -0.95000000000000007, 3, 0, 8.6358000000000008E-11, 2.39E-12, -7.9133E-11, 8.6358000000000008E-11, 9.2929005159853075E-06, 7.5890658299170769E-11, 7.9133E-11
DataValue, -0.9, 3, 0, 8.0097E-11, 6.5330000000000005E-12, -8.109400000000001E-11, 8.0097E-11, 8.9496927321556689E-06, 1.4925079759961347E-11, 8.109400000000001E-11
DataValue, -0.85000000000000009, 3, 0, 7.9327000000000012E-11, 7.1000000000000008E-12, -8.1571E-11, 7.9327000000000012E-11, 8.90657060826444E-06, 1.6292606673726771E-11, 8.1571E-11
DataValue, -0.8, 3, 0, 7.3035000000000009E-11, -5.65E-13, -7.3082000000000012E-11, 7.3035000000000009E-11, 8.5460517199464688E-06, 9.6665764530681081E-11, 7.3082000000000012E-11
DataValue, -0.75, 3, 0, 6.278E-11, 1.358E-12, -7.0877E-11, 6.278E-11, 7.9233831158161223E-06, 9.0062533843299227E-11, 7.0877E-11
DataValue, -0.70000000000000007, 3, 0, 5.7715000000000004E-11, -2.0120000000000003E-12, -5.8429E-11, 5.7715000000000004E-11, 7.5970388968334236E-06, 4.2842983724328924E-11, 5.8429E-11
DataValue, -0.65, 3, 0, 5.2836000000000006E-11, -3.728E-12, -5.1381000000000003E-11, 5.2836000000000006E-11, 7.2688375962047746E-06, 2.1129874817536049E-11, 5.1381000000000003E-11
DataValue, -0.6, 3, 0, 5.0942000000000005E-11, 4.2000000000000003E-13, -4.9158000000000004E-11, 5.0942000000000005E-11, 7.1373664610975391E-06, 4.0665992632675076E-11, 4.9158000000000004E-11
DataValue, -0.55, 3, 0, 4.3972E-11, 4.163E-12, -4.9453E-11, 4.3972E-11, 6.6311386654178785E-06, 2.399143447674035E-11, 4.9453E-11
DataValue, -0.5, 3, 0, 4.4190000000000005E-11, 2.0080000000000003E-12, -4.4543E-11, 4.4190000000000005E-11, 6.6475559418481017E-06, 5.6466272082658149E-12, 4.4543E-11
DataValue, -0.45, 3, 0, 4.0877000000000005E-11, -3.813E-12, -3.1338E-11, 4.0877000000000005E-11, 6.3935123367363576E-06, 4.7546008364584769E-11, 3.1338E-11
DataValue, -0.4, 3, 0, 3.5498E-11, -2.47E-13, -3.3872E-11, 3.5498E-11, 5.9580198052708753E-06, 1.1525094540369511E-10, 3.3872E-11
DataValue, -0.35000000000000003, 3, 0, 2.8302000000000003E-11, -6.36E-13, -2.8984000000000002E-11, 2.8302000000000003E-11, 5.3199624058822075E-06, 2.4616680004165592E-11, 2.8984000000000002E-11
DataValue, -0.3, 3, 0, 2.9832E-11, 1.1149000000000001E-11, -3.5301000000000006E-11, 2.9832E-11, 5.4618678123879926E-06, 1.1343656701161978E-11, 3.5301000000000006E-11
DataValue, -0.25, 3, 0, 3.1999000000000004E-11, -4.8500000000000005E-13, -3.5173E-11, 3.1999000000000004E-11, 5.6567658604541876E-06, 2.6330301237366973E-11, 3.5173E-11
DataValue, -0.2, 3, 0, 2.449E-11, -2.648E-12, -1.9747000000000003E-11, 2.449E-11, 4.9487372126634492E-06, 7.8875403207136461E-11, 1.9747000000000003E-11
DataValue, -0.15, 3, 0, 2.274E-11, 5.685E-12, -2.5409E-11, 2.274E-11, 4.768647607026546E-06, 1.6327048531801464E-12, 2.5409E-11
DataValue, -0.1, 3, 0, 2.5771E-11, -6.0440000000000005E-12, -2.0228000000000003E-11, 2.5771E-11, 5.0765145523282014E-06, 5.8488000856855916E-11, 2.0228000000000003E-11
DataValue, -0.05, 3, 0, 1.6031E-11, -1.6680000000000002E-12, -1.5384E-11, 1.6031E-11, 4.0038731248629743E-06, 1.063026630826516E-11, 1.5384E-11
DataValue, 0, 3, 0, 2.2567000000000003E-11, 3.9240000000000006E-12, -2.2074000000000003E-11, 2.2567000000000003E-11, 4.7504736605942786E-06, 3.2393144915343668E-13, 2.2074000000000003E-11
DataValue, 0.05, 3, 0, 1.6490000000000003E-11, -1.266E-12, -1.6467000000000002E-11, 1.6490000000000003E-11, 4.0607881008493908E-06, 1.0658696817690432E-10, 1.6467000000000002E-11
DataValue, 0.1, 3, 0, 1.3824000000000001E-11, 4.686E-12, -1.9166E-11, 1.3824000000000001E-11, 3.7180640123591203E-06, 6.3087378749786311E-12, 1.9166E-11
DataValue, 0.15, 3, 0, 1.8593E-11, -5.3760000000000005E-12, -1.681E-11, 1.8593E-11, 4.3119601111327548E-06, 8.3056479184275628E-12, 1.681E-11
DataValue, 0.2, 3, 0, 1.1764E-11, -8.226E-12, -6.905E-12, 1.1764E-11, 3.4298688021555577E-06, 2.0234962728497675E-10, 6.905E-12
DataValue, 0.25, 3, 0, 8.349E-12, 3.5830000000000004E-12, -8.480000000000001E-12, 8.349E-12, 2.8894636180440135E-06, 2.5218375845784987E-11, 8.480000000000001E-12
DataValue, 0.3, 3, 0, 1.5461E-11, 4.4610000000000005E-12, -1.3514E-11, 1.5461E-11, 3.9320478125272077E-06, 4.8586316748825441E-11, 1.3514E-11
DataValue, 0.35000000000000003, 3, 0, 1.2863000000000001E-11, -6.026E-12, -9.237E-12, 1.2863000000000001E-11, 3.5865024745565144E-06, 9.38236774644834E-12, 9.237E-12
DataValue, 0.4, 3, 0, 1.3146E-11, -6.2670000000000007E-12, -7.183E-12, 1.3146E-11, 3.6257413035129795E-06, 2.2154415734278389E-10, 7.183E-12
DataValue, 0.45, 3, 0, 2.5755000000000002E-11, -1.6898E-11, -8.2280000000000009E-12, 2.5755000000000002E-11, 5.0749384232717549E-06, 1.0330237192849262E-09, 8.2280000000000009E-12
DataValue, 0.5, 3, 0, 4.6783000000000005E-11, -4.3540000000000006E-11, -5.9150000000000005E-12, 4.6783000000000005E-11, 6.8398099388798813E-06, 2.5702513384078354E-09, 5.9150000000000005E-12
DataValue, 0.55, 3, 0, 1.0291500000000001E-10, -9.4528E-11, -4.2450000000000006E-12, 1.0291500000000001E-10, 1.0144703051346551E-05, 5.7334518991492092E-09, 4.2450000000000006E-12
DataValue, 0.6, 3, 0, 2.07699E-10, -1.96017E-10, -4.115E-12, 2.07699E-10, 1.4411766026410504E-05, 9.9032165522180118E-09, 4.115E-12
DataValue, 0.65, 3, 0, 4.03857E-10, -3.83125E-10, -5.0390000000000006E-12, 4.03857E-10, 2.0096193669448949E-05, 1.5801901701113238E-08, 5.0390000000000006E-12
DataValue, 0.70000000000000007, 3, 0, 7.2804600000000005E-10, -7.02129E-10, -4.446E-12, 7.2804600000000005E-10, 2.698232754971298E-05, 2.0643498603226142E-08, 4.446E-12
DataValue, 0.75, 3, 0, 1.18777E-09, -1.16235E-09, -9.8620000000000014E-12, 1.18777E-09, 3.4464039229318437E-05, 3.2362000089744652E-08, 9.8620000000000014E-12
DataValue, 0.8, 3, 0, 2.02246E-09, -1.97683E-09, -1.2239E-11, 2.02246E-09, 4.4971768922291683E-05, 5.0639940408495128E-08, 1.2239E-11
DataValue, 0.85000000000000009, 3, 0, 3.24528E-09, -3.17562E-09, -3.9400000000000006E-12, 3.24528E-09, 5.6967359075175672E-05, 6.371753361852768E-08, 3.9400000000000006E-12
DataValue, 0.9, 3, 0, 4.93002E-09, -4.88476E-09, -6.773E-12, 4.93002E-09, 7.0214101147846367E-05, 7.906059528754681E-08, 6.773E-12
DataValue, 0.95000000000000007, 3, 0, 7.23947E-09, -7.14096E-09, -7.139E-12, 7.23947E-09, 8.5085075071953715E-05, 9.7009172072800266E-08, 7.139E-12
DataValue, 1, 3, 0, 1.027393E-08, -1.012031E-08, 2.5210000000000003E-12, 1.027393E-08, 0.00010136039660538035, 1.0084335277056107E-07, 2.5210000000000003E-12
DataValue, 1.05, 3, 0, 1.3651799999999998E-08, -1.3290099999999999E-08, -9.97E-13, 1.3651799999999998E-08, 0.00011684091749040658, 1.2108985125224408E-07, 9.97E-13
DataValue, 1.1, 3, 0, 1.8539099999999997E-08, -1.83494E-08, -6.8900000000000009E-13, 1.8539099999999997E-08, 0.00013615836367994439, 1.6342400540076309E-07, 6.8900000000000009E-13
DataValue, 1.1500000000000001, 3, 0, 2.4732799999999996E-08, -2.4473599999999996E-08, -1.274E-12, 2.4732799999999996E-08, 0.00015726665253638483, 1.8891934534619995E-07, 1.274E-12
DataValue, 1.2, 3, 0, 3.22645E-08, -3.1933899999999995E-08, -4.907E-12, 3.22645E-08, 0.00017962321676219918, 2.1202715572858394E-07, 4.907E-12
DataValue, 1.25, 3, 0, 4.13362E-08, -4.0932899999999995E-08, 4.036E-12, 4.13362E-08, 0.00020331305909852422, 2.3797384039868511E-07, 4.036E-12
DataValue, 1.3, 3, 0, 5.2169199999999993E-08, -5.1660699999999992E-08, -4.964E-12, 5.2169199999999993E-08, 0.00022840577926138382, 2.6565370838409408E-07, 4.964E-12
DataValue, 1.35, 3, 0, 6.4950899999999992E-08, -6.436149999999999E-08, 1.2460000000000001E-12, 6.4950899999999992E-08, 0.00025485466446584806, 2.9445233168090192E-07, 1.2460000000000001E-12
DataValue, 1.4000000000000001, 3, 0, 7.9901899999999991E-08, -7.92316E-08, 1.16E-13, 7.9901899999999991E-08, 0.00028266924134047553, 3.2599866992596262E-07, 1.16E-13
DataValue, 1.4500000000000002, 3, 0, 9.7313399999999988E-08, -9.6511999999999984E-08, -3.3750000000000005E-12, 9.7313399999999988E-08, 0.00031195095768405648, 2.9924134699933237E-07, 3.3750000000000005E-12
DataValue, 1.5, 3, 0, 1.1382E-07, -1.12057E-07, -5.3200000000000006E-13, 1.1382E-07, 0.00033737219802467419, 3.3662404943689952E-07, 5.3200000000000006E-13
DataValue, 1.55, 3, 0, 1.36878E-07, -1.3591699999999999E-07, -1.863E-12, 1.36878E-07, 0.00036997026907577317, 4.4598990121235312E-07, 1.863E-12
DataValue, 1.6, 3, 0, 1.63341E-07, -1.62162E-07, 2.573E-12, 1.63341E-07, 0.00040415467336157331, 4.8295988722498025E-07, 2.573E-12
DataValue, 1.6500000000000001, 3, 0, 1.9312999999999998E-07, -1.91811E-07, 1.161E-12, 1.9312999999999998E-07, 0.00043946558454559324, 5.1305474599559285E-07, 1.161E-12
DataValue, 1.7000000000000002, 3, 0, 2.26369E-07, -2.2490299999999999E-07, -1.151E-12, 2.26369E-07, 0.00047578251333986623, 5.4827888526021441E-07, 1.151E-12
DataValue, 1.75, 3, 0, 2.63694E-07, -2.6201E-07, -1.4070000000000002E-12, 2.63694E-07, 0.00051351144096310069, 5.8411767580949891E-07, 1.4070000000000002E-12
DataValue, 1.8, 3, 0, 3.0493599999999997E-07, -3.03074E-07, 6.5E-14, 3.0493599999999997E-07, 0.00055221010494195045, 6.2121218876234642E-07, 6.5E-14
DataValue, 1.85, 3, 0, 3.5085299999999997E-07, -3.48748E-07, 1.2670000000000002E-12, 3.5085299999999997E-07, 0.00059232845617950859, 6.619696431827289E-07, 1.2670000000000002E-12
DataValue, 1.9000000000000001, 3, 0, 4.0141299999999997E-07, -3.99226E-07, -1.6E-14, 4.0141299999999997E-07, 0.00063357162183923612, 7.0305367187873873E-07, 1.6E-14
DataValue, 1.9500000000000002, 3, 0, 4.57215E-07, -4.54716E-07, -7.4500000000000006E-13, 4.57215E-07, 0.00067617675204047049, 7.4600241731900946E-07, 7.4500000000000006E-13
DataValue, 2, 3, 0, 5.1831799999999994E-07, -5.15684E-07, 5.3000000000000006E-13, 5.1831799999999994E-07, 0.00071994305330352339, 7.8683341108189379E-07, 5.3000000000000006E-13
DataValue, 2.05, 3, 0, 5.85042E-07, -5.82224E-07, 2.357E-12, 5.85042E-07, 0.00076488038280505015, 8.2969822536891439E-07, 2.357E-12
DataValue, 2.1, 3, 0, 6.57771E-07, -6.54651E-07, 1.7300000000000002E-13, 6.57771E-07, 0.00081103082555473809, 8.7507609767607417E-07, 1.7300000000000002E-13
DataValue, 2.15, 3, 0, 7.36895E-07, -7.33497E-07, 1.3300000000000002E-12, 7.36895E-07, 0.00085842588497784709, 9.1650569437382565E-07, 1.3300000000000002E-12
DataValue, 2.2, 3, 0, 8.2222299999999994E-07, -8.18745E-07, -5.0600000000000007E-13, 8.2222299999999994E-07, 0.00090676512945745769, 9.6229158294316975E-07, 5.0600000000000007E-13
DataValue, 2.25, 3, 0, 9.14935E-07, -9.1094599999999993E-07, 1.7620000000000002E-12, 9.14935E-07, 0.00095652234683775168, 1.0090669541680323E-06, 1.7620000000000002E-12
