
SetupTitle, Transfer stab
PrimitiveTest, I/V Sweep
TestParameter, Context.MainFrame, 4155C
TestParameter, Channel.UnitType, SMU, SMU, SMU
TestParameter, Channel.Unit, SMU3:MP, SMU1:MP, SMU4:MP
TestParameter, Channel.IName, ID, IS, IG
TestParameter, Channel.VName, VD, VS, VG
TestParameter, Channel.Mode, V, COMMON, V
TestParameter, Channel.Func, CONST, CONST, VAR1
TestParameter, Channel.Index, 
TestParameter, Channel.Time, 
TestParameter, Measurement.Port.Unit, SMU3:MP, SMU1:MP, SMU4:MP
TestParameter, Measurement.Port.SeriesResistor, NONE, NONE, NONE
TestParameter, Measurement.Port.Filter, ON, ON, ON
TestParameter, Measurement.Primary.Locus, Single
TestParameter, Measurement.Primary.Scale, LINEAR
TestParameter, Measurement.Primary.Start, -2
TestParameter, Measurement.Primary.Stop, 3
TestParameter, Measurement.Primary.Step, 0.05
TestParameter, Measurement.Primary.Compliance, 0.1
TestParameter, Measurement.Primary.PowerCompliance, 0
TestParameter, Measurement.Aborting.Condition, CONTINUE AT ANY
TestParameter, Measurement.PostOutput.Value, START
TestParameter, Measurement.PostOutput.Retention, OFF
TestParameter, Measurement.Bias.Source, 3, 0, -2
TestParameter, Measurement.Bias.Compliance, 0.1, 0.1, 0.1
TestParameter, Measurement.Monitor.Unit, SMU3:MP, SMU1:MP, SMU4:MP
TestParameter, Measurement.Monitor.Adc, HR ADC, HR ADC, HR ADC
TestParameter, Measurement.Monitor.RangingMode, AUTO, AUTO, AUTO
TestParameter, Measurement.Monitor.RangeBoundary, , , 
TestParameter, Measurement.Monitor.RangeRating, BY FULL RANGE, BY FULL RANGE, BY FULL RANGE
TestParameter, Measurement.Monitor.RangeRatingCoeff, 50, 50, 50
TestParameter, Measurement.Timing.Hold, 0.5
TestParameter, Measurement.Timing.Delay, 0.05
TestParameter, Measurement.Adc.HighResolution.AutoZero, OFF
TestParameter, Measurement.Adc.HighResolution.Mode, AUTO
TestParameter, Measurement.Adc.HighResolution.Coeff, 1
TestParameter, Measurement.Ag16440ASelector.SemiconductorRelay.Channel1, DEFAULT
TestParameter, Measurement.Ag16440ASelector.SemiconductorRelay.Channel3, DEFAULT
TestParameter, Function.User.Name, absID, sqrtID, gm2, absIG
TestParameter, Function.User.Unit, A, A, A/V, A
TestParameter, Function.User.Definition, abs(ID), sqrt(abs(ID)), (delta(sqrtID)/delta(VG))^2, abs(IG)
TestParameter, Output.Graph.Enabled, true
TestParameter, Output.Graph.XAxis.Data, VG
TestParameter, Output.Graph.XAxis.Scale, Linear
TestParameter, Output.Graph.XAxis.Left, -5
TestParameter, Output.Graph.XAxis.Right, 7
TestParameter, Output.Graph.YAxis.Data, ID, absIG, gm2
TestParameter, Output.Graph.YAxis.Scale, Log, Log, Linear
TestParameter, Output.Graph.YAxis.Bottom, 1E-14, 1E-14, 0
TestParameter, Output.Graph.YAxis.Top, 0.01, 0.01, 1E-05
TestParameter, Output.Graph.YAxis.Group, , , 
TestParameter, Output.List.Data, VG, IG, VD, ID, VS, IS, sqrtID, gm2, absIG
TestParameter, AutoAnalysis.Interpolation, false
TestParameter, AutoAnalysis.Line1.Enabled, false
TestParameter, AutoAnalysis.Line1.Type, 1
TestParameter, AutoAnalysis.Line1.Fix, True
TestParameter, AutoAnalysis.Line1.YAxis, 0
TestParameter, AutoAnalysis.Line1.Point1.Type, 0
TestParameter, AutoAnalysis.Line1.Point1.XY.X, 
TestParameter, AutoAnalysis.Line1.Point1.XY.Y, 
TestParameter, AutoAnalysis.Line1.Point1.Data.Var, 
TestParameter, AutoAnalysis.Line1.Point1.Data.Condition, 
TestParameter, AutoAnalysis.Line1.Point1.Data.Start, false
TestParameter, AutoAnalysis.Line1.Point1.Data.StartVar, 
TestParameter, AutoAnalysis.Line1.Point1.Data.StartCondition, 
TestParameter, AutoAnalysis.Line1.Point2.Type, 0
TestParameter, AutoAnalysis.Line1.Point2.XY.X, 
TestParameter, AutoAnalysis.Line1.Point2.XY.Y, 
TestParameter, AutoAnalysis.Line1.Point2.Data.Var, 
TestParameter, AutoAnalysis.Line1.Point2.Data.Condition, 
TestParameter, AutoAnalysis.Line1.Point2.Data.Start, false
TestParameter, AutoAnalysis.Line1.Point2.Data.StartVar, 
TestParameter, AutoAnalysis.Line1.Point2.Data.StartCondition, 
TestParameter, AutoAnalysis.Line1.GradientExpr, 0
TestParameter, AutoAnalysis.Line2.Enabled, false
TestParameter, AutoAnalysis.Line2.Type, 1
TestParameter, AutoAnalysis.Line2.Fix, True
TestParameter, AutoAnalysis.Line2.YAxis, 0
TestParameter, AutoAnalysis.Line2.Point1.Type, 0
TestParameter, AutoAnalysis.Line2.Point1.XY.X, 
TestParameter, AutoAnalysis.Line2.Point1.XY.Y, 
TestParameter, AutoAnalysis.Line2.Point1.Data.Var, 
TestParameter, AutoAnalysis.Line2.Point1.Data.Condition, 
TestParameter, AutoAnalysis.Line2.Point1.Data.Start, false
TestParameter, AutoAnalysis.Line2.Point1.Data.StartVar, 
TestParameter, AutoAnalysis.Line2.Point1.Data.StartCondition, 
TestParameter, AutoAnalysis.Line2.Point2.Type, 0
TestParameter, AutoAnalysis.Line2.Point2.XY.X, 
TestParameter, AutoAnalysis.Line2.Point2.XY.Y, 
TestParameter, AutoAnalysis.Line2.Point2.Data.Var, 
TestParameter, AutoAnalysis.Line2.Point2.Data.Condition, 
TestParameter, AutoAnalysis.Line2.Point2.Data.Start, false
TestParameter, AutoAnalysis.Line2.Point2.Data.StartVar, 
TestParameter, AutoAnalysis.Line2.Point2.Data.StartCondition, 
TestParameter, AutoAnalysis.Line2.GradientExpr, 0
TestParameter, AutoAnalysis.Marker.Enabled, false
TestParameter, AutoAnalysis.Marker.Data.Var, 
TestParameter, AutoAnalysis.Marker.Data.Condition, 
TestParameter, AutoAnalysis.Marker.Data.Start, false
TestParameter, AutoAnalysis.Marker.Data.StartVar, 
TestParameter, AutoAnalysis.Marker.Data.StartCondition, 
MetaData, TestRecord.EntryPoint, true
MetaData, TestRecord.RecordTime, 05/27/2019 09:40:27
MetaData, TestRecord.TestTarget, 250-300-G33
MetaData, TestRecord.IterationIndex, 1
MetaData, TestRecord.Preservation, true
MetaData, TestRecord.Flag, 
MetaData, TestRecord.Remarks, BAD
MetaData, TestRecord.LinkKey, 82347c26-bc5d-4be4-89b8-54a3a89cef9f
Dimension1, 101, 101, 101, 101, 101, 101, 101, 101, 101, 101
Dimension2, 1, 1, 1, 1, 1, 1, 1, 1, 1, 1
DataName, VG, VD, VS, ID, IS, IG, absID, sqrtID, gm2, absIG
DataValue, -2, 3, 0, 6.707E-12, -3.367E-12, -1.1972000000000001E-11, 6.707E-12, 2.5897876360813836E-06, 2.914544988655461E-11, 1.1972000000000001E-11
DataValue, -1.9500000000000002, 3, 0, 8.178E-12, -9.053E-12, -2.2380000000000004E-12, 8.178E-12, 2.8597202660400197E-06, 9.00129177452168E-11, 2.2380000000000004E-12
DataValue, -1.9000000000000001, 3, 0, -2.6930000000000003E-12, -1.2600000000000002E-13, -8.4900000000000012E-12, 2.6930000000000003E-12, 1.6410362579784763E-06, 7.1826905345337258E-11, 8.4900000000000012E-12
DataValue, -1.85, 3, 0, 4.049E-12, -6.0040000000000007E-12, -1.084E-12, 4.049E-12, 2.0122127124138742E-06, 2.4090318004954961E-11, 1.084E-12
DataValue, -1.8, 3, 0, 1.3230000000000001E-12, -1.404E-12, -1.9530000000000003E-12, 1.3230000000000001E-12, 1.150217370760849E-06, 2.2867872875861232E-10, 1.9530000000000003E-12
DataValue, -1.75, 3, 0, 2.5E-13, -6.9600000000000006E-13, 1.178E-12, 2.5E-13, 5E-07, 1.2047733437448769E-11, 1.178E-12
DataValue, -1.7000000000000002, 3, 0, 6.4500000000000008E-13, -1.097E-12, -4.212E-12, 6.4500000000000008E-13, 8.0311892021045053E-07, 4.9993744983948887E-11, 4.212E-12
DataValue, -1.6500000000000001, 3, 0, 1.4570000000000002E-12, -7.23E-13, -9.4E-13, 1.4570000000000002E-12, 1.2070625501605127E-06, 2.8960449313502273E-11, 9.4E-13
DataValue, -1.6, 3, 0, 1.7990000000000001E-12, -8.7900000000000009E-13, -3.1140000000000003E-12, 1.7990000000000001E-12, 1.341268056728408E-06, 3.4517491443104878E-12, 3.1140000000000003E-12
DataValue, -1.55, 3, 0, 1.043E-12, 2.48E-13, -8.34E-12, 1.043E-12, 1.021273714534943E-06, 1.5412279274618014E-11, 8.34E-12
DataValue, -1.5, 3, 0, 9.000000000000001E-13, -5.9900000000000007E-13, -3.4900000000000003E-13, 9.000000000000001E-13, 9.4868329805051386E-07, 1.1441705723595121E-10, 3.4900000000000003E-13
DataValue, -1.4500000000000002, 3, 0, 4.372E-12, -5.69E-13, -2.089E-12, 4.372E-12, 2.09093280618962E-06, 2.1942576477044953E-12, 2.089E-12
DataValue, -1.4000000000000001, 3, 0, 1.203E-12, -2.7400000000000004E-13, -2.2330000000000003E-12, 1.203E-12, 1.096813566655701E-06, 7.2931791040663172E-11, 2.2330000000000003E-12
DataValue, -1.35, 3, 0, -1.5300000000000001E-12, -1.471E-12, -1.038E-12, 1.5300000000000001E-12, 1.2369316876852982E-06, 7.3656300921202327E-12, 1.038E-12
DataValue, -1.3, 3, 0, 1.872E-12, -1.87E-13, -8.3200000000000009E-13, 1.872E-12, 1.3682105101189657E-06, 6.4297798743134187E-12, 8.3200000000000009E-13
DataValue, -1.25, 3, 0, 9.67E-13, -1.0400000000000001E-13, -2.042E-12, 9.67E-13, 9.8336158151516168E-07, 1.3237976204843996E-11, 2.042E-12
DataValue, -1.2, 3, 0, 3E-12, -4.7900000000000008E-13, 4.4900000000000006E-13, 3E-12, 1.7320508075688774E-06, 1.7702558850227634E-10, 4.4900000000000006E-13
DataValue, -1.1500000000000001, 3, 0, -5.3540000000000008E-12, -5.45E-13, -1.1710000000000002E-12, 5.3540000000000008E-12, 2.3138712150852304E-06, 4.0701319263509943E-11, 1.1710000000000002E-12
DataValue, -1.1, 3, 0, 1.197E-12, 6.28E-13, -7.736E-12, 1.197E-12, 1.0940749517286282E-06, 1.0389052753273866E-10, 7.736E-12
DataValue, -1.05, 3, 0, 1.6760000000000001E-12, -3.313E-12, -1.247E-12, 1.6760000000000001E-12, 1.2946041866145806E-06, 2.8593434403909954E-11, 1.247E-12
DataValue, -1, 3, 0, 2.653E-12, -1.7200000000000001E-12, -5.695E-12, 2.653E-12, 1.628803241647069E-06, 1.2596400341830133E-12, 5.695E-12
DataValue, -0.95000000000000007, 3, 0, 1.3980000000000001E-12, -3.702E-12, 1.2980000000000001E-12, 1.3980000000000001E-12, 1.1823705003085962E-06, 4.2653747859126096E-11, 1.2980000000000001E-12
DataValue, -0.9, 3, 0, 9.52E-13, -1.065E-12, 4.2000000000000004E-14, 9.52E-13, 9.7570487341203751E-07, 3.5913089816328121E-11, 4.2000000000000004E-14
DataValue, -0.85000000000000009, 3, 0, 3.4E-13, -1.28E-13, 2.678E-12, 3.4E-13, 5.8309518948453E-07, 8.0891158893365932E-11, 2.678E-12
DataValue, -0.8, 3, 0, -3.5160000000000004E-12, 3.29E-13, -7.56E-13, 3.5160000000000004E-12, 1.8750999973334755E-06, 3.7083454222168162E-11, 7.56E-13
DataValue, -0.75, 3, 0, 1.4210000000000001E-12, -1.74E-12, -1.8450000000000003E-12, 1.4210000000000001E-12, 1.1920570456148482E-06, 2.4526754314776197E-11, 1.8450000000000003E-12
DataValue, -0.70000000000000007, 3, 0, 1.904E-12, -1.3020000000000001E-12, -1.2730000000000001E-12, 1.904E-12, 1.3798550648528273E-06, 3.1581891903805444E-11, 1.2730000000000001E-12
DataValue, -0.65, 3, 0, 3.97E-13, -1.0790000000000002E-12, 3.51E-13, 3.97E-13, 6.3007936008093463E-07, 4.8028690975395656E-14, 3.51E-13
DataValue, -0.6, 3, 0, 1.8440000000000002E-12, -9.7900000000000017E-13, -4.9E-13, 1.8440000000000002E-12, 1.3579396157414365E-06, 1.0964617344367768E-10, 4.9E-13
DataValue, -0.55, 3, 0, 2.8130000000000002E-12, -6.5E-14, 1.5500000000000002E-13, 2.8130000000000002E-12, 1.6772000476985446E-06, 1.01575510310329E-11, 1.5500000000000002E-13
DataValue, -0.5, 3, 0, 1.08E-12, -7.6E-14, -2.4510000000000004E-12, 1.08E-12, 1.0392304845413265E-06, 6.6247495825926133E-14, 2.4510000000000004E-12
DataValue, -0.45, 3, 0, 2.9E-12, -1.0730000000000002E-12, 3.8100000000000004E-13, 2.9E-12, 1.7029386365926402E-06, 1.4473742474279253E-11, 3.8100000000000004E-13
DataValue, -0.4, 3, 0, -4.34E-13, -9.240000000000001E-13, -5.5400000000000006E-13, 4.34E-13, 6.587867636800242E-07, 1.8133334610570427E-11, 5.5400000000000006E-13
DataValue, -0.35000000000000003, 3, 0, 1.6310000000000002E-12, -9.73E-13, -1.565E-12, 1.6310000000000002E-12, 1.2771061036577971E-06, 6.4600648677791317E-11, 1.565E-12
DataValue, -0.3, 3, 0, -2.139E-12, 1.1E-14, -5.61E-13, 2.139E-12, 1.4625320509308507E-06, 4.3985061117234335E-13, 5.61E-13
DataValue, -0.25, 3, 0, 1.466E-12, -9.76E-13, -1.099E-12, 1.466E-12, 1.2107848694132248E-06, 5.69251843048011E-13, 1.099E-12
DataValue, -0.2, 3, 0, 1.9240000000000003E-12, -1.7990000000000001E-12, -1.5970000000000002E-12, 1.9240000000000003E-12, 1.3870832707519763E-06, 8.61076646623872E-11, 1.5970000000000002E-12
DataValue, -0.15, 3, 0, 8.0000000000000013E-14, -2.8590000000000002E-12, -3.0140000000000003E-12, 8.0000000000000013E-14, 2.8284271247461903E-07, 5.2905930544924431E-12, 3.0140000000000003E-12
DataValue, -0.1, 3, 0, 2.615E-12, -2.324E-12, -8.438000000000001E-12, 2.615E-12, 1.617096162879623E-06, 1.2344824034937461E-10, 8.438000000000001E-12
DataValue, -0.05, 3, 0, -1.943E-12, 4.254E-12, -9.764E-12, 1.943E-12, 1.3939153489362258E-06, 2.4549348165563754E-15, 9.764E-12
DataValue, 0, 3, 0, 2.599E-12, -3.979E-12, -6.7280000000000004E-12, 2.599E-12, 1.6121414330014597E-06, 2.5879035105134637E-11, 6.7280000000000004E-12
DataValue, 0.05, 3, 0, 3.6200000000000003E-12, -7.0320000000000007E-12, -1.3886000000000001E-11, 3.6200000000000003E-12, 1.9026297590440449E-06, 1.4734432244856654E-11, 1.3886000000000001E-11
DataValue, 0.1, 3, 0, -3.984E-12, -3.812E-12, 2.143E-12, 3.984E-12, 1.9959959919799438E-06, 6.916398932118899E-11, 2.143E-12
DataValue, 0.15, 3, 0, 1.147E-12, -1.0980000000000002E-12, 2.987E-12, 1.147E-12, 1.0709808588392231E-06, 1.0295559353067975E-10, 2.987E-12
DataValue, 0.2, 3, 0, 9.63E-13, -7.9100000000000006E-13, -8.6000000000000007E-13, 9.63E-13, 9.8132563402776749E-07, 2.4524755011640239E-11, 8.6000000000000007E-13
DataValue, 0.25, 3, 0, -2.453E-12, -1.3760000000000002E-12, -2.552E-12, 2.453E-12, 1.5662056059151366E-06, 1.1404532688833432E-12, 2.552E-12
DataValue, 0.3, 3, 0, 1.184E-12, -1.897E-12, -1.7330000000000002E-12, 1.184E-12, 1.0881176406988355E-06, 3.1577558133541364E-11, 1.7330000000000002E-12
DataValue, 0.35000000000000003, 3, 0, 4.5290000000000006E-12, -3.2680000000000002E-12, 4.1800000000000004E-13, 4.5290000000000006E-12, 2.1281447319202705E-06, 4.0207043822859429E-11, 4.1800000000000004E-13
DataValue, 0.4, 3, 0, 2.966E-12, -8.72E-13, 1.304E-12, 2.966E-12, 1.7222078852449841E-06, 4.1808055871310728E-11, 1.304E-12
DataValue, 0.45, 3, 0, 2.1950000000000002E-12, 2.1030000000000002E-12, 2.0360000000000002E-12, 2.1950000000000002E-12, 1.4815532390029054E-06, 5.9752542447567E-11, 2.0360000000000002E-12
DataValue, 0.5, 3, 0, 9.010000000000001E-13, 1.788E-12, -2.3130000000000003E-12, 9.010000000000001E-13, 9.492101980067429E-07, 8.2840122358052063E-12, 2.3130000000000003E-12
DataValue, 0.55, 3, 0, 1.425E-12, -1.4400000000000001E-12, 2.7700000000000003E-13, 1.425E-12, 1.1937336386313321E-06, 2.7012080585886115E-12, 2.7700000000000003E-13
DataValue, 0.6, 3, 0, 6.16E-13, -1.3050000000000002E-12, 3.5800000000000004E-13, 6.16E-13, 7.8485667481394335E-07, 2.8053476859314252E-11, 3.5800000000000004E-13
DataValue, 0.65, 3, 0, 4.4100000000000004E-13, -3.23E-12, -1.9620000000000003E-12, 4.4100000000000004E-13, 6.6407830863535974E-07, 1.7269004672798023E-11, 1.9620000000000003E-12
DataValue, 0.70000000000000007, 3, 0, 1.441E-12, -9.4E-13, -7.6200000000000009E-13, 1.441E-12, 1.2004165943538101E-06, 2.392950675799207E-11, 7.6200000000000009E-13
DataValue, 0.75, 3, 0, 1.3300000000000002E-12, 1.1310000000000001E-12, 1.6770000000000002E-12, 1.3300000000000002E-12, 1.1532562594670797E-06, 2.0090045602690808E-11, 1.6770000000000002E-12
DataValue, 0.8, 3, 0, -2.7180000000000003E-12, 1.164E-12, -2.7600000000000004E-13, 2.7180000000000003E-12, 1.6486357996840904E-06, 6.2644094900089308E-11, 2.7600000000000004E-13
DataValue, 0.85000000000000009, 3, 0, -3.7820000000000006E-12, -9.0200000000000009E-13, 1.6720000000000002E-12, 3.7820000000000006E-12, 1.9447364860052378E-06, 1.5747967903245825E-11, 1.6720000000000002E-12
DataValue, 0.9, 3, 0, 1.567E-12, 2.581E-12, -2.569E-12, 1.567E-12, 1.2517987058628876E-06, 8.5187971998833492E-11, 2.569E-12
DataValue, 0.95000000000000007, 3, 0, -1.044E-12, -3.439E-12, 8.4000000000000008E-14, 1.044E-12, 1.0217631819555841E-06, 1.2059195184902496E-11, 8.4000000000000008E-14
DataValue, 1, 3, 0, -2.557E-12, -5.2790000000000004E-12, -4.31E-12, 2.557E-12, 1.5990622251807464E-06, 1.1926701347462344E-11, 4.31E-12
DataValue, 1.05, 3, 0, 1.8690000000000002E-12, -1.0370000000000001E-12, 4.98E-13, 1.8690000000000002E-12, 1.3671137480107498E-06, 8.1736102796697849E-11, 4.98E-13
DataValue, 1.1, 3, 0, -4.8300000000000006E-13, -4.128E-12, 5.401E-12, 4.8300000000000006E-13, 6.9498201415576226E-07, 1.6388312688318571E-11, 5.401E-12
DataValue, 1.1500000000000001, 3, 0, 9.26E-13, -8.72E-13, -2.113E-12, 9.26E-13, 9.6228893789755283E-07, 1.290594606815729E-12, 2.113E-12
DataValue, 1.2, 3, 0, -3.38E-13, 3.39E-13, 1.496E-12, 3.38E-13, 5.8137767414994533E-07, 1.6978486005873052E-13, 1.496E-12
DataValue, 1.25, 3, 0, -1.007E-12, 4.8300000000000006E-13, 5.132E-12, 1.007E-12, 1.0034938963441682E-06, 1.3646483547559624E-11, 5.132E-12
DataValue, 1.3, 3, 0, 9.0400000000000009E-13, -1.48E-13, -2.5260000000000003E-12, 9.0400000000000009E-13, 9.5078914592037708E-07, 3.5135457642391309E-11, 2.5260000000000003E-12
DataValue, 1.35, 3, 0, -2.548E-12, -9.5E-13, 1.925E-12, 2.548E-12, 1.5962455951387931E-06, 1.0280900987302433E-13, 1.925E-12
DataValue, 1.4000000000000001, 3, 0, 9.6600000000000012E-13, -1.116E-12, -2.038E-12, 9.6600000000000012E-13, 9.8285299002444927E-07, 1.2876039229046364E-10, 2.038E-12
DataValue, 1.4500000000000002, 3, 0, 2.1300000000000003E-13, -8.7E-13, 4.7800000000000008E-13, 2.1300000000000003E-13, 4.6151923036857308E-07, 9.6600000000000279E-11, 4.7800000000000008E-13
DataValue, 1.5, 3, 0, 0, -6.63E-13, 1.193E-12, 0, 0, 2.5236585931708904E-10, 1.193E-12
DataValue, 1.55, 3, 0, -4.2030000000000006E-12, -6.9900000000000005E-13, 4.2800000000000004E-13, 4.2030000000000006E-12, 2.0501219475923866E-06, 2.4399999999999953E-11, 4.2800000000000004E-13
DataValue, 1.6, 3, 0, 2.44E-13, -1.191E-12, -1.4E-14, 2.44E-13, 4.9396356140913874E-07, 1.6998882373351109E-10, 1.4E-14
DataValue, 1.6500000000000001, 3, 0, 5.57E-13, -1.6350000000000002E-12, 1.5700000000000002E-12, 5.57E-13, 7.4632432628181167E-07, 4.9406896585332665E-12, 1.5700000000000002E-12
DataValue, 1.7000000000000002, 3, 0, 5.13E-13, -8.780000000000001E-13, 8.49E-13, 5.13E-13, 7.1624018317879933E-07, 1.8283063393085192E-14, 8.49E-13
DataValue, 1.75, 3, 0, 5.37E-13, -5.7200000000000009E-13, -1.1690000000000002E-12, 5.37E-13, 7.328028384224505E-07, 1.4906448642547513E-11, 1.1690000000000002E-12
DataValue, 1.8, 3, 0, 1.09E-13, -2.047E-12, -8E-15, 1.09E-13, 3.3015148038438355E-07, 1.2720518650769507E-13, 8E-15
DataValue, 1.85, 3, 0, 4.86E-13, -7.1300000000000009E-13, 9.0900000000000006E-13, 4.86E-13, 6.9713700231733511E-07, 2.964171597581445E-10, 9.0900000000000006E-13
DataValue, 1.9000000000000001, 3, 0, -4.21E-12, -1.27E-12, 1.5550000000000001E-12, 4.21E-12, 2.0518284528683192E-06, 6.2957317181992474E-15, 1.5550000000000001E-12
DataValue, 1.9500000000000002, 3, 0, 4.75E-13, -1.6100000000000002E-13, -6.86E-13, 4.75E-13, 6.8920243760451106E-07, 1.2122875554444078E-10, 6.86E-13
DataValue, 2, 3, 0, 9.0400000000000009E-13, -4.6000000000000006E-13, -1.7560000000000002E-12, 9.0400000000000009E-13, 9.5078914592037708E-07, 4.1659267302506868E-12, 1.7560000000000002E-12
DataValue, 2.05, 3, 0, 7.98E-13, -2.0160000000000003E-12, 6.7E-14, 7.98E-13, 8.933084573650918E-07, 4.2632909807494423E-12, 6.7E-14
DataValue, 2.1, 3, 0, 5.5400000000000006E-13, -1.389E-12, 9.7900000000000017E-13, 5.5400000000000006E-13, 7.4431176263713587E-07, 2.783688727977823E-11, 9.7900000000000017E-13
DataValue, 2.15, 3, 0, 2.019E-12, -9.7900000000000017E-13, 3.16E-13, 2.019E-12, 1.420915198032592E-06, 2.7799424863711353E-12, 3.16E-13
DataValue, 2.2, 3, 0, 8.300000000000001E-13, -5.3100000000000006E-13, -7.350000000000001E-13, 8.300000000000001E-13, 9.1104335791443E-07, 3.3273692700435046E-11, 7.350000000000001E-13
DataValue, 2.25, 3, 0, -3.991E-12, -1.3590000000000002E-12, 1.278E-12, 3.991E-12, 1.9977487329491666E-06, 2.1102976967571873E-11, 1.278E-12
DataValue, 2.3000000000000003, 3, 0, 2.0400000000000001E-13, -2.5E-14, 1.71E-13, 2.0400000000000001E-13, 4.5166359162544861E-07, 2.4758539885897688E-10, 1.71E-13
DataValue, 2.35, 3, 0, -1.8000000000000002E-13, -8.67E-13, 5E-13, 1.8000000000000002E-13, 4.2426406871192855E-07, 8.8805788565791755E-12, 5E-13
DataValue, 2.4, 3, 0, -5.62E-13, -4.6790000000000006E-12, -1.7460000000000002E-12, 5.62E-13, 7.496665925596525E-07, 9.0182954042423975E-12, 1.7460000000000002E-12
