
SetupTitle, Transfer stab
PrimitiveTest, I/V Sweep
TestParameter, Context.MainFrame, 4155C
TestParameter, Channel.UnitType, SMU, SMU, SMU
TestParameter, Channel.Unit, SMU1:MP, SMU4:MP, SMU3:MP
TestParameter, Channel.IName, ID, IS, IG
TestParameter, Channel.VName, VD, VS, VG
TestParameter, Channel.Mode, V, COMMON, V
TestParameter, Channel.Func, CONST, CONST, VAR1
TestParameter, Channel.Index, 
TestParameter, Channel.Time, 
TestParameter, Measurement.Port.Unit, SMU1:MP, SMU4:MP, SMU3:MP
TestParameter, Measurement.Port.SeriesResistor, NONE, NONE, NONE
TestParameter, Measurement.Port.Filter, ON, ON, ON
TestParameter, Measurement.Primary.Locus, Single
TestParameter, Measurement.Primary.Scale, LINEAR
TestParameter, Measurement.Primary.Start, -2
TestParameter, Measurement.Primary.Stop, 3
TestParameter, Measurement.Primary.Step, 0.05
TestParameter, Measurement.Primary.Compliance, 0.1
TestParameter, Measurement.Primary.PowerCompliance, 0
TestParameter, Measurement.Aborting.Condition, CONTINUE AT ANY
TestParameter, Measurement.PostOutput.Value, START
TestParameter, Measurement.PostOutput.Retention, OFF
TestParameter, Measurement.Bias.Source, 3, 0, -2
TestParameter, Measurement.Bias.Compliance, 0.1, 0.1, 0.1
TestParameter, Measurement.Monitor.Unit, SMU1:MP, SMU4:MP, SMU3:MP
TestParameter, Measurement.Monitor.Adc, HR ADC, HR ADC, HR ADC
TestParameter, Measurement.Monitor.RangingMode, AUTO, AUTO, AUTO
TestParameter, Measurement.Monitor.RangeBoundary, , , 
TestParameter, Measurement.Monitor.RangeRating, BY FULL RANGE, BY FULL RANGE, BY FULL RANGE
TestParameter, Measurement.Monitor.RangeRatingCoeff, 50, 50, 50
TestParameter, Measurement.Timing.Hold, 0.5
TestParameter, Measurement.Timing.Delay, 0.05
TestParameter, Measurement.Adc.HighResolution.AutoZero, OFF
TestParameter, Measurement.Adc.HighResolution.Mode, AUTO
TestParameter, Measurement.Adc.HighResolution.Coeff, 1
TestParameter, Measurement.Ag16440ASelector.SemiconductorRelay.Channel1, DEFAULT
TestParameter, Measurement.Ag16440ASelector.SemiconductorRelay.Channel3, DEFAULT
TestParameter, Function.User.Name, absID, sqrtID, gm2, absIG
TestParameter, Function.User.Unit, A, A, A/V, A
TestParameter, Function.User.Definition, abs(ID), sqrt(abs(ID)), (delta(sqrtID)/delta(VG))^2, abs(IG)
TestParameter, Output.Graph.Enabled, true
TestParameter, Output.Graph.XAxis.Data, VG
TestParameter, Output.Graph.XAxis.Scale, Linear
TestParameter, Output.Graph.XAxis.Left, -5
TestParameter, Output.Graph.XAxis.Right, 7
TestParameter, Output.Graph.YAxis.Data, ID, absIG, gm2
TestParameter, Output.Graph.YAxis.Scale, Log, Log, Linear
TestParameter, Output.Graph.YAxis.Bottom, 1E-14, 1E-14, 0
TestParameter, Output.Graph.YAxis.Top, 0.01, 0.01, 1E-05
TestParameter, Output.Graph.YAxis.Group, , , 
TestParameter, Output.List.Data, VG, IG, VD, ID, VS, IS, sqrtID, gm2, absIG
TestParameter, AutoAnalysis.Interpolation, false
TestParameter, AutoAnalysis.Line1.Enabled, false
TestParameter, AutoAnalysis.Line1.Type, 1
TestParameter, AutoAnalysis.Line1.Fix, True
TestParameter, AutoAnalysis.Line1.YAxis, 0
TestParameter, AutoAnalysis.Line1.Point1.Type, 0
TestParameter, AutoAnalysis.Line1.Point1.XY.X, 
TestParameter, AutoAnalysis.Line1.Point1.XY.Y, 
TestParameter, AutoAnalysis.Line1.Point1.Data.Var, 
TestParameter, AutoAnalysis.Line1.Point1.Data.Condition, 
TestParameter, AutoAnalysis.Line1.Point1.Data.Start, false
TestParameter, AutoAnalysis.Line1.Point1.Data.StartVar, 
TestParameter, AutoAnalysis.Line1.Point1.Data.StartCondition, 
TestParameter, AutoAnalysis.Line1.Point2.Type, 0
TestParameter, AutoAnalysis.Line1.Point2.XY.X, 
TestParameter, AutoAnalysis.Line1.Point2.XY.Y, 
TestParameter, AutoAnalysis.Line1.Point2.Data.Var, 
TestParameter, AutoAnalysis.Line1.Point2.Data.Condition, 
TestParameter, AutoAnalysis.Line1.Point2.Data.Start, false
TestParameter, AutoAnalysis.Line1.Point2.Data.StartVar, 
TestParameter, AutoAnalysis.Line1.Point2.Data.StartCondition, 
TestParameter, AutoAnalysis.Line1.GradientExpr, 0
TestParameter, AutoAnalysis.Line2.Enabled, false
TestParameter, AutoAnalysis.Line2.Type, 1
TestParameter, AutoAnalysis.Line2.Fix, True
TestParameter, AutoAnalysis.Line2.YAxis, 0
TestParameter, AutoAnalysis.Line2.Point1.Type, 0
TestParameter, AutoAnalysis.Line2.Point1.XY.X, 
TestParameter, AutoAnalysis.Line2.Point1.XY.Y, 
TestParameter, AutoAnalysis.Line2.Point1.Data.Var, 
TestParameter, AutoAnalysis.Line2.Point1.Data.Condition, 
TestParameter, AutoAnalysis.Line2.Point1.Data.Start, false
TestParameter, AutoAnalysis.Line2.Point1.Data.StartVar, 
TestParameter, AutoAnalysis.Line2.Point1.Data.StartCondition, 
TestParameter, AutoAnalysis.Line2.Point2.Type, 0
TestParameter, AutoAnalysis.Line2.Point2.XY.X, 
TestParameter, AutoAnalysis.Line2.Point2.XY.Y, 
TestParameter, AutoAnalysis.Line2.Point2.Data.Var, 
TestParameter, AutoAnalysis.Line2.Point2.Data.Condition, 
TestParameter, AutoAnalysis.Line2.Point2.Data.Start, false
TestParameter, AutoAnalysis.Line2.Point2.Data.StartVar, 
TestParameter, AutoAnalysis.Line2.Point2.Data.StartCondition, 
TestParameter, AutoAnalysis.Line2.GradientExpr, 0
TestParameter, AutoAnalysis.Marker.Enabled, false
TestParameter, AutoAnalysis.Marker.Data.Var, 
TestParameter, AutoAnalysis.Marker.Data.Condition, 
TestParameter, AutoAnalysis.Marker.Data.Start, false
TestParameter, AutoAnalysis.Marker.Data.StartVar, 
TestParameter, AutoAnalysis.Marker.Data.StartCondition, 
MetaData, TestRecord.EntryPoint, true
MetaData, TestRecord.RecordTime, 04/24/2019 14:58:14
MetaData, TestRecord.TestTarget, 25
MetaData, TestRecord.IterationIndex, 3
MetaData, TestRecord.Preservation, true
MetaData, TestRecord.Flag, 
MetaData, TestRecord.Remarks, 350-300-G25
MetaData, TestRecord.LinkKey, d96cce58-f058-4c4d-918e-392452efcb57
Dimension1, 101, 101, 101, 101, 101, 101, 101, 101, 101, 101
Dimension2, 1, 1, 1, 1, 1, 1, 1, 1, 1, 1
DataName, VG, VD, VS, ID, IS, IG, absID, sqrtID, gm2, absIG
DataValue, -2, 3, 0, 1.9700000000000003E-12, 1.6700000000000002E-12, -2.1370000000000003E-12, 1.9700000000000003E-12, 1.40356688476182E-06, 4.0152156322331672E-11, 2.1370000000000003E-12
DataValue, -1.9500000000000002, 3, 0, 1.1810000000000001E-12, 1.2520000000000001E-12, -1.4050000000000002E-12, 1.1810000000000001E-12, 1.0867382389517727E-06, 2.9695010470274874E-13, 1.4050000000000002E-12
DataValue, -1.9000000000000001, 3, 0, 1.8200000000000003E-12, 4.41E-12, -6.9400000000000007E-13, 1.8200000000000003E-12, 1.3490737563232043E-06, 4.7200010583130471E-12, 6.9400000000000007E-13
DataValue, -1.85, 3, 0, 7.56E-13, 1.931E-12, -1.7700000000000001E-12, 7.56E-13, 8.6948260477136633E-07, 8.1889393952141475E-12, 1.7700000000000001E-12
DataValue, -1.8, 3, 0, -2.674E-12, -5.6630000000000004E-12, 1.264E-12, 2.674E-12, 1.6352369858830861E-06, 3.694201107028063E-13, 1.264E-12
DataValue, -1.75, 3, 0, -6.54E-13, 7.5960000000000012E-12, -4.1E-14, 6.54E-13, 8.0870266476622919E-07, 1.0135389811528926E-10, 4.1E-14
DataValue, -1.7000000000000002, 3, 0, 3.9500000000000003E-13, 1.0952000000000001E-11, -1.045E-12, 3.9500000000000003E-13, 6.2849025449882681E-07, 2.4668192827324164E-11, 1.045E-12
DataValue, -1.6500000000000001, 3, 0, -1.7040000000000002E-12, 3.2500000000000003E-13, -9.52E-13, 1.7040000000000002E-12, 1.3053735097664576E-06, 5.5205684548474641E-11, 9.52E-13
DataValue, -1.6, 3, 0, 1.881E-12, -3.3370000000000004E-12, -2.0900000000000002E-13, 1.881E-12, 1.3714955340794953E-06, 5.5378694239321104E-12, 2.0900000000000002E-13
DataValue, -1.55, 3, 0, 1.145E-12, 2.5430000000000004E-12, -4.21E-13, 1.145E-12, 1.0700467279516349E-06, 7.3395892411020715E-11, 4.21E-13
DataValue, -1.5, 3, 0, 2.6500000000000003E-13, -8.2000000000000014E-12, -3.1300000000000003E-13, 2.6500000000000003E-13, 5.1478150704935E-07, 5.9480657224377383E-13, 3.1300000000000003E-13
DataValue, -1.4500000000000002, 3, 0, 1.316E-12, 3.4790000000000004E-12, -3.5800000000000004E-13, 1.316E-12, 1.147170431975999E-06, 1.987038281527011E-12, 3.5800000000000004E-13
DataValue, -1.4000000000000001, 3, 0, -4.3000000000000004E-13, 1.0850000000000001E-12, 1.2000000000000002E-13, 4.3000000000000004E-13, 6.5574385243020006E-07, 4.1368862325063955E-11, 1.2000000000000002E-13
DataValue, -1.35, 3, 0, -2.5400000000000003E-13, -1.7910000000000001E-12, -3.6800000000000005E-13, 2.5400000000000003E-13, 5.039841267341661E-07, 1.2921212194013044E-12, 3.6800000000000005E-13
DataValue, -1.3, 3, 0, 5.92E-13, 1.4610000000000001E-12, 1.1400000000000002E-13, 5.92E-13, 7.6941536246685378E-07, 1.357214644693028E-12, 1.1400000000000002E-13
DataValue, -1.25, 3, 0, -3.8500000000000003E-13, 3.2370000000000004E-12, -2.61E-13, 3.8500000000000003E-13, 6.2048368229954285E-07, 2.3334594067454641E-11, 2.61E-13
DataValue, -1.2, 3, 0, 8.2E-14, 5.2800000000000007E-13, -2.582E-12, 8.2E-14, 2.8635642126552706E-07, 9.4174209534736147E-12, 2.582E-12
DataValue, -1.1500000000000001, 3, 0, 8.6000000000000007E-13, 1.178E-12, 1.76E-13, 8.6000000000000007E-13, 9.2736184954957043E-07, 2.023650868345939E-11, 1.76E-13
DataValue, -1.1, 3, 0, 5.42E-13, 2.687E-12, -2.33E-13, 5.42E-13, 7.3620649277223844E-07, 4.7709226482095274E-11, 2.33E-13
DataValue, -1.05, 3, 0, 5.6E-14, 1.4490000000000002E-12, 3.3500000000000004E-13, 5.6E-14, 2.3664319132398464E-07, 3.4469938895477243E-13, 3.3500000000000004E-13
DataValue, -1, 3, 0, 4.5900000000000006E-13, 2.3500000000000003E-12, 1.2110000000000002E-12, 4.5900000000000006E-13, 6.77495387438173E-07, 1.4392117976898987E-10, 1.2110000000000002E-12
DataValue, -0.95000000000000007, 3, 0, 2.063E-12, 2.21E-12, -3.5440000000000002E-12, 2.063E-12, 1.4363147287415805E-06, 7.0697698003028226E-13, 3.5440000000000002E-12
DataValue, -0.9, 3, 0, 5.8000000000000005E-13, 6.2640000000000008E-12, -7.820000000000001E-13, 5.8000000000000005E-13, 7.6157731058639085E-07, 1.017132228431391E-10, 7.820000000000001E-13
DataValue, -0.85000000000000009, 3, 0, -1.83E-13, 1.2600000000000002E-13, -3.3300000000000005E-13, 1.83E-13, 4.2778499272414873E-07, 3.4428142142113369E-11, 3.3300000000000005E-13
DataValue, -0.8, 3, 0, 1.8180000000000001E-12, -1.8410000000000003E-12, 5.83E-13, 1.8180000000000001E-12, 1.3483323032546539E-06, 1.2308133212353446E-10, 5.83E-13
DataValue, -0.75, 3, 0, 2.3630000000000003E-12, 1.0025E-11, -5.5000000000000005E-14, 2.3630000000000003E-12, 1.5372052563011879E-06, 7.969991926864291E-12, 5.5000000000000005E-14
DataValue, -0.70000000000000007, 3, 0, 2.6590000000000003E-12, -2.2160000000000003E-12, 6.9200000000000008E-13, 2.6590000000000003E-12, 1.6306440445419105E-06, 3.366806937266E-10, 6.9200000000000008E-13
DataValue, -0.65, 3, 0, 1.1371E-11, -1.0473E-11, 2.56E-13, 1.1371E-11, 3.3720913392136936E-06, 1.4051119392756473E-09, 2.56E-13
DataValue, -0.6, 3, 0, 2.8935E-11, -2.6450000000000003E-11, 1.9200000000000002E-13, 2.8935E-11, 5.3791263231123324E-06, 2.0655684388399346E-09, 1.9200000000000002E-13
DataValue, -0.55, 3, 0, 6.2678E-11, -5.939E-11, 7E-14, 6.2678E-11, 7.9169438547964969E-06, 3.8723940108332972E-09, 7E-14
DataValue, -0.5, 3, 0, 1.34606E-10, -1.3227500000000002E-10, 3.4600000000000004E-13, 1.34606E-10, 1.1601982589195694E-05, 6.1616267394773967E-09, 3.4600000000000004E-13
DataValue, -0.45, 3, 0, 2.48584E-10, -2.39729E-10, 1.9600000000000002E-13, 2.48584E-10, 1.5766546863533564E-05, 8.3440539435347348E-09, 1.9600000000000002E-13
DataValue, -0.4, 3, 0, 4.3000500000000006E-10, -4.12932E-10, -4.7870000000000005E-12, 4.3000500000000006E-10, 2.07365619136828E-05, 1.1543714496840242E-08, 4.7870000000000005E-12
DataValue, -0.35000000000000003, 3, 0, 7.02818E-10, -6.66429E-10, 3.4E-13, 7.02818E-10, 2.6510714814957366E-05, 1.1627897899215602E-08, 3.4E-13
DataValue, -0.3, 3, 0, 9.935E-10, -9.31423E-10, 4.2000000000000003E-13, 9.935E-10, 3.1519835024948974E-05, 1.714682312315299E-08, 4.2000000000000003E-13
DataValue, -0.25, 3, 0, 1.56858E-09, -1.47185E-09, -4.1900000000000003E-13, 1.56858E-09, 3.9605302675273169E-05, 3.0749880249922936E-08, 4.1900000000000003E-13
DataValue, -0.2, 3, 0, 2.40644E-09, -2.35019E-09, -1.893E-12, 2.40644E-09, 4.9055478796970269E-05, 4.8095217216879545E-08, 1.893E-12
DataValue, -0.15, 3, 0, 3.78667E-09, -3.71416E-09, 4.1E-14, 3.78667E-09, 6.1535924466932327E-05, 7.6184553936568E-08, 4.1E-14
DataValue, -0.1, 3, 0, 5.8763E-09, -5.76572E-09, 3.15E-13, 5.8763E-09, 7.6657028379660013E-05, 1.0989630101177377E-07, 3.15E-13
DataValue, -0.05, 3, 0, 8.96554E-09, -8.81044E-09, 4.68E-13, 8.96554E-09, 9.4686535473635316E-05, 1.2659520793926008E-07, 4.68E-13
DataValue, 0, 3, 0, 1.25972E-08, -1.21723E-08, 2.0400000000000001E-13, 1.25972E-08, 0.00011223724871895247, 1.6632846867983061E-07, 2.0400000000000001E-13
DataValue, 0.05, 3, 0, 1.8352099999999997E-08, -1.80932E-08, 1.4E-13, 1.8352099999999997E-08, 0.00013546992286112811, 2.2886280765529962E-07, 1.4E-13
DataValue, 0.1, 3, 0, 2.5624599999999998E-08, -2.52056E-08, 3.9000000000000004E-14, 2.5624599999999998E-08, 0.00016007685654085039, 2.4123381055740263E-07, 3.9000000000000004E-14
DataValue, 0.15, 3, 0, 3.40718E-08, -3.35516E-08, -3.4020000000000002E-12, 3.40718E-08, 0.00018458548155258581, 2.42870827099578E-07, 3.4020000000000002E-12
DataValue, 0.2, 3, 0, 4.3831099999999996E-08, -4.31458E-08, 6.0000000000000007E-13, 4.3831099999999996E-08, 0.00020935878295404755, 2.4165898975108936E-07, 6.0000000000000007E-13
DataValue, 0.25, 3, 0, 5.4636399999999996E-08, -5.3877099999999992E-08, 1.9000000000000002E-13, 5.4636399999999996E-08, 0.00023374430474345251, 2.4766445500602537E-07, 1.9000000000000002E-13
DataValue, 0.3, 3, 0, 6.7145599999999989E-08, -6.61471E-08, 3.2400000000000003E-13, 6.7145599999999989E-08, 0.0002591246804146606, 2.579183112255746E-07, 3.2400000000000003E-13
DataValue, 0.35000000000000003, 3, 0, 8.0957299999999991E-08, -7.9872299999999992E-08, -3.5710000000000004E-12, 8.0957299999999991E-08, 0.0002845299632727632, 2.7877543064802081E-07, 3.5710000000000004E-12
DataValue, 0.4, 3, 0, 9.7296499999999987E-08, -9.58472E-08, 3.08E-13, 9.7296499999999987E-08, 0.00031192386891675986, 2.1587623981678579E-07, 3.08E-13
DataValue, 0.45, 3, 0, 1.0955599999999999E-07, -1.06449E-07, -9.11E-13, 1.0955599999999999E-07, 0.00033099244704373542, 2.6079269915530046E-07, 9.11E-13
DataValue, 0.5, 3, 0, 1.31763E-07, -1.29784E-07, 2.393E-12, 1.31763E-07, 0.00036299173544310893, 4.0222285137501487E-07, 2.393E-12
DataValue, 0.55, 3, 0, 1.55562E-07, -1.53218E-07, -1.46E-13, 1.55562E-07, 0.00039441348861315583, 3.9832143966218438E-07, 1.46E-13
DataValue, 0.6, 3, 0, 1.81565E-07, -1.78768E-07, 9.0000000000000008E-14, 1.81565E-07, 0.00042610444728962874, 4.3553434096831796E-07, 9.0000000000000008E-14
DataValue, 0.65, 3, 0, 2.11976E-07, -2.08781E-07, 3.3600000000000003E-13, 2.11976E-07, 0.00046040851425663276, 4.6913416138000791E-07, 3.3600000000000003E-13
DataValue, 0.70000000000000007, 3, 0, 2.44627E-07, -2.40647E-07, -2.047E-12, 2.44627E-07, 0.00049459781641248682, 4.8542728085530529E-07, 2.047E-12
DataValue, 0.75, 3, 0, 2.8098599999999997E-07, -2.76547E-07, -1.178E-12, 2.8098599999999997E-07, 0.00053008112586659792, 5.3840042868305327E-07, 1.178E-12
DataValue, 0.8, 3, 0, 3.22594E-07, -3.17658E-07, 3.97E-13, 3.22594E-07, 0.00056797359093535321, 5.9697127309286376E-07, 3.97E-13
DataValue, 0.85000000000000009, 3, 0, 3.68868E-07, -3.6343E-07, -1.91E-12, 3.68868E-07, 0.00060734504196543831, 6.7447458025648853E-07, 1.91E-12
DataValue, 0.9, 3, 0, 4.2262999999999997E-07, -4.16847E-07, 3.07E-13, 4.2262999999999997E-07, 0.00065009999230887549, 7.64786117461268E-07, 3.07E-13
DataValue, 0.95000000000000007, 3, 0, 4.82743E-07, -4.75394E-07, -1.324E-12, 4.82743E-07, 0.00069479709268246081, 8.5010538160282049E-07, 1.324E-12
DataValue, 1, 3, 0, 5.51011E-07, -5.42746E-07, 3.9100000000000005E-13, 5.51011E-07, 0.00074230115182451391, 9.9673836943338322E-07, 3.9100000000000005E-13
DataValue, 1.05, 3, 0, 6.31443E-07, -6.21695E-07, 1E-15, 6.31443E-07, 0.0007946338779589, 1.1282419873215871E-06, 1E-15
DataValue, 1.1, 3, 0, 7.19986E-07, -7.09889E-07, 1.8600000000000002E-13, 7.19986E-07, 0.00084851988780464073, 1.2595932643286703E-06, 1.8600000000000002E-13
DataValue, 1.1500000000000001, 3, 0, 8.22405E-07, -8.11555E-07, 1.101E-12, 8.22405E-07, 0.00090686548065300185, 1.4220617242230182E-06, 1.101E-12
DataValue, 1.2, 3, 0, 9.36579E-07, -9.23122E-07, -3.213E-12, 9.36579E-07, 0.00096777011733159026, 1.5958058283928302E-06, 3.213E-12
DataValue, 1.25, 3, 0, 1.067483E-06, -1.053245E-06, 5.7800000000000006E-13, 1.067483E-06, 0.0010331906890792232, 1.2261902621910795E-06, 5.7800000000000006E-13
DataValue, 1.3, 3, 0, 1.1631700000000002E-06, -1.1415600000000002E-06, 2.5290000000000002E-12, 1.1631700000000002E-06, 0.0010785035929471909, 1.6997067750917374E-06, 2.5290000000000002E-12
DataValue, 1.35, 3, 0, 1.3538800000000002E-06, -1.33871E-06, 1.52E-13, 1.3538800000000002E-06, 0.0011635634920364251, 2.8326347938985216E-06, 1.52E-13
DataValue, 1.4000000000000001, 3, 0, 1.55453E-06, -1.5370200000000002E-06, -3.585E-12, 1.55453E-06, 0.0012468079242609906, 2.8233925938094078E-06, 3.585E-12
DataValue, 1.4500000000000002, 3, 0, 1.7731400000000003E-06, -1.7528900000000001E-06, -9.9000000000000007E-14, 1.7731400000000003E-06, 0.0013315930309219857, 3.0984363869651088E-06, 9.9000000000000007E-14
DataValue, 1.5, 3, 0, 2.02445E-06, -2.0015800000000003E-06, 5.16E-13, 2.02445E-06, 0.0014228316836505997, 3.4474926898125228E-06, 5.16E-13
DataValue, 1.55, 3, 0, 2.3021000000000004E-06, -2.27725E-06, -1.831E-12, 2.3021000000000004E-06, 0.0015172672803431834, 3.7967241636320222E-06, 1.831E-12
DataValue, 1.6, 3, 0, 2.6169000000000003E-06, -2.59029E-06, 1.76E-13, 2.6169000000000003E-06, 0.001617683529000651, 4.2415665997864149E-06, 1.76E-13
DataValue, 1.6500000000000001, 3, 0, 2.9694800000000004E-06, -2.9379500000000004E-06, 1.805E-12, 2.9694800000000004E-06, 0.001723217920055383, 4.5605207404144711E-06, 1.805E-12
DataValue, 1.7000000000000002, 3, 0, 3.3534300000000003E-06, -3.3236200000000004E-06, 1.64E-13, 3.3534300000000003E-06, 0.001831237286645289, 5.0369698299435591E-06, 1.64E-13
DataValue, 1.75, 3, 0, 3.7933400000000004E-06, -3.7558100000000004E-06, -3.581E-12, 3.7933400000000004E-06, 0.0019476498658639854, 5.5462185757688379E-06, 3.581E-12
DataValue, 1.8, 3, 0, 4.27142E-06, -4.2334700000000007E-06, 4.3200000000000003E-13, 4.27142E-06, 0.0020667413964983619, 5.9747793583004932E-06, 4.3200000000000003E-13
DataValue, 1.85, 3, 0, 4.8052300000000006E-06, -4.7585200000000008E-06, 3.07E-13, 4.8052300000000006E-06, 0.0021920834838116913, 6.5203792540701468E-06, 3.07E-13
DataValue, 1.9000000000000001, 3, 0, 5.39211E-06, -5.3486700000000006E-06, 4.3200000000000003E-13, 5.39211E-06, 0.0023220917294542866, 7.0874602520274741E-06, 4.3200000000000003E-13
DataValue, 1.9500000000000002, 3, 0, 6.0432700000000007E-06, -5.9926800000000005E-06, -2.453E-12, 6.0432700000000007E-06, 0.002458306327535281, 7.6618429430586838E-06, 2.453E-12
DataValue, 2, 3, 0, 6.7542400000000007E-06, -6.7027400000000005E-06, 1.9500000000000003E-13, 6.7542400000000007E-06, 0.0025988920716336029, 8.1446460020273E-06, 1.9500000000000003E-13
DataValue, 2.05, 3, 0, 7.527860000000001E-06, -7.4699200000000008E-06, -3.0520000000000003E-12, 7.527860000000001E-06, 0.0027436945894177074, 8.574570875899795E-06, 3.0520000000000003E-12
DataValue, 2.1, 3, 0, 8.36202E-06, -8.3070900000000015E-06, 2.7500000000000004E-13, 8.36202E-06, 0.002891715753665979, 9.2889116558040432E-06, 2.7500000000000004E-13
DataValue, 2.15, 3, 0, 9.2931800000000014E-06, -9.2278000000000017E-06, -1.3400000000000002E-12, 9.2931800000000014E-06, 0.0030484717482699426, 9.8831844507838873E-06, 1.3400000000000002E-12
DataValue, 2.2, 3, 0, 1.027902E-05, -1.020898E-05, 7.9E-14, 1.027902E-05, 0.0032060910779327526, 9.2038506403447566E-06, 7.9E-14
DataValue, 2.25, 3, 0, 1.12349E-05, -1.1175770000000002E-05, 1.3E-13, 1.12349E-05, 0.0033518502353178012, 1.0093296895287917E-05, 1.3E-13
DataValue, 2.3000000000000003, 3, 0, 1.24171E-05, -1.2273800000000001E-05, -1.6530000000000001E-12, 1.24171E-05, 0.0035237905726646129, 1.1359494120362932E-05, 1.6530000000000001E-12
