
SetupTitle, Transfer sat
PrimitiveTest, I/V Sweep
TestParameter, Context.MainFrame, 4155C
TestParameter, Channel.UnitType, SMU, SMU, SMU
TestParameter, Channel.Unit, SMU3:MP, SMU4:MP, SMU1:MP
TestParameter, Channel.IName, IS, ID, IG
TestParameter, Channel.VName, VS, VD, VG
TestParameter, Channel.Mode, COMMON, V, V
TestParameter, Channel.Func, CONST, CONST, VAR1
TestParameter, Channel.Index, 
TestParameter, Channel.Time, 
TestParameter, Measurement.Port.Unit, SMU3:MP, SMU4:MP, SMU1:MP
TestParameter, Measurement.Port.SeriesResistor, NONE, NONE, NONE
TestParameter, Measurement.Port.Filter, ON, ON, ON
TestParameter, Measurement.Primary.Locus, Double
TestParameter, Measurement.Primary.Scale, LINEAR
TestParameter, Measurement.Primary.Start, -2
TestParameter, Measurement.Primary.Stop, 3
TestParameter, Measurement.Primary.Step, 0.05
TestParameter, Measurement.Primary.Compliance, 0.001
TestParameter, Measurement.Primary.PowerCompliance, 0
TestParameter, Measurement.Aborting.Condition, CONTINUE AT ANY
TestParameter, Measurement.PostOutput.Value, START
TestParameter, Measurement.PostOutput.Retention, OFF
TestParameter, Measurement.Bias.Source, 0, 5, -2
TestParameter, Measurement.Bias.Compliance, 0.1, 0.001, 0.001
TestParameter, Measurement.Monitor.Unit, SMU4:MP, SMU3:MP, SMU1:MP
TestParameter, Measurement.Monitor.Adc, HR ADC, HR ADC, HR ADC
TestParameter, Measurement.Monitor.RangingMode, AUTO, AUTO, AUTO
TestParameter, Measurement.Monitor.RangeBoundary, , , 
TestParameter, Measurement.Monitor.RangeRating, BY FULL RANGE, BY FULL RANGE, BY FULL RANGE
TestParameter, Measurement.Monitor.RangeRatingCoeff, 50, 50, 50
TestParameter, Measurement.Timing.Hold, 0.5
TestParameter, Measurement.Timing.Delay, 0.05
TestParameter, Measurement.Adc.HighResolution.AutoZero, OFF
TestParameter, Measurement.Adc.HighResolution.Mode, AUTO
TestParameter, Measurement.Adc.HighResolution.Coeff, 1
TestParameter, Measurement.Ag16440ASelector.SemiconductorRelay.Channel1, DEFAULT
TestParameter, Measurement.Ag16440ASelector.SemiconductorRelay.Channel3, DEFAULT
TestParameter, Function.User.Name, absID, sqrtID, gm2, absIG
TestParameter, Function.User.Unit, A, A, A/V, A
TestParameter, Function.User.Definition, abs(ID), sqrt(abs(ID)), (delta(sqrtID)/delta(VG))^2, abs(IG)
TestParameter, Output.Graph.Enabled, true
TestParameter, Output.Graph.XAxis.Data, VG
TestParameter, Output.Graph.XAxis.Scale, Linear
TestParameter, Output.Graph.XAxis.Left, -5
TestParameter, Output.Graph.XAxis.Right, 7
TestParameter, Output.Graph.YAxis.Data, ID, absIG, gm2
TestParameter, Output.Graph.YAxis.Scale, Log, Log, Linear
TestParameter, Output.Graph.YAxis.Bottom, 1E-14, 1E-14, 0
TestParameter, Output.Graph.YAxis.Top, 0.01, 0.01, 1E-05
TestParameter, Output.Graph.YAxis.Group, , , 
TestParameter, Output.List.Data, VG, IG, VD, ID, VS, IS, sqrtID, gm2, absIG
TestParameter, AutoAnalysis.Interpolation, false
TestParameter, AutoAnalysis.Line1.Enabled, false
TestParameter, AutoAnalysis.Line1.Type, 1
TestParameter, AutoAnalysis.Line1.Fix, True
TestParameter, AutoAnalysis.Line1.YAxis, 0
TestParameter, AutoAnalysis.Line1.Point1.Type, 0
TestParameter, AutoAnalysis.Line1.Point1.XY.X, 
TestParameter, AutoAnalysis.Line1.Point1.XY.Y, 
TestParameter, AutoAnalysis.Line1.Point1.Data.Var, 
TestParameter, AutoAnalysis.Line1.Point1.Data.Condition, 
TestParameter, AutoAnalysis.Line1.Point1.Data.Start, false
TestParameter, AutoAnalysis.Line1.Point1.Data.StartVar, 
TestParameter, AutoAnalysis.Line1.Point1.Data.StartCondition, 
TestParameter, AutoAnalysis.Line1.Point2.Type, 0
TestParameter, AutoAnalysis.Line1.Point2.XY.X, 
TestParameter, AutoAnalysis.Line1.Point2.XY.Y, 
TestParameter, AutoAnalysis.Line1.Point2.Data.Var, 
TestParameter, AutoAnalysis.Line1.Point2.Data.Condition, 
TestParameter, AutoAnalysis.Line1.Point2.Data.Start, false
TestParameter, AutoAnalysis.Line1.Point2.Data.StartVar, 
TestParameter, AutoAnalysis.Line1.Point2.Data.StartCondition, 
TestParameter, AutoAnalysis.Line1.GradientExpr, 0
TestParameter, AutoAnalysis.Line2.Enabled, false
TestParameter, AutoAnalysis.Line2.Type, 1
TestParameter, AutoAnalysis.Line2.Fix, True
TestParameter, AutoAnalysis.Line2.YAxis, 0
TestParameter, AutoAnalysis.Line2.Point1.Type, 0
TestParameter, AutoAnalysis.Line2.Point1.XY.X, 
TestParameter, AutoAnalysis.Line2.Point1.XY.Y, 
TestParameter, AutoAnalysis.Line2.Point1.Data.Var, 
TestParameter, AutoAnalysis.Line2.Point1.Data.Condition, 
TestParameter, AutoAnalysis.Line2.Point1.Data.Start, false
TestParameter, AutoAnalysis.Line2.Point1.Data.StartVar, 
TestParameter, AutoAnalysis.Line2.Point1.Data.StartCondition, 
TestParameter, AutoAnalysis.Line2.Point2.Type, 0
TestParameter, AutoAnalysis.Line2.Point2.XY.X, 
TestParameter, AutoAnalysis.Line2.Point2.XY.Y, 
TestParameter, AutoAnalysis.Line2.Point2.Data.Var, 
TestParameter, AutoAnalysis.Line2.Point2.Data.Condition, 
TestParameter, AutoAnalysis.Line2.Point2.Data.Start, false
TestParameter, AutoAnalysis.Line2.Point2.Data.StartVar, 
TestParameter, AutoAnalysis.Line2.Point2.Data.StartCondition, 
TestParameter, AutoAnalysis.Line2.GradientExpr, 0
TestParameter, AutoAnalysis.Marker.Enabled, false
TestParameter, AutoAnalysis.Marker.Data.Var, 
TestParameter, AutoAnalysis.Marker.Data.Condition, 
TestParameter, AutoAnalysis.Marker.Data.Start, false
TestParameter, AutoAnalysis.Marker.Data.StartVar, 
TestParameter, AutoAnalysis.Marker.Data.StartCondition, 
MetaData, TestRecord.EntryPoint, true
MetaData, TestRecord.RecordTime, 05/27/2019 12:18:40
MetaData, TestRecord.TestTarget, 350-180-G22-2
MetaData, TestRecord.IterationIndex, 1
MetaData, TestRecord.Preservation, true
MetaData, TestRecord.Flag, 
MetaData, TestRecord.Remarks, MEH
MetaData, TestRecord.LinkKey, 06c04322-ba2e-4d81-a704-142cab3acd09
Dimension1, 202, 202, 202, 202, 202, 202, 202, 202, 202, 202
Dimension2, 1, 1, 1, 1, 1, 1, 1, 1, 1, 1
DataName, VG, VS, VD, ID, IS, IG, absID, sqrtID, gm2, absIG
DataValue, -2, 0, 5, 3.11145E-09, 9.74E-13, -3.80202E-09, 3.11145E-09, 5.5780372892263818E-05, 1.1495866086498402E-08, 3.80202E-09
DataValue, -1.9500000000000002, 0, 5, 3.73826E-09, -5.6600000000000005E-12, -3.78579E-09, 3.73826E-09, 6.1141311729468156E-05, 2.5348776077627372E-09, 3.78579E-09
DataValue, -1.9000000000000001, 0, 5, 3.69848E-09, 2.6470000000000003E-12, -3.62174E-09, 3.69848E-09, 6.08151296964826E-05, 8.4145015045517771E-10, 3.62174E-09
DataValue, -1.85, 0, 5, 3.39196E-09, 1.3200000000000002E-13, -3.3436E-09, 3.39196E-09, 5.8240535711821879E-05, 2.2869369448182534E-09, 3.3436E-09
DataValue, -1.8, 0, 5, 3.13969E-09, 9.5800000000000016E-13, -3.16017E-09, 3.13969E-09, 5.6032936742598097E-05, 1.5338313020849909E-09, 3.16017E-09
DataValue, -1.75, 0, 5, 2.95111E-09, 7.73E-13, -2.836E-09, 2.95111E-09, 5.432411987322022E-05, 2.0341238883393094E-09, 2.836E-09
DataValue, -1.7000000000000002, 0, 5, 2.6546E-09, -4.0400000000000005E-13, -2.60182E-09, 2.6546E-09, 5.15228104823485E-05, 1.8775934856614732E-09, 2.60182E-09
DataValue, -1.6500000000000001, 0, 5, 2.4991E-09, -3.7900000000000005E-13, -2.40429E-09, 2.4991E-09, 4.9990999189854168E-05, 1.3556596620909085E-09, 2.40429E-09
DataValue, -1.6, 0, 5, 2.28875E-09, 1.0180000000000001E-12, -2.26655E-09, 2.28875E-09, 4.7840882098891112E-05, 1.5669806666931435E-09, 2.26655E-09
DataValue, -1.55, 0, 5, 2.11899E-09, 2.6000000000000003E-14, -2.05879E-09, 2.11899E-09, 4.6032488527126144E-05, 1.4842435850622176E-09, 2.05879E-09
DataValue, -1.5, 0, 5, 1.93497E-09, -1.4860000000000001E-12, -1.88569E-09, 1.93497E-09, 4.39882938973541E-05, 1.3071065944172979E-09, 1.88569E-09
DataValue, -1.4500000000000002, 0, 5, 1.79921E-09, -5.11E-13, -1.76902E-09, 1.79921E-09, 4.2417095610142854E-05, 8.5381191827463208E-10, 1.76902E-09
DataValue, -1.4000000000000001, 0, 5, 1.68644E-09, -3.4740000000000003E-12, -1.65608E-09, 1.68644E-09, 4.1066287877040947E-05, 9.0043712384949884E-10, 1.65608E-09
DataValue, -1.35, 0, 5, 1.55365E-09, -4.01E-13, -1.54573E-09, 1.55365E-09, 3.9416367158833905E-05, 9.26228376090577E-10, 1.54573E-09
DataValue, -1.3, 0, 5, 1.44574E-09, 2.35E-13, -1.43569E-09, 1.44574E-09, 3.8022887844034148E-05, 7.2937962987859028E-10, 1.43569E-09
DataValue, -1.25, 0, 5, 1.34804E-09, -4.3000000000000006E-14, -1.33007E-09, 1.34804E-09, 3.6715664232041342E-05, 8.0717035210978621E-10, 1.33007E-09
DataValue, -1.2, 0, 5, 1.23776E-09, -5.848E-12, -1.2257E-09, 1.23776E-09, 3.5181813483673639E-05, 8.7401189395710054E-10, 1.2257E-09
DataValue, -1.1500000000000001, 0, 5, 1.13969E-09, 4.197E-12, -1.12615E-09, 1.13969E-09, 3.3759295016335871E-05, 6.9858050127095447E-10, 1.12615E-09
DataValue, -1.1, 0, 5, 1.05877E-09, 8.3000000000000012E-14, -1.03146E-09, 1.05877E-09, 3.2538746134416431E-05, 8.2044663928911862E-10, 1.03146E-09
DataValue, -1.05, 0, 5, 9.5449800000000015E-10, 3.8400000000000006E-12, -9.67506E-10, 9.5449800000000015E-10, 3.0894951043819441E-05, 8.0588619433440406E-10, 9.67506E-10
DataValue, -1, 0, 5, 8.8208600000000007E-10, 1.9000000000000002E-13, -8.7767600000000008E-10, 8.8208600000000007E-10, 2.9699932659856319E-05, 4.4398241310656595E-10, 8.7767600000000008E-10
DataValue, -0.95000000000000007, 0, 5, 8.2874100000000009E-10, -3.14E-13, -8.1503E-10, 8.2874100000000009E-10, 2.8787862025513461E-05, 4.4544240221782808E-10, 8.1503E-10
DataValue, -0.9, 0, 5, 7.6117400000000011E-10, 4.86E-13, -7.6234100000000009E-10, 7.6117400000000011E-10, 2.7589382015550838E-05, 5.4000972722775289E-10, 7.6234100000000009E-10
DataValue, -0.85000000000000009, 0, 5, 7.00346E-10, -3.2400000000000003E-13, -7.0226900000000009E-10, 7.00346E-10, 2.6464051088221547E-05, 3.6825245810774783E-10, 7.0226900000000009E-10
DataValue, -0.8, 0, 5, 6.58969E-10, -2.0000000000000003E-14, -6.34401E-10, 6.58969E-10, 2.5670391504610913E-05, 4.5645217659623724E-10, 6.34401E-10
DataValue, -0.75, 0, 5, 5.91831E-10, 4.478E-12, -5.72223E-10, 5.91831E-10, 2.4327576944693856E-05, 4.3356255571227133E-10, 5.72223E-10
DataValue, -0.70000000000000007, 0, 5, 5.5640200000000008E-10, -2.6600000000000003E-13, -5.53517E-10, 5.5640200000000008E-10, 2.3588175003590255E-05, 2.6047528159706597E-10, 5.53517E-10
DataValue, -0.65, 0, 5, 5.1591E-10, -1.2000000000000002E-13, -4.9748600000000007E-10, 5.1591E-10, 2.271365228227288E-05, 3.5185589704662488E-10, 4.9748600000000007E-10
DataValue, -0.6, 0, 5, 4.7142800000000008E-10, -7.03E-13, -4.6679700000000006E-10, 4.7142800000000008E-10, 2.171239277463449E-05, 3.9726675874613223E-10, 4.6679700000000006E-10
DataValue, -0.55, 0, 5, 4.2933900000000003E-10, -1.03E-13, -4.29525E-10, 4.2933900000000003E-10, 2.0720497098284107E-05, 2.3359735694584453E-10, 4.29525E-10
DataValue, -0.5, 0, 5, 4.07394E-10, 4.5400000000000003E-13, -3.96546E-10, 4.07394E-10, 2.018400356718161E-05, 2.2587113999086454E-10, 3.96546E-10
DataValue, -0.45, 0, 5, 3.6931600000000004E-10, -8.21E-13, -3.6494800000000005E-10, 3.6931600000000004E-10, 1.9217596103571333E-05, 2.7888393923429131E-10, 3.6494800000000005E-10
DataValue, -0.4, 0, 5, 3.4276900000000004E-10, -5.14E-13, -3.3870800000000005E-10, 3.4276900000000004E-10, 1.8514021713285313E-05, 2.1680434703894446E-10, 3.3870800000000005E-10
DataValue, -0.35000000000000003, 0, 5, 3.1489100000000005E-10, -4.9000000000000006E-14, -3.1183600000000005E-10, 3.1489100000000005E-10, 1.7745168356485098E-05, 1.8960095342856837E-10, 3.1183600000000005E-10
DataValue, -0.3, 0, 5, 2.93679E-10, -2.17E-13, -2.9060800000000003E-10, 2.93679E-10, 1.7137065092949841E-05, 1.8404606404464883E-10, 2.9060800000000003E-10
DataValue, -0.25, 0, 5, 2.68584E-10, -4.714E-12, -2.6241800000000004E-10, 2.68584E-10, 1.6388532576164348E-05, 1.5403062740733187E-10, 2.6241800000000004E-10
DataValue, -0.2, 0, 5, 2.52682E-10, -6.79E-13, -2.5314300000000004E-10, 2.52682E-10, 1.5895974333144855E-05, 8.931289313310243E-11, 2.5314300000000004E-10
DataValue, -0.15, 0, 5, 2.38501E-10, -2.36E-13, -2.32134E-10, 2.38501E-10, 1.5443477587641974E-05, 1.3063910234942755E-10, 2.32134E-10
DataValue, -0.1, 0, 5, 2.1765100000000003E-10, -3.18E-13, -2.15506E-10, 2.1765100000000003E-10, 1.4752999694977291E-05, 1.5690956213942817E-10, 2.15506E-10
DataValue, -0.05, 0, 5, 2.0138E-10, -3.62E-13, -1.98738E-10, 2.0138E-10, 1.4190842117365693E-05, 9.1845974720394246E-11, 1.98738E-10
DataValue, 0, 0, 5, 1.9029200000000001E-10, 3.121E-12, -1.8101800000000002E-10, 1.9029200000000001E-10, 1.3794636638926014E-05, 1.2849249624996378E-10, 1.8101800000000002E-10
DataValue, 0.05, 0, 5, 1.7049300000000002E-10, 8.47E-13, -1.6855500000000002E-10, 1.7049300000000002E-10, 1.3057296810595982E-05, 1.4352282150306734E-10, 1.6855500000000002E-10
DataValue, 0.1, 0, 5, 1.5867500000000002E-10, -5.9900000000000007E-13, -1.53306E-10, 1.5867500000000002E-10, 1.2596626532528462E-05, 9.0962687989271392E-11, 1.53306E-10
DataValue, 0.15, 0, 5, 1.46496E-10, -1.25E-13, -1.4458500000000002E-10, 1.46496E-10, 1.2103553197305327E-05, 1.3070039924033715E-10, 1.4458500000000002E-10
DataValue, 0.2, 0, 5, 1.3118E-10, -1.3900000000000001E-12, -1.2915700000000002E-10, 1.3118E-10, 1.1453383779477575E-05, 1.3216946245941253E-10, 1.2915700000000002E-10
DataValue, 0.25, 0, 5, 1.19988E-10, -1.303E-12, -1.1564700000000001E-10, 1.19988E-10, 1.0953903413852068E-05, 1.1969238956038432E-10, 1.1564700000000001E-10
DataValue, 0.3, 0, 5, 1.07316E-10, -2.519E-12, -1.0630500000000001E-10, 1.07316E-10, 1.0359343608549723E-05, 8.5718486031455825E-11, 1.0630500000000001E-10
DataValue, 0.35000000000000003, 0, 5, 1.00562E-10, -8.780000000000001E-13, -9.7470000000000013E-11, 1.00562E-10, 1.0028060630052055E-05, 7.0409219153776444E-11, 9.7470000000000013E-11
DataValue, 0.4, 0, 5, 9.0635E-11, -2.6000000000000003E-14, -8.871000000000001E-11, 9.0635E-11, 9.5202415935731384E-06, 7.7382422439080262E-11, 8.871000000000001E-11
DataValue, 0.45, 0, 5, 8.369300000000001E-11, -3.39E-13, -8.187900000000001E-11, 8.369300000000001E-11, 9.1483878361162628E-06, 6.0749215959328728E-11, 8.187900000000001E-11
DataValue, 0.5, 0, 5, 7.6402000000000007E-11, 3.91E-12, -7.5470000000000012E-11, 7.6402000000000007E-11, 8.7408237598066233E-06, 4.0305886885621476E-11, 7.5470000000000012E-11
DataValue, 0.55, 0, 5, 7.248E-11, 1.093E-12, -7.2139E-11, 7.248E-11, 8.5135186615171057E-06, 2.2492693046763585E-11, 7.2139E-11
DataValue, 0.6, 0, 5, 6.8336000000000011E-11, -6.36E-13, -6.7418000000000007E-11, 6.8336000000000011E-11, 8.2665591390856214E-06, 2.3820175646068606E-11, 6.7418000000000007E-11
DataValue, 0.65, 0, 5, 6.4408000000000009E-11, -6.124E-12, -6.043E-11, 6.4408000000000009E-11, 8.025459488403142E-06, 1.7862820447484623E-11, 6.043E-11
DataValue, 0.70000000000000007, 0, 5, 6.1527E-11, -4.059E-12, -5.7762000000000007E-11, 6.1527E-11, 7.84391483890538E-06, 1.417995876831263E-13, 5.7762000000000007E-11
DataValue, 0.75, 0, 5, 6.3805E-11, -7.0980000000000007E-12, -5.3502000000000007E-11, 6.3805E-11, 7.9878032023829931E-06, 3.3851398928819678E-11, 5.3502000000000007E-11
DataValue, 0.8, 0, 5, 7.0993E-11, -2.0905E-11, -4.8393000000000007E-11, 7.0993E-11, 8.4257343893574045E-06, 2.58693113402936E-10, 4.8393000000000007E-11
DataValue, 0.85000000000000009, 0, 5, 9.2087E-11, -4.4497E-11, -4.4339E-11, 9.2087E-11, 9.5961971634601181E-06, 1.0697317023927993E-09, 4.4339E-11
DataValue, 0.9, 0, 5, 1.36806E-10, -9.0862E-11, -3.9405000000000005E-11, 1.36806E-10, 1.16964097055464E-05, 2.9235675983957106E-09, 3.9405000000000005E-11
DataValue, 0.95000000000000007, 0, 5, 2.2509600000000002E-10, -1.8135600000000003E-10, -3.5724E-11, 2.2509600000000002E-10, 1.5003199658739466E-05, 6.2009960530513592E-09, 3.5724E-11
DataValue, 1, 0, 5, 3.8302600000000004E-10, -3.3560400000000004E-10, -3.2936E-11, 3.8302600000000004E-10, 1.9571050048477216E-05, 1.0729369888548234E-08, 3.2936E-11
DataValue, 1.05, 0, 5, 6.43204E-10, -5.9387500000000008E-10, -2.9803E-11, 6.43204E-10, 2.5361466834550404E-05, 1.488900677175398E-08, 2.9803E-11
DataValue, 1.1, 0, 5, 1.00953E-09, -9.64963E-10, -2.7231E-11, 1.00953E-09, 3.1773101831580747E-05, 2.3516131581773505E-08, 2.7231E-11
DataValue, 1.1500000000000001, 0, 5, 1.6562E-09, -1.54904E-09, -2.5190000000000002E-11, 1.6562E-09, 4.0696437190496172E-05, 3.5352601298681996E-08, 2.5190000000000002E-11
DataValue, 1.2, 0, 5, 2.55787E-09, -2.4985E-09, -2.2933000000000002E-11, 2.55787E-09, 5.05753892718583E-05, 4.663186667634894E-08, 2.2933000000000002E-11
DataValue, 1.25, 0, 5, 3.88015E-09, -3.80109E-09, -2.0831000000000003E-11, 3.88015E-09, 6.2290850050388615E-05, 6.0553990985334241E-08, 2.0831000000000003E-11
DataValue, 1.3, 0, 5, 5.6525E-09, -5.55513E-09, -1.9154000000000002E-11, 5.6525E-09, 7.5183109805327945E-05, 7.3856618464088175E-08, 1.9154000000000002E-11
DataValue, 1.35, 0, 5, 8.00442E-09, -7.88224E-09, -1.8227E-11, 8.00442E-09, 8.9467424239216811E-05, 8.4830980620713533E-08, 1.8227E-11
DataValue, 1.4000000000000001, 0, 5, 1.088034E-08, -1.05364E-08, -1.5814E-11, 1.088034E-08, 0.00010430886827111106, 5.5557424282357879E-08, 1.5814E-11
DataValue, 1.4500000000000002, 0, 5, 1.2777599999999999E-08, -1.2767099999999998E-08, -1.3312000000000001E-11, 1.2777599999999999E-08, 0.00011303804669225313, 8.6392875601194824E-08, 1.3312000000000001E-11
DataValue, 1.5, 0, 5, 1.78761E-08, -1.77296E-08, -1.2121000000000001E-11, 1.78761E-08, 0.00013370153327467863, 1.7431058181407415E-07, 1.2121000000000001E-11
DataValue, 1.55, 0, 5, 2.3959499999999997E-08, -2.3734499999999997E-08, -1.1079000000000002E-11, 2.3959499999999997E-08, 0.00015478856546915861, 1.836500188089365E-07, 1.1079000000000002E-11
DataValue, 1.6, 0, 5, 3.1171999999999996E-08, -3.0890499999999995E-08, -1.0218E-11, 3.1171999999999996E-08, 0.000176555940143627, 1.9991235836912105E-07, 1.0218E-11
DataValue, 1.6500000000000001, 0, 5, 3.9800299999999995E-08, -3.9411999999999996E-08, -9.5780000000000014E-12, 3.9800299999999995E-08, 0.00019950012531324383, 2.2029151573685218E-07, 9.5780000000000014E-12
DataValue, 1.7000000000000002, 0, 5, 4.9948299999999995E-08, -4.95133E-08, -8.707E-12, 4.9948299999999995E-08, 0.00022349116313626362, 2.4344538485391955E-07, 8.707E-12
DataValue, 1.75, 0, 5, 6.192149999999999E-08, -6.1385699999999988E-08, -7.888E-12, 6.192149999999999E-08, 0.00024884031023931791, 2.6972307729835968E-07, 7.888E-12
DataValue, 1.8, 0, 5, 7.5859499999999992E-08, -7.5224E-08, -7.342E-12, 7.5859499999999992E-08, 0.00027542603362790526, 2.9520648455735807E-07, 7.342E-12
DataValue, 1.85, 0, 5, 9.1913999999999985E-08, -9.1180699999999985E-08, -6.6560000000000007E-12, 9.1913999999999985E-08, 0.00030317321781450282, 2.8696813738299092E-07, 6.6560000000000007E-12
DataValue, 1.9000000000000001, 0, 5, 1.0823799999999999E-07, -1.0654E-07, -6.013E-12, 1.0823799999999999E-07, 0.0003289954406978917, 3.1509202254763573E-07, 6.013E-12
DataValue, 1.9500000000000002, 0, 5, 1.2910099999999999E-07, -1.28189E-07, -5.4600000000000006E-12, 1.2910099999999999E-07, 0.00035930627603758883, 3.9056625137596784E-07, 5.4600000000000006E-12
DataValue, 2, 0, 5, 1.53265E-07, -1.52248E-07, -4.811E-12, 1.53265E-07, 0.00039149074063124403, 4.2957448699236397E-07, 4.811E-12
DataValue, 2.05, 0, 5, 1.80496E-07, -1.79244E-07, -4.4030000000000005E-12, 1.80496E-07, 0.00042484820818734781, 4.5857765609006754E-07, 4.4030000000000005E-12
DataValue, 2.1, 0, 5, 2.1087299999999999E-07, -2.0954199999999999E-07, -3.9300000000000004E-12, 2.1087299999999999E-07, 0.00045920910269723529, 4.9076767706233748E-07, 3.9300000000000004E-12
DataValue, 2.15, 0, 5, 2.44929E-07, -2.4342499999999997E-07, -3.467E-12, 2.44929E-07, 0.000494903020803066, 5.2421361538115619E-07, 3.467E-12
DataValue, 2.2, 0, 5, 2.82611E-07, -2.80884E-07, -3.158E-12, 2.82611E-07, 0.00053161170039795023, 5.5876196977052528E-07, 3.158E-12
DataValue, 2.25, 0, 5, 3.24505E-07, -3.22647E-07, -2.7550000000000003E-12, 3.24505E-07, 0.00056965340339543309, 5.9558225986106816E-07, 2.7550000000000003E-12
DataValue, 2.3000000000000003, 0, 5, 3.7061999999999997E-07, -3.68627E-07, -2.556E-12, 3.7061999999999997E-07, 0.00060878567657263421, 6.3302785136066825E-07, 2.556E-12
