
SetupTitle, Transfer stab
PrimitiveTest, I/V Sweep
TestParameter, Context.MainFrame, 4155C
TestParameter, Channel.UnitType, SMU, SMU, SMU
TestParameter, Channel.Unit, SMU3:MP, SMU4:MP, SMU1:MP
TestParameter, Channel.IName, ID, IS, IG
TestParameter, Channel.VName, VD, VS, VG
TestParameter, Channel.Mode, V, COMMON, V
TestParameter, Channel.Func, CONST, CONST, VAR1
TestParameter, Channel.Index, 
TestParameter, Channel.Time, 
TestParameter, Measurement.Port.Unit, SMU3:MP, SMU4:MP, SMU1:MP
TestParameter, Measurement.Port.SeriesResistor, NONE, NONE, NONE
TestParameter, Measurement.Port.Filter, ON, ON, ON
TestParameter, Measurement.Primary.Locus, Single
TestParameter, Measurement.Primary.Scale, LINEAR
TestParameter, Measurement.Primary.Start, -2
TestParameter, Measurement.Primary.Stop, 3
TestParameter, Measurement.Primary.Step, 0.05
TestParameter, Measurement.Primary.Compliance, 0.1
TestParameter, Measurement.Primary.PowerCompliance, 0
TestParameter, Measurement.Aborting.Condition, CONTINUE AT ANY
TestParameter, Measurement.PostOutput.Value, START
TestParameter, Measurement.PostOutput.Retention, OFF
TestParameter, Measurement.Bias.Source, 3, 0, -2
TestParameter, Measurement.Bias.Compliance, 0.1, 0.1, 0.1
TestParameter, Measurement.Monitor.Unit, SMU3:MP, SMU4:MP, SMU1:MP
TestParameter, Measurement.Monitor.Adc, HR ADC, HR ADC, HR ADC
TestParameter, Measurement.Monitor.RangingMode, AUTO, AUTO, AUTO
TestParameter, Measurement.Monitor.RangeBoundary, , , 
TestParameter, Measurement.Monitor.RangeRating, BY FULL RANGE, BY FULL RANGE, BY FULL RANGE
TestParameter, Measurement.Monitor.RangeRatingCoeff, 50, 50, 50
TestParameter, Measurement.Timing.Hold, 0.5
TestParameter, Measurement.Timing.Delay, 0.05
TestParameter, Measurement.Adc.HighResolution.AutoZero, OFF
TestParameter, Measurement.Adc.HighResolution.Mode, AUTO
TestParameter, Measurement.Adc.HighResolution.Coeff, 1
TestParameter, Measurement.Ag16440ASelector.SemiconductorRelay.Channel1, DEFAULT
TestParameter, Measurement.Ag16440ASelector.SemiconductorRelay.Channel3, DEFAULT
TestParameter, Function.User.Name, absID, sqrtID, gm2, absIG
TestParameter, Function.User.Unit, A, A, A/V, A
TestParameter, Function.User.Definition, abs(ID), sqrt(abs(ID)), (delta(sqrtID)/delta(VG))^2, abs(IG)
TestParameter, Output.Graph.Enabled, true
TestParameter, Output.Graph.XAxis.Data, VG
TestParameter, Output.Graph.XAxis.Scale, Linear
TestParameter, Output.Graph.XAxis.Left, -5
TestParameter, Output.Graph.XAxis.Right, 7
TestParameter, Output.Graph.YAxis.Data, ID, absIG, gm2
TestParameter, Output.Graph.YAxis.Scale, Log, Log, Linear
TestParameter, Output.Graph.YAxis.Bottom, 1E-14, 1E-14, 0
TestParameter, Output.Graph.YAxis.Top, 0.01, 0.01, 1E-05
TestParameter, Output.Graph.YAxis.Group, , , 
TestParameter, Output.List.Data, VG, IG, VD, ID, VS, IS, sqrtID, gm2, absIG
TestParameter, AutoAnalysis.Interpolation, false
TestParameter, AutoAnalysis.Line1.Enabled, false
TestParameter, AutoAnalysis.Line1.Type, 1
TestParameter, AutoAnalysis.Line1.Fix, True
TestParameter, AutoAnalysis.Line1.YAxis, 0
TestParameter, AutoAnalysis.Line1.Point1.Type, 0
TestParameter, AutoAnalysis.Line1.Point1.XY.X, 
TestParameter, AutoAnalysis.Line1.Point1.XY.Y, 
TestParameter, AutoAnalysis.Line1.Point1.Data.Var, 
TestParameter, AutoAnalysis.Line1.Point1.Data.Condition, 
TestParameter, AutoAnalysis.Line1.Point1.Data.Start, false
TestParameter, AutoAnalysis.Line1.Point1.Data.StartVar, 
TestParameter, AutoAnalysis.Line1.Point1.Data.StartCondition, 
TestParameter, AutoAnalysis.Line1.Point2.Type, 0
TestParameter, AutoAnalysis.Line1.Point2.XY.X, 
TestParameter, AutoAnalysis.Line1.Point2.XY.Y, 
TestParameter, AutoAnalysis.Line1.Point2.Data.Var, 
TestParameter, AutoAnalysis.Line1.Point2.Data.Condition, 
TestParameter, AutoAnalysis.Line1.Point2.Data.Start, false
TestParameter, AutoAnalysis.Line1.Point2.Data.StartVar, 
TestParameter, AutoAnalysis.Line1.Point2.Data.StartCondition, 
TestParameter, AutoAnalysis.Line1.GradientExpr, 0
TestParameter, AutoAnalysis.Line2.Enabled, false
TestParameter, AutoAnalysis.Line2.Type, 1
TestParameter, AutoAnalysis.Line2.Fix, True
TestParameter, AutoAnalysis.Line2.YAxis, 0
TestParameter, AutoAnalysis.Line2.Point1.Type, 0
TestParameter, AutoAnalysis.Line2.Point1.XY.X, 
TestParameter, AutoAnalysis.Line2.Point1.XY.Y, 
TestParameter, AutoAnalysis.Line2.Point1.Data.Var, 
TestParameter, AutoAnalysis.Line2.Point1.Data.Condition, 
TestParameter, AutoAnalysis.Line2.Point1.Data.Start, false
TestParameter, AutoAnalysis.Line2.Point1.Data.StartVar, 
TestParameter, AutoAnalysis.Line2.Point1.Data.StartCondition, 
TestParameter, AutoAnalysis.Line2.Point2.Type, 0
TestParameter, AutoAnalysis.Line2.Point2.XY.X, 
TestParameter, AutoAnalysis.Line2.Point2.XY.Y, 
TestParameter, AutoAnalysis.Line2.Point2.Data.Var, 
TestParameter, AutoAnalysis.Line2.Point2.Data.Condition, 
TestParameter, AutoAnalysis.Line2.Point2.Data.Start, false
TestParameter, AutoAnalysis.Line2.Point2.Data.StartVar, 
TestParameter, AutoAnalysis.Line2.Point2.Data.StartCondition, 
TestParameter, AutoAnalysis.Line2.GradientExpr, 0
TestParameter, AutoAnalysis.Marker.Enabled, false
TestParameter, AutoAnalysis.Marker.Data.Var, 
TestParameter, AutoAnalysis.Marker.Data.Condition, 
TestParameter, AutoAnalysis.Marker.Data.Start, false
TestParameter, AutoAnalysis.Marker.Data.StartVar, 
TestParameter, AutoAnalysis.Marker.Data.StartCondition, 
MetaData, TestRecord.EntryPoint, true
MetaData, TestRecord.RecordTime, 05/27/2019 10:54:53
MetaData, TestRecord.TestTarget, 350-180-G24
MetaData, TestRecord.IterationIndex, 1
MetaData, TestRecord.Preservation, true
MetaData, TestRecord.Flag, 
MetaData, TestRecord.Remarks, BAD
MetaData, TestRecord.LinkKey, f2bca1d5-d10e-4994-8cb9-71324b744e13
Dimension1, 101, 101, 101, 101, 101, 101, 101, 101, 101, 101
Dimension2, 1, 1, 1, 1, 1, 1, 1, 1, 1, 1
DataName, VG, VD, VS, ID, IS, IG, absID, sqrtID, gm2, absIG
DataValue, -2, 3, 0, 0.00170517, -2.5300000000000003E-13, -0.00158459, 0.00170517, 0.041293704120604145, 0.0012539392011687329, 0.00158459
DataValue, -1.9500000000000002, 3, 0, 0.00185453, 8.580000000000001E-12, -0.0017621100000000001, 0.00185453, 0.04306425431840194, 2.491190071701147E-05, 0.0017621100000000001
DataValue, -1.9000000000000001, 3, 0, 0.00174664, 2.2200000000000002E-12, -0.00164185, 0.00174664, 0.041792822350255311, 0.0010909588445907137, 0.00164185
DataValue, -1.85, 3, 0, 0.00158096, -2.5930000000000004E-12, -0.0016947800000000001, 0.00158096, 0.039761287705505716, 0.00050252913914774935, 0.0016947800000000001
DataValue, -1.8, 3, 0, 0.00156429, 5.1160000000000004E-12, -0.0014486500000000001, 0.00156429, 0.039551106179220828, 2.3432167819942884E-05, 0.0014486500000000001
DataValue, -1.75, 3, 0, 0.0015427, 3.728E-12, -0.00156832, 0.0015427, 0.039277219860881195, 0.00024663232834919819, 0.00156832
DataValue, -1.7000000000000002, 3, 0, 0.00144253, 1.4450000000000002E-12, -0.00145822, 0.00144253, 0.037980652969637055, 0.00016212233621007582, 0.00145822
DataValue, -1.6500000000000001, 3, 0, 0.0014443, 3.489E-12, -0.00142425, 0.0014443, 0.038003947163419746, 9.5005471323629257E-05, 0.00142425
DataValue, -1.6, 3, 0, 0.00136944, 4.52E-12, -0.0013339, 0.00136944, 0.037005945468262261, 0.00015277611695583269, 0.0013339
DataValue, -1.55, 3, 0, 0.00135188, 1.7000000000000002E-12, -0.00130052, 0.00135188, 0.036767920800610955, 0.00013333901175639247, 0.00130052
DataValue, -1.5, 3, 0, 0.00128531, 2.1500000000000003E-12, -0.00120313, 0.00128531, 0.035851220341851682, 0.00038828982453904945, 0.00120313
DataValue, -1.4500000000000002, 3, 0, 0.00121086, 2.299E-12, -0.00137172, 0.00121086, 0.034797413696997653, 0.00023883763332692524, 0.00137172
DataValue, -1.4000000000000001, 3, 0, 0.00139851, 9.52E-13, -0.00140879, 0.00139851, 0.037396657604657664, 0.00053037657657205707, 0.00140879
DataValue, -1.35, 3, 0, 0.00137644, 1.94E-13, -0.00134235, 0.00137644, 0.037100404310465407, 0.00050892674515629077, 0.00134235
DataValue, -1.3, 3, 0, 0.00123487, 1.141E-12, -0.00137134, 0.00123487, 0.0351407171241567, 0.0002498140537915018, 0.00137134
DataValue, -1.25, 3, 0, 0.00126166, 1.205E-12, -0.00128096, 0.00126166, 0.035519853603301912, 0.00049472423340678954, 0.00128096
DataValue, -1.2, 3, 0, 0.00139614, -1.02E-12, -0.00139145, 0.00139614, 0.037364956844615785, 2.0172751356835432E-06, 0.00139145
DataValue, -1.1500000000000001, 3, 0, 0.00127177, 4.1E-14, -0.00124759, 0.00127177, 0.035661884414595925, 0.0020071815030701066, 0.00124759
DataValue, -1.1, 3, 0, 0.00108141, 1.77E-13, -0.00101654, 0.00108141, 0.0328847989198657, 0.0024761143935089105, 0.00101654
DataValue, -1.05, 3, 0, 0.00094162000000000011, -6.2600000000000006E-13, -0.000891562, 0.00094162000000000011, 0.03068582734749057, 0.0016791581469978293, 0.000891562
DataValue, -1, 3, 0, 0.000828694, 2.96E-13, -0.000797933, 0.000828694, 0.028787045697674502, 0.0010096861269928974, 0.000797933
DataValue, -0.95000000000000007, 3, 0, 0.00075670500000000009, -5.92E-13, -0.000742548, 0.00075670500000000009, 0.02750827148331934, 0.0004800287140042313, 0.000742548
DataValue, -0.9, 3, 0, 0.00070735200000000007, -4.8500000000000005E-13, -0.000689812, 0.00070735200000000007, 0.026596089938184523, 0.00035538901804264134, 0.000689812
DataValue, -0.85000000000000009, 3, 0, 0.000656543, -1.3000000000000001E-14, -0.000647815, 0.000656543, 0.025623095051144778, 0.00029248883615549633, 0.000647815
DataValue, -0.8, 3, 0, 0.000619306, -3.97E-13, -0.00061692000000000008, 0.000619306, 0.024885859438645071, 0.00016520102407837324, 0.00061692000000000008
DataValue, -0.75, 3, 0, 0.000592328, -1.2860000000000002E-12, -0.00058938900000000006, 0.000592328, 0.024337789546300215, 0.00012408226713115825, 0.00058938900000000006
DataValue, -0.70000000000000007, 3, 0, 0.000565105, -8.530000000000001E-13, -0.00056139800000000006, 0.000565105, 0.023771937237002792, 0.00012090942952813186, 0.00056139800000000006
DataValue, -0.65, 3, 0, 0.000540014, -1.37E-12, -0.000536729, 0.000540014, 0.023238201307330137, 0.00010160568500392762, 0.000536729
DataValue, -0.6, 3, 0, 0.00051819700000000008, -3.5770000000000002E-12, -0.000516705, 0.00051819700000000008, 0.022763940783616533, 8.3461681554694768E-05, 0.000516705
DataValue, -0.55, 3, 0, 0.000498389, -4.283E-12, -0.000499139, 0.000498389, 0.022324627656469438, 7.03539469915072E-05, 0.000499139
DataValue, -0.5, 3, 0, 0.000480713, -5.608E-12, -0.00048117000000000006, 0.000480713, 0.021925168186356064, 5.7377096435898149E-05, 0.00048117000000000006
DataValue, -0.45, 3, 0, 0.00046514200000000004, -9.7420000000000011E-12, -0.00046905600000000003, 0.00046514200000000004, 0.021567150947679668, 3.2653584499654163E-05, 0.00046905600000000003
DataValue, -0.4, 3, 0, 0.000455982, -1.6037E-11, -0.000459156, 0.000455982, 0.021353735036288148, 2.04745205719647E-05, 0.000459156
DataValue, -0.35000000000000003, 3, 0, 0.000445829, -2.6796000000000002E-11, -0.00045037800000000003, 0.000445829, 0.021114663151468933, 1.922205454573454E-05, 0.00045037800000000003
DataValue, -0.3, 3, 0, 0.00043745000000000004, -4.8132000000000004E-11, -0.000441298, 0.00043745000000000004, 0.020915305400591215, 1.5241372677094851E-05, 0.000441298
DataValue, -0.25, 3, 0, 0.000429495, -8.426E-11, -0.00043339800000000004, 0.000429495, 0.020724261144851461, 1.5886642754063945E-05, 0.00043339800000000004
DataValue, -0.2, 3, 0, 0.000420936, -1.49492E-10, -0.00042421900000000004, 0.000420936, 0.020516724884834813, 1.6681496651325519E-05, 0.00042421900000000004
DataValue, -0.15, 3, 0, 0.00041273300000000003, -2.61114E-10, -0.00041763000000000005, 0.00041273300000000003, 0.020315831265296531, 1.1935848918474738E-05, 0.00041763000000000005
DataValue, -0.1, 3, 0, 0.000406879, -4.4357000000000005E-10, -0.000409472, 0.000406879, 0.020171241905247182, 1.3962544514712299E-05, 0.000409472
DataValue, -0.05, 3, 0, 0.00039769, -7.2367200000000006E-10, -0.000401762, 0.00039769, 0.019942166381815191, 1.7231101419848595E-05, 0.000401762
DataValue, 0, 3, 0, 0.000390305, -1.09914E-09, -0.00039580400000000003, 0.000390305, 0.019756138286618669, 1.1207083122664205E-05, 0.00039580400000000003
DataValue, 0.05, 3, 0, 0.00038445000000000005, -1.74796E-09, -0.00038711400000000003, 0.00038445000000000005, 0.019607396563542035, 1.3864929300088451E-05, 0.00038711400000000003
DataValue, 0.1, 3, 0, 0.000375731, -2.63767E-09, -0.000377707, 0.000375731, 0.019383781880737309, 2.0226149001441406E-05, 0.000377707
DataValue, 0.15, 3, 0, 0.000367016, -3.84621E-09, -0.00036922500000000004, 0.000367016, 0.019157661652717432, 2.3167060140972857E-05, 0.00036922500000000004
DataValue, 0.2, 3, 0, 0.000357303, -5.41426E-09, -0.000360162, 0.000357303, 0.0189024601573446, 2.1539494879998944E-05, 0.000360162
DataValue, 0.25, 3, 0, 0.00034944900000000005, -7.47569E-09, -0.00035118000000000004, 0.00034944900000000005, 0.018693555039103717, 1.97202187419125E-05, 0.00035118000000000004
DataValue, 0.3, 3, 0, 0.000340712, -1.004508E-08, -0.000342747, 0.000340712, 0.018458385628217871, 1.9573376478213117E-05, 0.000342747
DataValue, 0.35000000000000003, 3, 0, 0.00033310400000000003, -1.2745E-08, -0.00033738100000000004, 0.00033310400000000003, 0.0182511369508861, 1.5196101017604953E-05, 0.00033738100000000004
DataValue, 0.4, 3, 0, 0.00032647300000000003, -1.67222E-08, -0.000328115, 0.00032647300000000003, 0.018068563861026697, 1.9188944324228358E-05, 0.000328115
DataValue, 0.45, 3, 0, 0.000317306, -2.1427299999999997E-08, -0.00031835900000000005, 0.000317306, 0.017813085078110417, 2.8142069136175916E-05, 0.00031835900000000005
DataValue, 0.5, 3, 0, 0.000307584, -2.6985399999999998E-08, -0.00030887300000000004, 0.000307584, 0.017538072870187306, 2.9783865980407886E-05, 0.00030887300000000004
DataValue, 0.55, 3, 0, 0.000298161, -3.34346E-08, -0.00029957400000000004, 0.000298161, 0.01726733911174504, 2.7518231543350062E-05, 0.00029957400000000004
DataValue, 0.6, 3, 0, 0.000289459, -4.11726E-08, -0.000290672, 0.000289459, 0.017013494643958366, 2.8492110582519657E-05, 0.000290672
DataValue, 0.65, 3, 0, 0.000280012, -4.9993299999999993E-08, -0.00028144600000000003, 0.000280012, 0.016733559095422589, 3.1167957721059679E-05, 0.00028144600000000003
DataValue, 0.70000000000000007, 3, 0, 0.000270774, -6.0284099999999991E-08, -0.000272482, 0.000270774, 0.016455211940294177, 2.7369763885922302E-05, 0.000272482
DataValue, 0.75, 3, 0, 0.000262777, -7.1996899999999987E-08, -0.00026326100000000004, 0.000262777, 0.01621039789764582, 2.9370658690854063E-05, 0.00026326100000000004
DataValue, 0.8, 3, 0, 0.000253232, -8.5199099999999986E-08, -0.00025406, 0.000253232, 0.015913264906988762, 3.1996486795661964E-05, 0.00025406
DataValue, 0.85000000000000009, 3, 0, 0.00024475800000000003, -1.003177E-07, -0.00024558500000000004, 0.00024475800000000003, 0.015644743526181566, 2.9683233702303634E-05, 0.00024558500000000004
DataValue, 0.9, 3, 0, 0.000236189, -1.13882E-07, -0.000237463, 0.000236189, 0.015368441690685495, 2.74398764979111E-05, 0.000237463
DataValue, 0.95000000000000007, 3, 0, 0.000228642, -1.33593E-07, -0.00022929200000000003, 0.000228642, 0.015120912670867457, 2.7416841706959404E-05, 0.00022929200000000003
DataValue, 1, 3, 0, 0.00022036900000000002, -1.5508E-07, -0.000221074, 0.00022036900000000002, 0.014844830750129824, 3.1264611458128207E-05, 0.000221074
DataValue, 1.05, 3, 0, 0.000212045, -1.78603E-07, -0.00021233500000000002, 0.000212045, 0.014561765002910877, 3.0648366521243256E-05, 0.00021233500000000002
DataValue, 1.1, 3, 0, 0.00020423900000000002, -2.0480399999999999E-07, -0.000205021, 0.00020423900000000002, 0.014291221081489154, 3.03858095878963E-05, 0.000205021
DataValue, 1.1500000000000001, 3, 0, 0.000196295, -2.33642E-07, -0.00019705000000000002, 0.000196295, 0.014010531752935004, 2.9109291910414279E-05, 0.00019705000000000002
DataValue, 1.2, 3, 0, 0.00018910900000000002, -2.6524E-07, -0.000189463, 0.00018910900000000002, 0.013751690805133747, 2.8542979739516626E-05, 0.000189463
DataValue, 1.25, 3, 0, 0.00018161000000000002, -2.9982499999999997E-07, -0.00018239000000000002, 0.00018161000000000002, 0.013476275449841474, 2.9957610911280176E-05, 0.00018239000000000002
DataValue, 1.3, 3, 0, 0.000174355, -3.37788E-07, -0.000174846, 0.000174355, 0.013204355342083158, 2.7024243513021553E-05, 0.000174846
DataValue, 1.35, 3, 0, 0.00016786900000000002, -3.79142E-07, -0.000168194, 0.00016786900000000002, 0.012956426976601227, 2.7031270538208924E-05, 0.000168194
DataValue, 1.4000000000000001, 3, 0, 0.000160895, -4.24111E-07, -0.00016188900000000002, 0.000160895, 0.012684439285991321, 2.7319706766549803E-05, 0.00016188900000000002
DataValue, 1.4500000000000002, 3, 0, 0.000154598, -4.72591E-07, -0.000154844, 0.000154598, 0.01243374440786041, 2.5006404964688784E-05, 0.000154844
DataValue, 1.5, 3, 0, 0.000148459, -5.24794E-07, -0.000148858, 0.000148459, 0.012184375240446266, 2.3723838385242557E-05, 0.000148858
DataValue, 1.55, 3, 0, 0.000142723, -5.81396E-07, -0.00014255, 0.000142723, 0.011946673177081559, 2.4377717411464698E-05, 0.00014255
DataValue, 1.6, 3, 0, 0.00013667100000000002, -6.42388E-07, -0.000136709, 0.00013667100000000002, 0.011690637279464282, 2.5740911183681679E-05, 0.000136709
DataValue, 1.6500000000000001, 3, 0, 0.000130858, -7.07036E-07, -0.00013067500000000002, 0.000130858, 0.011439318161498962, 2.6572609844850402E-05, 0.00013067500000000002
DataValue, 1.7000000000000002, 3, 0, 0.00012488400000000002, -7.76194E-07, -0.000124937, 0.00012488400000000002, 0.011175151005691154, 2.546239874753386E-05, 0.000124937
DataValue, 1.75, 3, 0, 0.000119568, -8.50877E-07, -0.00011961, 0.000119568, 0.010934715359807039, 2.3564842356709389E-05, 0.00011961
DataValue, 1.8, 3, 0, 0.00011427, -9.29551E-07, -0.000113901, 0.00011427, 0.010689714682815441, 2.4444011184478594E-05, 0.000113901
DataValue, 1.85, 3, 0, 0.000109, -1.014162E-06, -0.00010880400000000001, 0.000109, 0.010440306508910551, 2.4825073446648686E-05, 0.00010880400000000001
DataValue, 1.9000000000000001, 3, 0, 0.00010386600000000001, -1.10254E-06, -0.00010353300000000001, 0.00010386600000000001, 0.010191467019031167, 2.2833772982854072E-05, 0.00010353300000000001
DataValue, 1.9500000000000002, 3, 0, 9.92506E-05, -1.17636E-06, -9.9299900000000008E-05, 9.92506E-05, 0.0099624595356769211, 2.1389195341338751E-05, 9.9299900000000008E-05
DataValue, 2, 3, 0, 9.46531E-05, -1.27651E-06, -9.39837E-05, 9.46531E-05, 0.009728982475058736, 2.5385919458518717E-05, 9.39837E-05
DataValue, 2.05, 3, 0, 8.94654E-05, -1.38312E-06, -8.85822E-05, 8.94654E-05, 0.0094586151206188743, 2.9671852676906361E-05, 8.85822E-05
DataValue, 2.1, 3, 0, 8.43507E-05, -1.4942200000000002E-06, -8.31959E-05, 8.43507E-05, 0.0091842637157259367, 3.1695434067291443E-05, 8.31959E-05
DataValue, 2.15, 3, 0, 7.91322E-05, -1.6105900000000002E-06, -7.77761E-05, 7.91322E-05, 0.0088956281397099771, 3.5702789855939258E-05, 7.77761E-05
DataValue, 2.2, 3, 0, 7.37322E-05, -1.7316600000000003E-06, -7.2348400000000007E-05, 7.37322E-05, 0.00858674560005128, 3.8061327305079856E-05, 7.2348400000000007E-05
DataValue, 2.25, 3, 0, 6.85367E-05, -1.8587300000000003E-06, -6.69886E-05, 6.85367E-05, 0.0082786895098197755, 3.7730199100761275E-05, 6.69886E-05
DataValue, 2.3000000000000003, 3, 0, 6.35607E-05, -1.99129E-06, -6.17185E-05, 6.35607E-05, 0.0079724964722475734, 4.0824202976642514E-05, 6.17185E-05
DataValue, 2.35, 3, 0, 5.83658E-05, -2.1296800000000004E-06, -5.64202E-05, 5.83658E-05, 0.007639751304852796, 4.554913298891794E-05, 5.64202E-05
DataValue, 2.4, 3, 0, 5.3254900000000004E-05, -2.2743700000000002E-06, -5.0995800000000004E-05, 5.3254900000000004E-05, 0.0072975954944077305, 5.0667046809505329E-05, 5.0995800000000004E-05
DataValue, 2.45, 3, 0, 4.79964E-05, -2.4245600000000002E-06, -4.57187E-05, 4.79964E-05, 0.0069279434177827986, 5.2612278221516013E-05, 4.57187E-05
DataValue, 2.5, 3, 0, 4.31945E-05, -2.5810900000000003E-06, -4.05925E-05, 4.31945E-05, 0.0065722522775681705, 5.3844024907265386E-05, 4.05925E-05
