
SetupTitle, Transfer lin
PrimitiveTest, I/V Sweep
TestParameter, Context.MainFrame, 4155C
TestParameter, Channel.UnitType, SMU, SMU, SMU
TestParameter, Channel.Unit, SMU1:MP, SMU4:MP, SMU3:MP
TestParameter, Channel.IName, ID, IS, IG
TestParameter, Channel.VName, VD, VS, VG
TestParameter, Channel.Mode, V, COMMON, V
TestParameter, Channel.Func, CONST, CONST, VAR1
TestParameter, Channel.Index, 
TestParameter, Channel.Time, 
TestParameter, Measurement.Port.Unit, SMU1:MP, SMU4:MP, SMU3:MP
TestParameter, Measurement.Port.SeriesResistor, NONE, NONE, NONE
TestParameter, Measurement.Port.Filter, ON, ON, ON
TestParameter, Measurement.Primary.Locus, Double
TestParameter, Measurement.Primary.Scale, LINEAR
TestParameter, Measurement.Primary.Start, -2
TestParameter, Measurement.Primary.Stop, 3
TestParameter, Measurement.Primary.Step, 0.05
TestParameter, Measurement.Primary.Compliance, 0.001
TestParameter, Measurement.Primary.PowerCompliance, 0
TestParameter, Measurement.Aborting.Condition, CONTINUE AT ANY
TestParameter, Measurement.PostOutput.Value, START
TestParameter, Measurement.PostOutput.Retention, OFF
TestParameter, Measurement.Bias.Source, 0.1, 0, -2
TestParameter, Measurement.Bias.Compliance, 0.001, 0.1, 0.001
TestParameter, Measurement.Monitor.Unit, SMU1:MP, SMU4:MP, SMU3:MP
TestParameter, Measurement.Monitor.Adc, HR ADC, HR ADC, HR ADC
TestParameter, Measurement.Monitor.RangingMode, AUTO, AUTO, AUTO
TestParameter, Measurement.Monitor.RangeBoundary, , , 
TestParameter, Measurement.Monitor.RangeRating, BY FULL RANGE, BY FULL RANGE, BY FULL RANGE
TestParameter, Measurement.Monitor.RangeRatingCoeff, 50, 50, 50
TestParameter, Measurement.Timing.Hold, 0.5
TestParameter, Measurement.Timing.Delay, 0.05
TestParameter, Measurement.Adc.HighResolution.AutoZero, OFF
TestParameter, Measurement.Adc.HighResolution.Mode, AUTO
TestParameter, Measurement.Adc.HighResolution.Coeff, 1
TestParameter, Measurement.Ag16440ASelector.SemiconductorRelay.Channel1, DEFAULT
TestParameter, Measurement.Ag16440ASelector.SemiconductorRelay.Channel3, DEFAULT
TestParameter, Function.User.Name, absID, sqrtID, gm2, absIG
TestParameter, Function.User.Unit, A, A, A/V, A
TestParameter, Function.User.Definition, abs(ID), sqrt(abs(ID)), (delta(sqrtID)/delta(VG))^2, abs(IG)
TestParameter, Output.Graph.Enabled, true
TestParameter, Output.Graph.XAxis.Data, VG
TestParameter, Output.Graph.XAxis.Scale, Linear
TestParameter, Output.Graph.XAxis.Left, -5
TestParameter, Output.Graph.XAxis.Right, 7
TestParameter, Output.Graph.YAxis.Data, ID, absIG, gm2
TestParameter, Output.Graph.YAxis.Scale, Log, Log, Linear
TestParameter, Output.Graph.YAxis.Bottom, 1E-14, 1E-14, 0
TestParameter, Output.Graph.YAxis.Top, 0.01, 0.01, 1E-05
TestParameter, Output.Graph.YAxis.Group, , , 
TestParameter, Output.List.Data, VG, IG, VD, ID, VS, IS, sqrtID, gm2, absIG
TestParameter, AutoAnalysis.Interpolation, false
TestParameter, AutoAnalysis.Line1.Enabled, false
TestParameter, AutoAnalysis.Line1.Type, 1
TestParameter, AutoAnalysis.Line1.Fix, True
TestParameter, AutoAnalysis.Line1.YAxis, 0
TestParameter, AutoAnalysis.Line1.Point1.Type, 0
TestParameter, AutoAnalysis.Line1.Point1.XY.X, 
TestParameter, AutoAnalysis.Line1.Point1.XY.Y, 
TestParameter, AutoAnalysis.Line1.Point1.Data.Var, 
TestParameter, AutoAnalysis.Line1.Point1.Data.Condition, 
TestParameter, AutoAnalysis.Line1.Point1.Data.Start, false
TestParameter, AutoAnalysis.Line1.Point1.Data.StartVar, 
TestParameter, AutoAnalysis.Line1.Point1.Data.StartCondition, 
TestParameter, AutoAnalysis.Line1.Point2.Type, 0
TestParameter, AutoAnalysis.Line1.Point2.XY.X, 
TestParameter, AutoAnalysis.Line1.Point2.XY.Y, 
TestParameter, AutoAnalysis.Line1.Point2.Data.Var, 
TestParameter, AutoAnalysis.Line1.Point2.Data.Condition, 
TestParameter, AutoAnalysis.Line1.Point2.Data.Start, false
TestParameter, AutoAnalysis.Line1.Point2.Data.StartVar, 
TestParameter, AutoAnalysis.Line1.Point2.Data.StartCondition, 
TestParameter, AutoAnalysis.Line1.GradientExpr, 0
TestParameter, AutoAnalysis.Line2.Enabled, false
TestParameter, AutoAnalysis.Line2.Type, 1
TestParameter, AutoAnalysis.Line2.Fix, True
TestParameter, AutoAnalysis.Line2.YAxis, 0
TestParameter, AutoAnalysis.Line2.Point1.Type, 0
TestParameter, AutoAnalysis.Line2.Point1.XY.X, 
TestParameter, AutoAnalysis.Line2.Point1.XY.Y, 
TestParameter, AutoAnalysis.Line2.Point1.Data.Var, 
TestParameter, AutoAnalysis.Line2.Point1.Data.Condition, 
TestParameter, AutoAnalysis.Line2.Point1.Data.Start, false
TestParameter, AutoAnalysis.Line2.Point1.Data.StartVar, 
TestParameter, AutoAnalysis.Line2.Point1.Data.StartCondition, 
TestParameter, AutoAnalysis.Line2.Point2.Type, 0
TestParameter, AutoAnalysis.Line2.Point2.XY.X, 
TestParameter, AutoAnalysis.Line2.Point2.XY.Y, 
TestParameter, AutoAnalysis.Line2.Point2.Data.Var, 
TestParameter, AutoAnalysis.Line2.Point2.Data.Condition, 
TestParameter, AutoAnalysis.Line2.Point2.Data.Start, false
TestParameter, AutoAnalysis.Line2.Point2.Data.StartVar, 
TestParameter, AutoAnalysis.Line2.Point2.Data.StartCondition, 
TestParameter, AutoAnalysis.Line2.GradientExpr, 0
TestParameter, AutoAnalysis.Marker.Enabled, false
TestParameter, AutoAnalysis.Marker.Data.Var, 
TestParameter, AutoAnalysis.Marker.Data.Condition, 
TestParameter, AutoAnalysis.Marker.Data.Start, false
TestParameter, AutoAnalysis.Marker.Data.StartVar, 
TestParameter, AutoAnalysis.Marker.Data.StartCondition, 
MetaData, TestRecord.EntryPoint, true
MetaData, TestRecord.RecordTime, 04/23/2019 14:43:49
MetaData, TestRecord.TestTarget, 37
MetaData, TestRecord.IterationIndex, 1
MetaData, TestRecord.Preservation, true
MetaData, TestRecord.Flag, 
MetaData, TestRecord.Remarks, 250-300-G37
MetaData, TestRecord.LinkKey, 891f659c-2e09-40cd-835c-947b01e1ad58
Dimension1, 202, 202, 202, 202, 202, 202, 202, 202, 202, 202
Dimension2, 1, 1, 1, 1, 1, 1, 1, 1, 1, 1
DataName, VG, VD, VS, ID, IS, IG, absID, sqrtID, gm2, absIG
DataValue, -2, 0.1, 0, -1.3820000000000002E-12, 1.973E-12, -1.6790000000000002E-12, 1.3820000000000002E-12, 1.1755849607748476E-06, 2.1818214150721048E-10, 1.6790000000000002E-12
DataValue, -1.9500000000000002, 0.1, 0, -1.9100000000000002E-13, 7.6400000000000008E-13, -3.51E-13, 1.9100000000000002E-13, 4.3703546766824316E-07, 3.4648349883449E-12, 3.51E-13
DataValue, -1.9000000000000001, 0.1, 0, 9.7900000000000017E-13, 1.822E-12, 7.07E-13, 9.7900000000000017E-13, 9.89444288477123E-07, 1.5531246365270161E-13, 7.07E-13
DataValue, -1.85, 0.1, 0, 2.2700000000000002E-13, 1.09E-12, -6.7500000000000005E-13, 2.2700000000000002E-13, 4.7644516998286385E-07, 5.6223320977924443E-12, 6.7500000000000005E-13
DataValue, -1.8, 0.1, 0, 5.66E-13, -1.205E-12, -1.1000000000000001E-13, 5.66E-13, 7.5232971495216115E-07, 1.8034365275749255E-12, 1.1000000000000001E-13
DataValue, -1.75, 0.1, 0, 3.7300000000000003E-13, 4.75E-13, -2.0100000000000003E-13, 3.7300000000000003E-13, 6.1073725938409883E-07, 3.0462355279904949E-13, 2.0100000000000003E-13
DataValue, -1.7000000000000002, 0.1, 0, 4.86E-13, 7.4100000000000007E-13, -2.9300000000000002E-12, 4.86E-13, 6.9713700231733511E-07, 9.5509012052166326E-12, 2.9300000000000002E-12
DataValue, -1.6500000000000001, 0.1, 0, 8.46E-13, -1.2400000000000002E-12, -2.3000000000000003E-13, 8.46E-13, 9.1978258300535356E-07, 1.0198130842691259E-12, 2.3000000000000003E-13
DataValue, -1.6, 0.1, 0, 6.37E-13, 4.63E-13, -3.76E-13, 6.37E-13, 7.9812279756939655E-07, 1.2895148683006947E-12, 3.76E-13
DataValue, -1.55, 0.1, 0, -6.5000000000000006E-13, 3.984E-12, -1.896E-12, 6.5000000000000006E-13, 8.06225774829855E-07, 2.6780146037708349E-12, 1.896E-12
DataValue, -1.5, 0.1, 0, -9.25E-13, -4.5470000000000007E-12, 1.901E-12, 9.25E-13, 9.6176920308356725E-07, 1.1369318395243884E-11, 1.901E-12
DataValue, -1.4500000000000002, 0.1, 0, -2.2000000000000002E-13, -4.7420000000000006E-12, 5.2700000000000008E-13, 2.2000000000000002E-13, 4.69041575982343E-07, 1.0067481824048335E-11, 5.2700000000000008E-13
DataValue, -1.4000000000000001, 0.1, 0, 1.636E-12, 1.3070000000000002E-12, -9.44E-13, 1.636E-12, 1.2790621564255586E-06, 1.6695702759440764E-13, 9.44E-13
DataValue, -1.35, 0.1, 0, 2.6E-13, 2.695E-12, 6.55E-13, 2.6E-13, 5.0990195135927852E-07, 1.1019831599860383E-11, 6.55E-13
DataValue, -1.3, 0.1, 0, 8.9700000000000012E-13, 2.12E-13, -1.32E-12, 8.9700000000000012E-13, 9.4710083940412607E-07, 1.3501761944482705E-12, 1.32E-12
DataValue, -1.25, 0.1, 0, -3.9200000000000005E-13, 1.829E-12, -3.8000000000000005E-13, 3.9200000000000005E-13, 6.2609903369994114E-07, 5.7929543993892921E-11, 3.8000000000000005E-13
DataValue, -1.2, 0.1, 0, 2.9180000000000003E-12, -7.4350000000000013E-12, 5.57E-13, 2.9180000000000003E-12, 1.708215443086732E-06, 3.1112728156412334E-10, 5.57E-13
DataValue, -1.1500000000000001, 0.1, 0, 5.7120000000000007E-12, -4.709E-12, -2.5300000000000003E-12, 5.7120000000000007E-12, 2.389979079406345E-06, 5.6076956804757558E-10, 2.5300000000000003E-12
DataValue, -1.1, 0.1, 0, 1.6616E-11, -1.8226000000000003E-11, 1.7430000000000002E-12, 1.6616E-11, 4.0762728073572306E-06, 2.1607107377634695E-09, 1.7430000000000002E-12
DataValue, -1.05, 0.1, 0, 4.9538000000000006E-11, -4.4969000000000005E-11, -1.0800000000000001E-13, 4.9538000000000006E-11, 7.0383236640552421E-06, 5.5523206597375333E-09, 1.0800000000000001E-13
DataValue, -1, 0.1, 0, 1.3288700000000002E-10, -1.29311E-10, 1.4900000000000002E-13, 1.3288700000000002E-10, 1.1527662382287227E-05, 1.2543235455950951E-08, 1.4900000000000002E-13
DataValue, -0.95000000000000007, 0.1, 0, 3.32624E-10, -3.1740900000000004E-10, -1.29E-13, 3.32624E-10, 1.823798234454678E-05, 2.4736875377996422E-08, 1.29E-13
DataValue, -0.9, 0.1, 0, 7.42869E-10, -7.10881E-10, -6.0000000000000005E-15, 7.42869E-10, 2.7255623273005519E-05, 3.6711119285840816E-08, 6.0000000000000005E-15
DataValue, -0.85000000000000009, 0.1, 0, 1.39862E-09, -1.32914E-09, -1.6700000000000002E-13, 1.39862E-09, 3.7398128295410723E-05, 5.3260158885010046E-08, 1.6700000000000002E-13
DataValue, -0.8, 0.1, 0, 2.53349E-09, -2.48332E-09, -5.3E-14, 2.53349E-09, 5.033378586993035E-05, 6.5814363174930676E-08, 5.3E-14
DataValue, -0.75, 0.1, 0, 3.97561E-09, -3.91217E-09, 1.2000000000000001E-14, 3.97561E-09, 6.3052438493685554E-05, 6.4101360526549742E-08, 1.2000000000000001E-14
DataValue, -0.70000000000000007, 0.1, 0, 5.72323E-09, -5.56476E-09, -1.0520000000000002E-12, 5.72323E-09, 7.5652032358688157E-05, 5.5937628046824929E-08, 1.0520000000000002E-12
DataValue, -0.65, 0.1, 0, 7.51751E-09, -7.48025E-09, -4E-15, 7.51751E-09, 8.6703575474140617E-05, 5.18628734385304E-08, 4E-15
DataValue, -0.6, 0.1, 0, 9.68757E-09, -9.41336E-09, -1.93E-12, 9.68757E-09, 9.8425454024860873E-05, 4.5796335929924332E-08, 1.93E-12
DataValue, -0.55, 0.1, 0, 1.16864E-08, -1.1440299999999998E-08, -2.086E-12, 1.16864E-08, 0.00010810365396229676, 4.2410756959105263E-08, 2.086E-12
DataValue, -0.5, 0.1, 0, 1.4165599999999999E-08, -1.3962099999999998E-08, 1.1300000000000001E-13, 1.4165599999999999E-08, 0.00011901932616176248, 4.0033632506317056E-08, 1.1300000000000001E-13
DataValue, -0.45, 0.1, 0, 1.64127E-08, -1.59868E-08, 3.03E-13, 1.64127E-08, 0.00012811206032220385, 3.3252186114792637E-08, 3.03E-13
DataValue, -0.4, 0.1, 0, 1.8838799999999997E-08, -1.8754499999999998E-08, -1.0660000000000001E-12, 1.8838799999999997E-08, 0.00013725450812268424, 3.0727565601274304E-08, 1.0660000000000001E-12
DataValue, -0.35000000000000003, 0.1, 0, 2.12114E-08, -2.102E-08, 2.05E-13, 2.12114E-08, 0.00014564134028496168, 2.6372024623429141E-08, 2.05E-13
DataValue, -0.3, 0.1, 0, 2.35604E-08, -2.3643E-08, 5.2000000000000006E-14, 2.35604E-08, 0.00015349397382307881, 1.8913157369253166E-08, 5.2000000000000006E-14
DataValue, -0.25, 0.1, 0, 2.5406399999999998E-08, -2.5875899999999997E-08, 1.7900000000000002E-13, 2.5406399999999998E-08, 0.00015939385182622322, 2.0128713075329547E-08, 1.7900000000000002E-13
DataValue, -0.2, 0.1, 0, 2.81171E-08, -2.8282199999999996E-08, -1.021E-12, 2.81171E-08, 0.00016768154340892738, 1.7364868471280957E-08, 1.021E-12
DataValue, -0.15, 0.1, 0, 2.97809E-08, -2.95687E-08, 2.1000000000000002E-14, 2.97809E-08, 0.00017257143448438968, 1.3087185558676774E-08, 2.1000000000000002E-14
DataValue, -0.1, 0.1, 0, 3.20845E-08, -3.20304E-08, -4.99E-13, 3.20845E-08, 0.00017912146716683624, 1.6366957460634979E-08, 4.99E-13
DataValue, -0.05, 0.1, 0, 3.43601E-08, -3.4746899999999995E-08, 3.8000000000000005E-13, 3.43601E-08, 0.00018536477551034337, 1.549292636023464E-08, 3.8000000000000005E-13
DataValue, 0, 0.1, 0, 3.6698499999999996E-08, -3.6024399999999994E-08, 4.12E-13, 3.6698499999999996E-08, 0.00019156852559854397, 1.5294550060002915E-08, 4.12E-13
DataValue, 0.05, 0.1, 0, 3.90979E-08, -3.87823E-08, 4.34E-13, 3.90979E-08, 0.00019773188918330802, 1.0589611253997051E-08, 4.34E-13
DataValue, 0.1, 0.1, 0, 4.0747099999999993E-08, -4.0826799999999995E-08, -2.072E-12, 4.0747099999999993E-08, 0.00020185910928169676, 3.0190469486819924E-09, 2.072E-12
DataValue, 0.15, 0.1, 0, 4.1300999999999994E-08, -4.20454E-08, -8.7900000000000009E-13, 4.1300999999999994E-08, 0.00020322647465327934, 7.0432491311836749E-09, 8.7900000000000009E-13
DataValue, 0.2, 0.1, 0, 4.4205699999999996E-08, -4.4103099999999993E-08, 2.82E-13, 4.4205699999999996E-08, 0.0002102515160468528, 2.0145900805513339E-08, 2.82E-13
DataValue, 0.25, 0.1, 0, 4.7271499999999994E-08, -4.6681799999999997E-08, 4.2000000000000003E-13, 4.7271499999999994E-08, 0.00021742010026674165, 6.0352179267931972E-09, 4.2000000000000003E-13
DataValue, 0.3, 0.1, 0, 4.7532799999999995E-08, -4.7093099999999996E-08, 1.3530000000000002E-12, 4.7532799999999995E-08, 0.000218020182551983, 4.6356729607277849E-09, 1.3530000000000002E-12
DataValue, 0.35000000000000003, 0.1, 0, 5.0278499999999996E-08, -5.0286899999999994E-08, 3.8190000000000006E-12, 5.0278499999999996E-08, 0.00022422867791609528, 1.0463291892403719E-08, 3.8190000000000006E-12
DataValue, 0.4, 0.1, 0, 5.20977E-08, -5.2480099999999996E-08, 3.14E-13, 5.20977E-08, 0.00022824920591318603, 6.5536296347054484E-09, 3.14E-13
DataValue, 0.45, 0.1, 0, 5.39745E-08, -5.5267999999999996E-08, -1.7100000000000002E-12, 5.39745E-08, 0.00023232412702945857, 4.4644245926908311E-09, 1.7100000000000002E-12
DataValue, 0.5, 0.1, 0, 5.5192499999999996E-08, -5.5225599999999993E-08, 1.9200000000000002E-13, 5.5192499999999996E-08, 0.00023493084088727046, 8.6708801058810227E-09, 1.9200000000000002E-13
DataValue, 0.55, 0.1, 0, 5.8387899999999994E-08, -5.8963099999999995E-08, 6.52E-13, 5.8387899999999994E-08, 0.00024163588309686124, 2.0522434853360405E-08, 6.52E-13
DataValue, 0.6, 0.1, 0, 6.2128799999999989E-08, -6.29033E-08, 5.68E-13, 6.2128799999999989E-08, 0.00024925649439884207, 3.6181198996820494E-09, 5.68E-13
DataValue, 0.65, 0.1, 0, 6.1331E-08, -6.14872E-08, -1.4190000000000001E-12, 6.1331E-08, 0.00024765096406030807, 4.3780935801437333E-09, 1.4190000000000001E-12
DataValue, 0.70000000000000007, 0.1, 0, 6.54711E-08, -6.4947399999999988E-08, 2.469E-12, 6.54711E-08, 0.00025587321079003169, 1.1315102486191161E-08, 2.469E-12
DataValue, 0.75, 0.1, 0, 6.67128E-08, -6.6033199999999991E-08, 5.0100000000000009E-13, 6.67128E-08, 0.0002582882111130897, 4.7548041742487126E-09, 5.0100000000000009E-13
DataValue, 0.8, 0.1, 0, 6.9047399999999991E-08, -6.86799E-08, 5.11E-13, 6.9047399999999991E-08, 0.00026276871959957484, 4.1181554711403417E-09, 5.11E-13
DataValue, 0.85000000000000009, 0.1, 0, 7.006899999999999E-08, -6.9379299999999992E-08, -2.201E-12, 7.006899999999999E-08, 0.00026470549673174526, 5.74443390319619E-09, 2.201E-12
DataValue, 0.9, 0.1, 0, 7.3088E-08, -7.29232E-08, 5.14E-13, 7.3088E-08, 0.00027034792397945284, 5.202819490442224E-09, 5.14E-13
DataValue, 0.95000000000000007, 0.1, 0, 7.39397E-08, -7.414909999999999E-08, 6.81E-13, 7.39397E-08, 0.00027191855398262177, 1.1760494688113024E-09, 6.81E-13
DataValue, 1, 0.1, 0, 7.4954E-08, -7.7043899999999993E-08, -1.3420000000000001E-12, 7.4954E-08, 0.00027377728174558238, 2.3380201318166997E-09, 1.3420000000000001E-12
DataValue, 1.05, 0.1, 0, 7.6592699999999987E-08, -7.59798E-08, 2.185E-12, 7.6592699999999987E-08, 0.00027675386176167441, 1.2921022726942281E-08, 2.185E-12
DataValue, 1.1, 0.1, 0, 8.1307299999999991E-08, -7.9550699999999992E-08, 4.4400000000000003E-13, 8.1307299999999991E-08, 0.00028514434940920711, 2.6702062474059278E-09, 4.4400000000000003E-13
DataValue, 1.1500000000000001, 0.1, 0, 7.9479599999999986E-08, -8.0304799999999993E-08, 3.98E-13, 7.9479599999999986E-08, 0.00028192126560442363, 8.7265370902500641E-10, 3.98E-13
DataValue, 1.2, 0.1, 0, 8.3000699999999987E-08, -8.4238999999999991E-08, -2.5670000000000003E-12, 8.3000699999999987E-08, 0.00028809842068293259, 3.3891902482733316E-09, 2.5670000000000003E-12
DataValue, 1.25, 0.1, 0, 8.2796E-08, -8.50037E-08, 3.05E-13, 8.2796E-08, 0.00028774294083434957, 5.9529574838394246E-09, 3.05E-13
DataValue, 1.3, 0.1, 0, 8.75059E-08, -8.912139999999999E-08, 6.870000000000001E-13, 8.75059E-08, 0.000295813961807079, 9.5513662513985117E-09, 6.870000000000001E-13
DataValue, 1.35, 0.1, 0, 8.8515799999999986E-08, -8.8705599999999992E-08, 6.39E-13, 8.8515799999999986E-08, 0.00029751604998722335, 7.3726707687738864E-10, 6.39E-13
DataValue, 1.4000000000000001, 0.1, 0, 8.911969999999999E-08, -8.81486E-08, 8.47E-13, 8.911969999999999E-08, 0.0002985292280497841, 6.8988922834875483E-09, 8.47E-13
DataValue, 1.4500000000000002, 0.1, 0, 9.3527099999999993E-08, -9.20816E-08, 4.99E-13, 9.3527099999999993E-08, 0.00030582200705639217, 1.9714305684802886E-08, 4.99E-13
DataValue, 1.5, 0.1, 0, 9.77E-08, -9.5581499999999988E-08, 4.5200000000000004E-13, 9.77E-08, 0.00031256999216175565, 9.5285337965076459E-09, 4.5200000000000004E-13
DataValue, 1.55, 0.1, 0, 9.9592899999999992E-08, -9.9878799999999993E-08, -2.277E-12, 9.9592899999999992E-08, 0.0003155834279552714, 2.3345471909924807E-10, 2.277E-12
DataValue, 1.6, 0.1, 0, 9.86575E-08, -9.8677699999999989E-08, 1.8200000000000003E-12, 9.86575E-08, 0.00031409791466993219, 4.5187601350433894E-09, 1.8200000000000003E-12
DataValue, 1.6500000000000001, 0.1, 0, 1.0388089999999998E-07, -1.0159879999999999E-07, 9.240000000000001E-13, 1.0388089999999998E-07, 0.00032230560032366794, 2.8222440038074677E-09, 9.240000000000001E-13
DataValue, 1.7000000000000002, 0.1, 0, 1.0202299999999999E-07, -1.038104E-07, -1.065E-12, 1.0202299999999999E-07, 0.00031941039432053554, 4.1964634261545263E-10, 1.065E-12
DataValue, 1.75, 0.1, 0, 1.0520559999999999E-07, -1.042201E-07, -1.3690000000000001E-12, 1.0520559999999999E-07, 0.00032435412745947907, 2.3362677467241976E-09, 1.3690000000000001E-12
DataValue, 1.8, 0.1, 0, 1.0513409999999999E-07, -1.0708969999999999E-07, 7.56E-13, 1.0513409999999999E-07, 0.00032424388968799395, 7.1801994575478646E-09, 7.56E-13
DataValue, 1.85, 0.1, 0, 1.1077429999999999E-07, -1.1047299999999999E-07, 7.3700000000000009E-13, 1.1077429999999999E-07, 0.00033282773321945391, 2.0599918039130079E-09, 7.3700000000000009E-13
DataValue, 1.9000000000000001, 0.1, 0, 1.0809799999999999E-07, -1.086852E-07, 9.1600000000000014E-13, 1.0809799999999999E-07, 0.00032878260294608044, 1.6885524699749914E-11, 9.1600000000000014E-13
DataValue, 1.9500000000000002, 0.1, 0, 1.11048E-07, -1.09365E-07, 5.4700000000000009E-13, 1.11048E-07, 0.00033323865322018093, 5.0937201499268186E-09, 5.4700000000000009E-13
DataValue, 2, 0.1, 0, 1.12842E-07, -1.1017499999999999E-07, 9.2000000000000012E-13, 1.12842E-07, 0.00033591963324581072, 5.30421678823052E-09, 9.2000000000000012E-13
DataValue, 2.05, 0.1, 0, 1.15955E-07, -1.14609E-07, 8.300000000000001E-13, 1.15955E-07, 0.00034052165863568797, 2.108413947492805E-09, 8.300000000000001E-13
DataValue, 2.1, 0.1, 0, 1.15948E-07, -1.15286E-07, 1.28E-13, 1.15948E-07, 0.00034051138013288192, 1.6974383079325344E-10, 1.28E-13
DataValue, 2.15, 0.1, 0, 1.16844E-07, -1.20675E-07, 2.17E-13, 1.16844E-07, 0.00034182451638230981, 5.1525644099713843E-09, 2.17E-13
DataValue, 2.2, 0.1, 0, 1.20888E-07, -1.20587E-07, 8.9E-13, 1.20888E-07, 0.00034768951666681007, 8.6081891519649923E-09, 8.9E-13
