
SetupTitle, Transfer sat
PrimitiveTest, I/V Sweep
TestParameter, Context.MainFrame, 4155C
TestParameter, Channel.UnitType, SMU, SMU, SMU
TestParameter, Channel.Unit, SMU1:MP, SMU4:MP, SMU3:MP
TestParameter, Channel.IName, ID, IS, IG
TestParameter, Channel.VName, VD, VS, VG
TestParameter, Channel.Mode, V, COMMON, V
TestParameter, Channel.Func, CONST, CONST, VAR1
TestParameter, Channel.Index, 
TestParameter, Channel.Time, 
TestParameter, Measurement.Port.Unit, SMU1:MP, SMU4:MP, SMU3:MP
TestParameter, Measurement.Port.SeriesResistor, NONE, NONE, NONE
TestParameter, Measurement.Port.Filter, ON, ON, ON
TestParameter, Measurement.Primary.Locus, Double
TestParameter, Measurement.Primary.Scale, LINEAR
TestParameter, Measurement.Primary.Start, -2
TestParameter, Measurement.Primary.Stop, 3
TestParameter, Measurement.Primary.Step, 0.05
TestParameter, Measurement.Primary.Compliance, 0.001
TestParameter, Measurement.Primary.PowerCompliance, 0
TestParameter, Measurement.Aborting.Condition, CONTINUE AT ANY
TestParameter, Measurement.PostOutput.Value, START
TestParameter, Measurement.PostOutput.Retention, OFF
TestParameter, Measurement.Bias.Source, 5, 0, -2
TestParameter, Measurement.Bias.Compliance, 0.001, 0.1, 0.001
TestParameter, Measurement.Monitor.Unit, SMU1:MP, SMU4:MP, SMU3:MP
TestParameter, Measurement.Monitor.Adc, HR ADC, HR ADC, HR ADC
TestParameter, Measurement.Monitor.RangingMode, AUTO, AUTO, AUTO
TestParameter, Measurement.Monitor.RangeBoundary, , , 
TestParameter, Measurement.Monitor.RangeRating, BY FULL RANGE, BY FULL RANGE, BY FULL RANGE
TestParameter, Measurement.Monitor.RangeRatingCoeff, 50, 50, 50
TestParameter, Measurement.Timing.Hold, 0.5
TestParameter, Measurement.Timing.Delay, 0.05
TestParameter, Measurement.Adc.HighResolution.AutoZero, OFF
TestParameter, Measurement.Adc.HighResolution.Mode, AUTO
TestParameter, Measurement.Adc.HighResolution.Coeff, 1
TestParameter, Measurement.Ag16440ASelector.SemiconductorRelay.Channel1, DEFAULT
TestParameter, Measurement.Ag16440ASelector.SemiconductorRelay.Channel3, DEFAULT
TestParameter, Function.User.Name, absID, sqrtID, gm2, absIG
TestParameter, Function.User.Unit, A, A, A/V, A
TestParameter, Function.User.Definition, abs(ID), sqrt(abs(ID)), (delta(sqrtID)/delta(VG))^2, abs(IG)
TestParameter, Output.Graph.Enabled, true
TestParameter, Output.Graph.XAxis.Data, VG
TestParameter, Output.Graph.XAxis.Scale, Linear
TestParameter, Output.Graph.XAxis.Left, -5
TestParameter, Output.Graph.XAxis.Right, 7
TestParameter, Output.Graph.YAxis.Data, ID, absIG, gm2
TestParameter, Output.Graph.YAxis.Scale, Log, Log, Linear
TestParameter, Output.Graph.YAxis.Bottom, 1E-14, 1E-14, 0
TestParameter, Output.Graph.YAxis.Top, 0.01, 0.01, 1E-05
TestParameter, Output.Graph.YAxis.Group, , , 
TestParameter, Output.List.Data, VG, IG, VD, ID, VS, IS, sqrtID, gm2, absIG
TestParameter, AutoAnalysis.Interpolation, false
TestParameter, AutoAnalysis.Line1.Enabled, false
TestParameter, AutoAnalysis.Line1.Type, 1
TestParameter, AutoAnalysis.Line1.Fix, True
TestParameter, AutoAnalysis.Line1.YAxis, 0
TestParameter, AutoAnalysis.Line1.Point1.Type, 0
TestParameter, AutoAnalysis.Line1.Point1.XY.X, 
TestParameter, AutoAnalysis.Line1.Point1.XY.Y, 
TestParameter, AutoAnalysis.Line1.Point1.Data.Var, 
TestParameter, AutoAnalysis.Line1.Point1.Data.Condition, 
TestParameter, AutoAnalysis.Line1.Point1.Data.Start, false
TestParameter, AutoAnalysis.Line1.Point1.Data.StartVar, 
TestParameter, AutoAnalysis.Line1.Point1.Data.StartCondition, 
TestParameter, AutoAnalysis.Line1.Point2.Type, 0
TestParameter, AutoAnalysis.Line1.Point2.XY.X, 
TestParameter, AutoAnalysis.Line1.Point2.XY.Y, 
TestParameter, AutoAnalysis.Line1.Point2.Data.Var, 
TestParameter, AutoAnalysis.Line1.Point2.Data.Condition, 
TestParameter, AutoAnalysis.Line1.Point2.Data.Start, false
TestParameter, AutoAnalysis.Line1.Point2.Data.StartVar, 
TestParameter, AutoAnalysis.Line1.Point2.Data.StartCondition, 
TestParameter, AutoAnalysis.Line1.GradientExpr, 0
TestParameter, AutoAnalysis.Line2.Enabled, false
TestParameter, AutoAnalysis.Line2.Type, 1
TestParameter, AutoAnalysis.Line2.Fix, True
TestParameter, AutoAnalysis.Line2.YAxis, 0
TestParameter, AutoAnalysis.Line2.Point1.Type, 0
TestParameter, AutoAnalysis.Line2.Point1.XY.X, 
TestParameter, AutoAnalysis.Line2.Point1.XY.Y, 
TestParameter, AutoAnalysis.Line2.Point1.Data.Var, 
TestParameter, AutoAnalysis.Line2.Point1.Data.Condition, 
TestParameter, AutoAnalysis.Line2.Point1.Data.Start, false
TestParameter, AutoAnalysis.Line2.Point1.Data.StartVar, 
TestParameter, AutoAnalysis.Line2.Point1.Data.StartCondition, 
TestParameter, AutoAnalysis.Line2.Point2.Type, 0
TestParameter, AutoAnalysis.Line2.Point2.XY.X, 
TestParameter, AutoAnalysis.Line2.Point2.XY.Y, 
TestParameter, AutoAnalysis.Line2.Point2.Data.Var, 
TestParameter, AutoAnalysis.Line2.Point2.Data.Condition, 
TestParameter, AutoAnalysis.Line2.Point2.Data.Start, false
TestParameter, AutoAnalysis.Line2.Point2.Data.StartVar, 
TestParameter, AutoAnalysis.Line2.Point2.Data.StartCondition, 
TestParameter, AutoAnalysis.Line2.GradientExpr, 0
TestParameter, AutoAnalysis.Marker.Enabled, false
TestParameter, AutoAnalysis.Marker.Data.Var, 
TestParameter, AutoAnalysis.Marker.Data.Condition, 
TestParameter, AutoAnalysis.Marker.Data.Start, false
TestParameter, AutoAnalysis.Marker.Data.StartVar, 
TestParameter, AutoAnalysis.Marker.Data.StartCondition, 
MetaData, TestRecord.EntryPoint, true
MetaData, TestRecord.RecordTime, 04/24/2019 16:51:47
MetaData, TestRecord.TestTarget, 44
MetaData, TestRecord.IterationIndex, 1
MetaData, TestRecord.Preservation, true
MetaData, TestRecord.Flag, 
MetaData, TestRecord.Remarks, 350-180-G44
MetaData, TestRecord.LinkKey, 4a8549cd-34d1-4438-bc37-0b9f4325d12f
Dimension1, 202, 202, 202, 202, 202, 202, 202, 202, 202, 202
Dimension2, 1, 1, 1, 1, 1, 1, 1, 1, 1, 1
DataName, VG, VD, VS, ID, IS, IG, absID, sqrtID, gm2, absIG
DataValue, -2, 5, 0, 5.05628E-09, -3.812E-12, -3.97071E-09, 5.05628E-09, 7.110752421509273E-05, 4.9681133991460452E-09, 3.97071E-09
DataValue, -1.9500000000000002, 5, 0, 4.5675E-09, 3.5080000000000004E-12, -5.37843E-09, 4.5675E-09, 6.7583281956412855E-05, 1.8379168172388472E-09, 5.37843E-09
DataValue, -1.9000000000000001, 5, 0, 4.46497E-09, -1.921E-12, -4.50138E-09, 4.46497E-09, 6.6820431007289985E-05, 3.747875997008478E-12, 4.50138E-09
DataValue, -1.85, 5, 0, 4.54137E-09, -6.4300000000000009E-13, -4.13239E-09, 4.54137E-09, 6.7389687638391677E-05, 9.6896920379883448E-11, 4.13239E-09
DataValue, -1.8, 5, 0, 4.59749E-09, 3.233E-12, -5.08053E-09, 4.59749E-09, 6.7804793340884092E-05, 2.2559567865564162E-09, 5.08053E-09
DataValue, -1.75, 5, 0, 5.20409E-09, 4.633E-12, -5.64738E-09, 5.20409E-09, 7.2139378982633343E-05, 2.8946445489972862E-11, 5.64738E-09
DataValue, -1.7000000000000002, 5, 0, 4.67074E-09, -2.49E-13, -4.6896E-09, 4.67074E-09, 6.83428123506781E-05, 2.3264544577620161E-09, 4.6896E-09
DataValue, -1.6500000000000001, 5, 0, 4.53145E-09, -2.3670000000000003E-12, -4.8354E-09, 4.53145E-09, 6.7316045635494655E-05, 4.9975385042822682E-09, 4.8354E-09
DataValue, -1.6, 5, 0, 3.75444E-09, -9.8100000000000016E-13, -4.4204E-09, 3.75444E-09, 6.1273485293395863E-05, 4.1454319268923752E-10, 4.4204E-09
DataValue, -1.55, 5, 0, 4.26148E-09, 9.8E-13, -4.37242E-09, 4.26148E-09, 6.5280012254900814E-05, 2.1437646540581794E-09, 4.37242E-09
DataValue, -1.5, 5, 0, 4.34328E-09, 2.092E-12, -3.87044E-09, 4.34328E-09, 6.5903565912627221E-05, 2.5549844054830465E-09, 3.87044E-09
DataValue, -1.4500000000000002, 5, 0, 3.62709E-09, -1.4900000000000002E-13, -3.41841E-09, 3.62709E-09, 6.0225326898241075E-05, 5.9960895809035669E-09, 3.41841E-09
DataValue, -1.4000000000000001, 5, 0, 3.3826E-09, -2.046E-12, -4.1913E-09, 3.3826E-09, 5.8160123796291908E-05, 1.736118647879247E-09, 4.1913E-09
DataValue, -1.35, 5, 0, 4.14633E-09, 6.4600000000000007E-13, -3.57829E-09, 4.14633E-09, 6.4392002609019693E-05, 1.8429665334177913E-09, 3.57829E-09
DataValue, -1.3, 5, 0, 3.90039E-09, 1.688E-12, -3.72797E-09, 3.90039E-09, 6.2453102404924608E-05, 1.135329970051694E-09, 3.72797E-09
DataValue, -1.25, 5, 0, 3.72375E-09, 8.66E-13, -3.40723E-09, 3.72375E-09, 6.1022536820423976E-05, 5.7553790676144941E-10, 3.40723E-09
DataValue, -1.2, 5, 0, 4.2058E-09, 5.0000000000000008E-15, -3.74892E-09, 4.2058E-09, 6.4852139517520931E-05, 3.2813692889240119E-09, 3.74892E-09
DataValue, -1.1500000000000001, 5, 0, 3.05745E-09, -1.243E-12, -3.2824E-09, 3.05745E-09, 5.5294213078766209E-05, 8.6769873393121158E-09, 3.2824E-09
DataValue, -1.1, 5, 0, 3.08437E-09, -9.25E-13, -2.71618E-09, 3.08437E-09, 5.5537104713875754E-05, 2.2189930424958743E-09, 2.71618E-09
DataValue, -1.05, 5, 0, 2.5587E-09, 1.6850000000000002E-12, -2.83679E-09, 2.5587E-09, 5.0583594178349961E-05, 6.6179860744445476E-09, 2.83679E-09
DataValue, -1, 5, 0, 2.24695E-09, 2.81E-13, -2.33698E-09, 2.24695E-09, 4.7402004177038758E-05, 2.1957488403423868E-09, 2.33698E-09
DataValue, -0.95000000000000007, 5, 0, 2.1066E-09, -7.56E-13, -2.36653E-09, 2.1066E-09, 4.5897712361293127E-05, 8.8283466303969025E-11, 2.36653E-09
DataValue, -0.9, 5, 0, 2.33691E-09, 3.5E-14, -2.34995E-09, 2.33691E-09, 4.8341596994720806E-05, 5.693358935604132E-09, 2.34995E-09
DataValue, -0.85000000000000009, 5, 0, 2.85617E-09, -5.2000000000000006E-14, -2.9432E-09, 2.85617E-09, 5.3443147362407463E-05, 1.6159107165158275E-09, 2.9432E-09
DataValue, -0.8, 5, 0, 2.74172E-09, 8.6400000000000005E-13, -2.57942E-09, 2.74172E-09, 5.2361436191151214E-05, 1.118397581610514E-09, 2.57942E-09
DataValue, -0.75, 5, 0, 2.5099E-09, 9.5600000000000017E-13, -2.60018E-09, 2.5099E-09, 5.0098902183580833E-05, 5.6526906698341287E-10, 2.60018E-09
DataValue, -0.70000000000000007, 5, 0, 2.49839E-09, -1.274E-12, -2.19715E-09, 2.49839E-09, 4.9983897407065006E-05, 1.3710591992792821E-09, 2.19715E-09
DataValue, -0.65, 5, 0, 2.1526E-09, -4.2700000000000005E-13, -2.18964E-09, 2.1526E-09, 4.6396120527475141E-05, 4.6916154492557424E-10, 2.18964E-09
DataValue, -0.6, 5, 0, 2.28655E-09, -1.3100000000000002E-13, -2.28044E-09, 2.28655E-09, 4.7817883683826912E-05, 6.057617821420893E-10, 2.28044E-09
DataValue, -0.55, 5, 0, 2.38704E-09, -3.0900000000000005E-13, -2.24588E-09, 2.38704E-09, 4.8857343357984579E-05, 5.8025848564711221E-11, 2.24588E-09
DataValue, -0.5, 5, 0, 2.21428E-09, 2.05E-13, -2.12263E-09, 2.21428E-09, 4.7056136688002766E-05, 1.2958180699236577E-09, 2.12263E-09
DataValue, -0.45, 5, 0, 2.04825E-09, 1.09E-13, -2.14767E-09, 2.04825E-09, 4.52575960475145E-05, 1.6101361292530051E-10, 2.14767E-09
DataValue, -0.4, 5, 0, 2.09647E-09, -1.139E-12, -1.92095E-09, 2.09647E-09, 4.5787225292651221E-05, 4.2122966179299622E-10, 1.92095E-09
DataValue, -0.35000000000000003, 5, 0, 1.86669E-09, -2.5E-14, -1.95938E-09, 1.86669E-09, 4.3205208019404325E-05, 5.4128507958922015E-10, 1.95938E-09
DataValue, -0.3, 5, 0, 1.88883E-09, 1.1370000000000001E-12, -1.84792E-09, 1.88883E-09, 4.3460671876997025E-05, 2.3986449558744961E-10, 1.84792E-09
DataValue, -0.25, 5, 0, 1.73526E-09, 7.1600000000000008E-13, -1.71293E-09, 1.73526E-09, 4.1656452081280277E-05, 8.442787553228354E-10, 1.71293E-09
DataValue, -0.2, 5, 0, 1.64471E-09, -6.2000000000000008E-13, -1.67685E-09, 1.64471E-09, 4.0555024349641316E-05, 3.1058738239137846E-11, 1.67685E-09
DataValue, -0.15, 5, 0, 1.68914E-09, -1.17E-13, -1.59396E-09, 1.68914E-09, 4.1099148409669029E-05, 1.2175234322421723E-11, 1.59396E-09
DataValue, -0.1, 5, 0, 1.61653E-09, -9.9E-13, -1.45981E-09, 1.61653E-09, 4.0206094065452314E-05, 4.3031879015894033E-10, 1.45981E-09
DataValue, -0.05, 5, 0, 1.52293E-09, -3.1220000000000002E-12, -1.52185E-09, 1.52293E-09, 3.9024735745421772E-05, 3.0384842820626197E-10, 1.52185E-09
DataValue, 0, 5, 0, 1.4794E-09, -7.981E-12, -1.44845E-09, 1.4794E-09, 3.8462969204157915E-05, 8.3151970496244666E-11, 1.44845E-09
DataValue, 0.05, 5, 0, 1.45259E-09, -2.3741000000000002E-11, -1.5162E-09, 1.45259E-09, 3.8112858722483675E-05, 1.7465618913203611E-10, 1.5162E-09
DataValue, 0.1, 5, 0, 1.58281E-09, -6.598100000000001E-11, -1.54854E-09, 1.58281E-09, 3.9784544737875288E-05, 2.2671250696642822E-10, 1.54854E-09
DataValue, 0.15, 5, 0, 1.56963E-09, -1.6567100000000002E-10, -1.45709E-09, 1.56963E-09, 3.961855625839993E-05, 8.6458900241929453E-10, 1.45709E-09
DataValue, 0.2, 5, 0, 1.82542E-09, -3.94841E-10, -1.38843E-09, 1.82542E-09, 4.2724934171979714E-05, 4.65124723488192E-09, 1.38843E-09
DataValue, 0.25, 5, 0, 2.15654E-09, -7.6764100000000006E-10, -1.29836E-09, 2.15654E-09, 4.64385615625635E-05, 1.6730300704453689E-08, 1.29836E-09
DataValue, 0.3, 5, 0, 3.09798E-09, -1.56058E-09, -1.31465E-09, 3.09798E-09, 5.5659500536745749E-05, 4.0147826889181288E-08, 1.31465E-09
DataValue, 0.35000000000000003, 5, 0, 4.41899E-09, -3.11344E-09, -1.24471E-09, 4.41899E-09, 6.647548420282473E-05, 7.23124207003783E-08, 1.24471E-09
DataValue, 0.4, 5, 0, 6.81458E-09, -5.41527E-09, -1.28042E-09, 6.81458E-09, 8.2550469411142661E-05, 8.7258600086312133E-08, 1.28042E-09
DataValue, 0.45, 5, 0, 9.21889E-09, -7.88683E-09, -1.20256E-09, 9.21889E-09, 9.6015050903491161E-05, 9.4461375120001988E-08, 1.20256E-09
DataValue, 0.5, 5, 0, 1.2833499999999999E-08, -1.11214E-08, -1.27001E-09, 1.2833499999999999E-08, 0.00011328503872974577, 1.5193064883475513E-07, 1.27001E-09
DataValue, 0.55, 5, 0, 1.8223199999999998E-08, -1.66194E-08, -1.26441E-09, 1.8223199999999998E-08, 0.00013499333316871614, 1.9716214647645903E-07, 1.26441E-09
DataValue, 0.6, 5, 0, 2.48655E-08, -2.3190099999999997E-08, -1.15886E-09, 2.48655E-08, 0.00015768798305514596, 2.0991274044349128E-07, 1.15886E-09
DataValue, 0.65, 5, 0, 3.26921E-08, -3.08229E-08, -1.00354E-09, 3.26921E-08, 0.00018080956833088231, 2.0729924076421862E-07, 1.00354E-09
DataValue, 0.70000000000000007, 5, 0, 4.1297599999999995E-08, -3.9518699999999995E-08, -9.7885E-10, 4.1297599999999995E-08, 0.00020321810942925336, 2.1529624626287479E-07, 9.7885E-10
DataValue, 0.75, 5, 0, 5.16242E-08, -4.9462099999999995E-08, -9.38565E-10, 5.16242E-08, 0.00022720959486782243, 1.7346730010185063E-07, 9.38565E-10
DataValue, 0.8, 5, 0, 5.99601E-08, -5.7990399999999994E-08, -9.4253100000000016E-10, 5.99601E-08, 0.00024486751519954623, 1.3716044111781543E-07, 9.4253100000000016E-10
DataValue, 0.85000000000000009, 5, 0, 6.98253E-08, -6.79525E-08, -9.03607E-10, 6.98253E-08, 0.00026424477289059095, 1.5835934374707869E-07, 9.03607E-10
DataValue, 0.9, 5, 0, 8.1032399999999989E-08, -7.8804199999999993E-08, -8.12461E-10, 8.1032399999999989E-08, 0.00028466190472207549, 1.7658160789734339E-07, 8.12461E-10
DataValue, 0.95000000000000007, 5, 0, 9.37991E-08, -9.1717099999999992E-08, -8.06436E-10, 9.37991E-08, 0.0003062663873166626, 1.6615759964564954E-07, 8.06436E-10
DataValue, 1, 5, 0, 1.05901E-07, -1.0376059999999999E-07, -9.18276E-10, 1.05901E-07, 0.00032542433836454211, 2.2295111951475405E-07, 9.18276E-10
DataValue, 1.05, 5, 0, 1.24951E-07, -1.18804E-07, -8.9500600000000006E-10, 1.24951E-07, 0.00035348408733633255, 2.7881680492430803E-07, 8.9500600000000006E-10
DataValue, 1.1, 5, 0, 1.43056E-07, -1.39889E-07, -8.4035700000000006E-10, 1.43056E-07, 0.00037822744480008324, 2.8887190908598306E-07, 8.4035700000000006E-10
DataValue, 1.1500000000000001, 5, 0, 1.65837E-07, -1.62143E-07, -8.3776000000000011E-10, 1.65837E-07, 0.0004072308927377686, 3.4472227783134064E-07, 8.3776000000000011E-10
DataValue, 1.2, 5, 0, 1.90917E-07, -1.87955E-07, -7.34553E-10, 1.90917E-07, 0.0004369404993817808, 3.8486746176826866E-07, 7.34553E-10
DataValue, 1.25, 5, 0, 2.20213E-07, -2.16773E-07, -7.35491E-10, 2.20213E-07, 0.000469268579813309, 4.3079359105766046E-07, 7.35491E-10
DataValue, 1.3, 5, 0, 2.52582E-07, -2.4879E-07, -6.4384700000000008E-10, 2.52582E-07, 0.00050257536748233092, 4.8147060117678323E-07, 6.4384700000000008E-10
DataValue, 1.35, 5, 0, 2.90151E-07, -2.85336E-07, -6.750780000000001E-10, 2.90151E-07, 0.00053865666244835408, 5.5129975508627145E-07, 6.750780000000001E-10
DataValue, 1.4000000000000001, 5, 0, 3.32727E-07, -3.26998E-07, -6.8634600000000008E-10, 3.32727E-07, 0.000576824930113115, 6.0522321239411529E-07, 6.8634600000000008E-10
DataValue, 1.4500000000000002, 5, 0, 3.80014E-07, -3.74038E-07, -6.55291E-10, 3.80014E-07, 0.00061645275569178863, 6.2374662992289259E-07, 6.55291E-10
DataValue, 1.5, 5, 0, 4.3007699999999997E-07, -4.23801E-07, -5.83524E-10, 4.3007699999999997E-07, 0.00065580256175162962, 7.2130116636485073E-07, 5.83524E-10
DataValue, 1.55, 5, 0, 4.91937E-07, -4.84596E-07, -6.12249E-10, 4.91937E-07, 0.00070138220678885206, 8.6807859541112847E-07, 6.12249E-10
DataValue, 1.6, 5, 0, 5.60961E-07, -5.53905E-07, -5.5637800000000008E-10, 5.60961E-07, 0.0007489732972543147, 8.8783710551219132E-07, 5.5637800000000008E-10
DataValue, 1.6500000000000001, 5, 0, 6.32991E-07, -6.27038E-07, -5.5353000000000005E-10, 6.32991E-07, 0.00079560731520015573, 9.7115514108264281E-07, 5.5353000000000005E-10
DataValue, 1.7000000000000002, 5, 0, 7.18291E-07, -7.09584E-07, -5.2678700000000008E-10, 7.18291E-07, 0.00084752050122696146, 1.060807078685654E-06, 5.2678700000000008E-10
DataValue, 1.75, 5, 0, 8.07487E-07, -7.97054E-07, -4.9018100000000007E-10, 8.07487E-07, 0.00089860280435796551, 1.1521361106826493E-06, 4.9018100000000007E-10
DataValue, 1.8, 5, 0, 9.11754E-07, -9.0280299999999993E-07, -5.09023E-10, 9.11754E-07, 0.00095485810464173153, 1.3283982462393997E-06, 5.09023E-10
DataValue, 1.85, 5, 0, 1.02791E-06, -1.016662E-06, -5.11076E-10, 1.02791E-06, 0.00101385896455079, 1.15517229059093E-06, 5.11076E-10
DataValue, 1.9000000000000001, 5, 0, 1.12856E-06, -1.1194E-06, -5.7739600000000006E-10, 1.12856E-06, 0.0010623370463275768, 1.3598915403261411E-06, 5.7739600000000006E-10
DataValue, 1.9500000000000002, 5, 0, 1.2779700000000001E-06, -1.24519E-06, -5.2479900000000008E-10, 1.2779700000000001E-06, 0.001130473352184827, 1.6394509171058682E-06, 5.2479900000000008E-10
DataValue, 2, 5, 0, 1.4170000000000002E-06, -1.40684E-06, -4.9233800000000006E-10, 1.4170000000000002E-06, 0.0011903780911962385, 1.5873464519150189E-06, 4.9233800000000006E-10
DataValue, 2.05, 5, 0, 1.5787000000000002E-06, -1.5658400000000002E-06, -4.8513300000000009E-10, 1.5787000000000002E-06, 0.0012564632903511348, 1.8926941498159794E-06, 4.8513300000000009E-10
DataValue, 2.1, 5, 0, 1.76346E-06, -1.7467100000000002E-06, -4.2774300000000004E-10, 1.76346E-06, 0.0013279533124323311, 1.9991757062650646E-06, 4.2774300000000004E-10
DataValue, 2.15, 5, 0, 1.9540000000000003E-06, -1.93741E-06, -4.1299700000000005E-10, 1.9540000000000003E-06, 0.0013978555004005243, 2.0172430190247467E-06, 4.1299700000000005E-10
DataValue, 2.2, 5, 0, 2.1608500000000002E-06, -2.1410000000000003E-06, -3.93498E-10, 2.1608500000000002E-06, 0.0014699829930988999, 2.0557185507923343E-06, 3.93498E-10
DataValue, 2.25, 5, 0, 2.3754E-06, -2.3537900000000004E-06, -3.8967900000000004E-10, 2.3754E-06, 0.0015412332724153083, 2.2580167566571896E-06, 3.8967900000000004E-10
DataValue, 2.3000000000000003, 5, 0, 2.62521E-06, -2.6035700000000004E-06, -3.6698400000000004E-10, 2.62521E-06, 0.001620249980712853, 2.3171468998409747E-06, 3.6698400000000004E-10
DataValue, 2.35, 5, 0, 2.8677900000000005E-06, -2.8458200000000005E-06, -3.50919E-10, 2.8677900000000005E-06, 0.0016934550481190814, 2.3190699072101736E-06, 3.50919E-10
DataValue, 2.4, 5, 0, 3.1418800000000002E-06, -3.1184400000000003E-06, -3.127E-10, 3.1418800000000002E-06, 0.0017725349079778373, 2.584781407977403E-06, 3.127E-10
DataValue, 2.45, 5, 0, 3.4381600000000006E-06, -3.41656E-06, -3.17509E-10, 3.4381600000000006E-06, 0.0018542276019949656, 2.6406242014315381E-06, 3.17509E-10
DataValue, 2.5, 5, 0, 3.7443600000000003E-06, -3.71536E-06, -2.9429200000000004E-10, 3.7443600000000003E-06, 0.0019350348834064983, 2.5695973888684182E-06, 2.9429200000000004E-10
DataValue, 2.5500000000000003, 5, 0, 4.05832E-06, -4.0317500000000008E-06, -2.88321E-10, 4.05832E-06, 0.0020145272398257611, 2.6868860292160905E-06, 2.88321E-10
DataValue, 2.6, 5, 0, 4.4056000000000006E-06, -4.3732700000000006E-06, -2.92951E-10, 4.4056000000000006E-06, 0.0020989521195110671, 2.7035364548427566E-06, 2.92951E-10
