
SetupTitle, Transfer stab
PrimitiveTest, I/V Sweep
TestParameter, Context.MainFrame, 4155C
TestParameter, Channel.UnitType, SMU, SMU, SMU
TestParameter, Channel.Unit, SMU3:MP, SMU4:MP, SMU1:MP
TestParameter, Channel.IName, ID, IS, IG
TestParameter, Channel.VName, VD, VS, VG
TestParameter, Channel.Mode, V, COMMON, V
TestParameter, Channel.Func, CONST, CONST, VAR1
TestParameter, Channel.Index, 
TestParameter, Channel.Time, 
TestParameter, Measurement.Port.Unit, SMU3:MP, SMU4:MP, SMU1:MP
TestParameter, Measurement.Port.SeriesResistor, NONE, NONE, NONE
TestParameter, Measurement.Port.Filter, ON, ON, ON
TestParameter, Measurement.Primary.Locus, Single
TestParameter, Measurement.Primary.Scale, LINEAR
TestParameter, Measurement.Primary.Start, -2
TestParameter, Measurement.Primary.Stop, 3
TestParameter, Measurement.Primary.Step, 0.05
TestParameter, Measurement.Primary.Compliance, 0.1
TestParameter, Measurement.Primary.PowerCompliance, 0
TestParameter, Measurement.Aborting.Condition, CONTINUE AT ANY
TestParameter, Measurement.PostOutput.Value, START
TestParameter, Measurement.PostOutput.Retention, OFF
TestParameter, Measurement.Bias.Source, 3, 0, -2
TestParameter, Measurement.Bias.Compliance, 0.1, 0.1, 0.1
TestParameter, Measurement.Monitor.Unit, SMU3:MP, SMU4:MP, SMU1:MP
TestParameter, Measurement.Monitor.Adc, HR ADC, HR ADC, HR ADC
TestParameter, Measurement.Monitor.RangingMode, AUTO, AUTO, AUTO
TestParameter, Measurement.Monitor.RangeBoundary, , , 
TestParameter, Measurement.Monitor.RangeRating, BY FULL RANGE, BY FULL RANGE, BY FULL RANGE
TestParameter, Measurement.Monitor.RangeRatingCoeff, 50, 50, 50
TestParameter, Measurement.Timing.Hold, 0.5
TestParameter, Measurement.Timing.Delay, 0.05
TestParameter, Measurement.Adc.HighResolution.AutoZero, OFF
TestParameter, Measurement.Adc.HighResolution.Mode, AUTO
TestParameter, Measurement.Adc.HighResolution.Coeff, 1
TestParameter, Measurement.Ag16440ASelector.SemiconductorRelay.Channel1, DEFAULT
TestParameter, Measurement.Ag16440ASelector.SemiconductorRelay.Channel3, DEFAULT
TestParameter, Function.User.Name, absID, sqrtID, gm2, absIG
TestParameter, Function.User.Unit, A, A, A/V, A
TestParameter, Function.User.Definition, abs(ID), sqrt(abs(ID)), (delta(sqrtID)/delta(VG))^2, abs(IG)
TestParameter, Output.Graph.Enabled, true
TestParameter, Output.Graph.XAxis.Data, VG
TestParameter, Output.Graph.XAxis.Scale, Linear
TestParameter, Output.Graph.XAxis.Left, -5
TestParameter, Output.Graph.XAxis.Right, 7
TestParameter, Output.Graph.YAxis.Data, ID, absIG, gm2
TestParameter, Output.Graph.YAxis.Scale, Log, Log, Linear
TestParameter, Output.Graph.YAxis.Bottom, 1E-14, 1E-14, 0
TestParameter, Output.Graph.YAxis.Top, 0.01, 0.01, 1E-05
TestParameter, Output.Graph.YAxis.Group, , , 
TestParameter, Output.List.Data, VG, IG, VD, ID, VS, IS, sqrtID, gm2, absIG
TestParameter, AutoAnalysis.Interpolation, false
TestParameter, AutoAnalysis.Line1.Enabled, false
TestParameter, AutoAnalysis.Line1.Type, 1
TestParameter, AutoAnalysis.Line1.Fix, True
TestParameter, AutoAnalysis.Line1.YAxis, 0
TestParameter, AutoAnalysis.Line1.Point1.Type, 0
TestParameter, AutoAnalysis.Line1.Point1.XY.X, 
TestParameter, AutoAnalysis.Line1.Point1.XY.Y, 
TestParameter, AutoAnalysis.Line1.Point1.Data.Var, 
TestParameter, AutoAnalysis.Line1.Point1.Data.Condition, 
TestParameter, AutoAnalysis.Line1.Point1.Data.Start, false
TestParameter, AutoAnalysis.Line1.Point1.Data.StartVar, 
TestParameter, AutoAnalysis.Line1.Point1.Data.StartCondition, 
TestParameter, AutoAnalysis.Line1.Point2.Type, 0
TestParameter, AutoAnalysis.Line1.Point2.XY.X, 
TestParameter, AutoAnalysis.Line1.Point2.XY.Y, 
TestParameter, AutoAnalysis.Line1.Point2.Data.Var, 
TestParameter, AutoAnalysis.Line1.Point2.Data.Condition, 
TestParameter, AutoAnalysis.Line1.Point2.Data.Start, false
TestParameter, AutoAnalysis.Line1.Point2.Data.StartVar, 
TestParameter, AutoAnalysis.Line1.Point2.Data.StartCondition, 
TestParameter, AutoAnalysis.Line1.GradientExpr, 0
TestParameter, AutoAnalysis.Line2.Enabled, false
TestParameter, AutoAnalysis.Line2.Type, 1
TestParameter, AutoAnalysis.Line2.Fix, True
TestParameter, AutoAnalysis.Line2.YAxis, 0
TestParameter, AutoAnalysis.Line2.Point1.Type, 0
TestParameter, AutoAnalysis.Line2.Point1.XY.X, 
TestParameter, AutoAnalysis.Line2.Point1.XY.Y, 
TestParameter, AutoAnalysis.Line2.Point1.Data.Var, 
TestParameter, AutoAnalysis.Line2.Point1.Data.Condition, 
TestParameter, AutoAnalysis.Line2.Point1.Data.Start, false
TestParameter, AutoAnalysis.Line2.Point1.Data.StartVar, 
TestParameter, AutoAnalysis.Line2.Point1.Data.StartCondition, 
TestParameter, AutoAnalysis.Line2.Point2.Type, 0
TestParameter, AutoAnalysis.Line2.Point2.XY.X, 
TestParameter, AutoAnalysis.Line2.Point2.XY.Y, 
TestParameter, AutoAnalysis.Line2.Point2.Data.Var, 
TestParameter, AutoAnalysis.Line2.Point2.Data.Condition, 
TestParameter, AutoAnalysis.Line2.Point2.Data.Start, false
TestParameter, AutoAnalysis.Line2.Point2.Data.StartVar, 
TestParameter, AutoAnalysis.Line2.Point2.Data.StartCondition, 
TestParameter, AutoAnalysis.Line2.GradientExpr, 0
TestParameter, AutoAnalysis.Marker.Enabled, false
TestParameter, AutoAnalysis.Marker.Data.Var, 
TestParameter, AutoAnalysis.Marker.Data.Condition, 
TestParameter, AutoAnalysis.Marker.Data.Start, false
TestParameter, AutoAnalysis.Marker.Data.StartVar, 
TestParameter, AutoAnalysis.Marker.Data.StartCondition, 
MetaData, TestRecord.EntryPoint, true
MetaData, TestRecord.RecordTime, 05/27/2019 12:09:24
MetaData, TestRecord.TestTarget, 350-180-G29-2
MetaData, TestRecord.IterationIndex, 1
MetaData, TestRecord.Preservation, true
MetaData, TestRecord.Flag, 
MetaData, TestRecord.Remarks, MEH
MetaData, TestRecord.LinkKey, 3f4967c8-8bd8-456a-8848-6332693270a0
Dimension1, 101, 101, 101, 101, 101, 101, 101, 101, 101, 101
Dimension2, 1, 1, 1, 1, 1, 1, 1, 1, 1, 1
DataName, VG, VD, VS, ID, IS, IG, absID, sqrtID, gm2, absIG
DataValue, -2, 3, 0, -2.96E-13, 0.00118926, -0.00118938, 2.96E-13, 5.4405882034941774E-07, 1.3075321477435978E-10, 0.00118938
DataValue, -1.9500000000000002, 3, 0, -1.245E-12, 0.00115708, -0.00115707, 1.245E-12, 1.1157956802210699E-06, 1.0545813853827407E-10, 0.00115707
DataValue, -1.9000000000000001, 3, 0, 2.4680000000000004E-12, 0.00112383, -0.00112248, 2.4680000000000004E-12, 1.5709869509324386E-06, 2.97601990613902E-11, 0.00112248
DataValue, -1.85, 3, 0, 2.7600000000000004E-12, 0.00109217, -0.00109135, 2.7600000000000004E-12, 1.6613247725836152E-06, 1.9873719312947585E-10, 0.00109135
DataValue, -1.8, 3, 0, 2.6000000000000003E-14, 0.00105874, -0.00105851, 2.6000000000000003E-14, 1.61245154965971E-07, 2.7636374524331779E-12, 0.00105851
DataValue, -1.75, 3, 0, 3.3400000000000003E-12, 0.00102636, -0.00102566, 3.3400000000000003E-12, 1.8275666882497065E-06, 4.1920122699675253E-11, 0.00102566
DataValue, -1.7000000000000002, 3, 0, 6.54E-13, 0.00099369300000000014, -0.00099334900000000014, 6.54E-13, 8.0870266476622919E-07, 7.8755576560207026E-12, 0.00099334900000000014
DataValue, -1.6500000000000001, 3, 0, 2.393E-12, 0.00096147700000000008, -0.000961591, 2.393E-12, 1.5469324484281787E-06, 9.1709258112902629E-11, 0.000961591
DataValue, -1.6, 3, 0, -3.1200000000000004E-12, 0.00092881600000000006, -0.00092863100000000007, 3.1200000000000004E-12, 1.7663521732655696E-06, 8.0785277469616857E-13, 0.00092863100000000007
DataValue, -1.55, 3, 0, -2.123E-12, 0.0008966960000000001, -0.00089674800000000005, 2.123E-12, 1.4570518178843196E-06, 1.4781074202543948E-11, 0.00089674800000000005
DataValue, -1.5, 3, 0, 4.6260000000000007E-12, 0.00086518500000000009, -0.00086517700000000007, 4.6260000000000007E-12, 2.1508137994721908E-06, 2.1818458129467214E-11, 0.00086517700000000007
DataValue, -1.4500000000000002, 3, 0, 9.8E-13, 0.00083334500000000009, -0.00083339200000000007, 9.8E-13, 9.899494936611665E-07, 5.932607398539566E-11, 0.00083339200000000007
DataValue, -1.4000000000000001, 3, 0, -1.906E-12, 0.000801715, -0.000801474, 1.906E-12, 1.3805795884337853E-06, 1.3710147118842767E-11, 0.000801474
DataValue, -1.35, 3, 0, -3.8400000000000003E-13, 0.00076995900000000007, -0.000770073, 3.8400000000000003E-13, 6.1967733539318668E-07, 3.8839305076085627E-12, 0.000770073
DataValue, -1.3, 3, 0, 2.489E-12, 0.000738357, -0.00073834600000000008, 2.489E-12, 1.5776564898608315E-06, 2.3596642376911035E-11, 0.00073834600000000008
DataValue, -1.25, 3, 0, -1.222E-12, 0.00070696000000000008, -0.000706902, 1.222E-12, 1.1054410884348384E-06, 8.1080592388192319E-11, 0.000706902
DataValue, -1.2, 3, 0, -6.1410000000000006E-12, 0.00067629600000000006, -0.000676224, 6.1410000000000006E-12, 2.4781041140355664E-06, 2.5179075504121007E-12, 0.000676224
DataValue, -1.1500000000000001, 3, 0, 1.598E-12, 0.00064537200000000007, -0.000645343, 1.598E-12, 1.2641202474448386E-06, 1.1500448544575828E-10, 0.000645343
DataValue, -1.1, 3, 0, 1.976E-12, 0.00061473600000000006, -0.000614803, 1.976E-12, 1.4057026712644464E-06, 5.8058260193490181E-11, 0.000614803
DataValue, -1.05, 3, 0, -4.105E-12, 0.000584082, -0.00058426100000000009, 4.105E-12, 2.0260799589354809E-06, 3.7916772357748669E-11, 0.00058426100000000009
DataValue, -1, 3, 0, 6.2400000000000007E-13, 0.000553609, -0.000553441, 6.2400000000000007E-13, 7.8993670632526E-07, 6.0846216848764335E-13, 0.000553441
DataValue, -0.95000000000000007, 3, 0, 3.7950000000000007E-12, 0.000523208, -0.000523166, 3.7950000000000007E-12, 1.9480759738778158E-06, 6.7296226443081281E-11, 0.000523166
DataValue, -0.9, 3, 0, -2.5930000000000004E-12, 0.000493107, -0.000493039, 2.5930000000000004E-12, 1.6102794788483149E-06, 3.917752100848436E-12, 0.000493039
DataValue, -0.85000000000000009, 3, 0, -3.063E-12, 0.000463044, -0.00046275300000000005, 3.063E-12, 1.7501428513124293E-06, 8.2084832958640136E-11, 0.00046275300000000005
DataValue, -0.8, 3, 0, -4.96E-13, 0.00043290500000000003, -0.00043280200000000003, 4.96E-13, 7.0427267446636041E-07, 8.6561957907286E-11, 0.00043280200000000003
DataValue, -0.75, 3, 0, 6.7200000000000006E-13, 0.00040354700000000003, -0.000403339, 6.7200000000000006E-13, 8.1975606127676794E-07, 4.5249903325623494E-11, 0.000403339
DataValue, -0.70000000000000007, 3, 0, 1.896E-12, 0.000374429, -0.00037444800000000004, 1.896E-12, 1.3769531582446805E-06, 2.4820014809330404E-11, 0.00037444800000000004
DataValue, -0.65, 3, 0, 1.7370000000000002E-12, 0.00034539200000000003, -0.000345356, 1.7370000000000002E-12, 1.3179529581893279E-06, 3.15687684729427E-11, 0.000345356
DataValue, -0.6, 3, 0, 3.7590000000000004E-12, 0.000316641, -0.000316605, 3.7590000000000004E-12, 1.9388140705080516E-06, 1.5002680764389878E-11, 0.000316605
DataValue, -0.55, 3, 0, 2.908E-12, 0.000288386, -0.000288311, 2.908E-12, 1.7052858997833765E-06, 5.2224405553882765E-13, 0.000288311
DataValue, -0.5, 3, 0, 3.484E-12, 0.00026035100000000003, -0.000260275, 3.484E-12, 1.8665476152512157E-06, 1.3806058818756531E-10, 0.000260275
DataValue, -0.45, 3, 0, 8.296000000000001E-12, 0.00023245600000000003, -0.000232305, 8.296000000000001E-12, 2.8802777643831507E-06, 1.6259004096997887E-10, 0.000232305
DataValue, -0.4, 3, 0, 9.87E-12, 0.000205066, -0.00020501500000000002, 9.87E-12, 3.1416556144810017E-06, 1.8921625423515283E-11, 0.00020501500000000002
DataValue, -0.35000000000000003, 3, 0, 1.0991000000000001E-11, 0.000178091, -0.00017800700000000002, 1.0991000000000001E-11, 3.3152677116637203E-06, 6.0078504766770646E-11, 0.00017800700000000002
DataValue, -0.3, 3, 0, 1.5341E-11, 0.000151494, -0.000151458, 1.5341E-11, 3.9167588641630727E-06, 6.2150602410109676E-10, 0.000151458
DataValue, -0.25, 3, 0, 3.3736E-11, 0.0001253, -0.000125205, 3.3736E-11, 5.8082699661775369E-06, 3.7819576182789915E-10, 0.000125205
DataValue, -0.2, 3, 0, 3.4357000000000005E-11, 9.947680000000001E-05, -9.94802E-05, 3.4357000000000005E-11, 5.861484453617531E-06, 2.7176808437917653E-10, 9.94802E-05
DataValue, -0.15, 3, 0, 5.5604E-11, 7.4118E-05, -7.41582E-05, 5.5604E-11, 7.4568089689893496E-06, 7.2906256794569709E-10, 7.41582E-05
DataValue, -0.1, 3, 0, 7.3301E-11, 4.90164E-05, -4.90268E-05, 7.3301E-11, 8.5616003176976211E-06, 7.5910927261309967E-10, 4.90268E-05
DataValue, -0.05, 3, 0, 1.04285E-10, 2.42236E-05, -2.42251E-05, 1.04285E-10, 1.0212002741871939E-05, 1.1350662533136267E-09, 2.42251E-05
DataValue, 0, 3, 0, 1.42341E-10, -1.1541539999999999E-07, 1.127237E-07, 1.42341E-10, 1.1930674750407037E-05, 1.1106403989652853E-09, 1.127237E-07
DataValue, 0.05, 3, 0, 1.83457E-10, -2.4759200000000002E-05, 2.4771700000000002E-05, 1.83457E-10, 1.354462993219084E-05, 1.2426564214619885E-09, 2.4771700000000002E-05
DataValue, 0.1, 3, 0, 2.38882E-10, -4.95755E-05, 4.9571700000000005E-05, 2.38882E-10, 1.5455807969821572E-05, 1.6957342039055018E-09, 4.9571700000000005E-05
DataValue, 0.15, 3, 0, 3.1196600000000003E-10, -7.4598800000000008E-05, 7.4589900000000009E-05, 3.1196600000000003E-10, 1.7662559270955046E-05, 1.9577614624626771E-09, 7.4589900000000009E-05
DataValue, 0.2, 3, 0, 3.95233E-10, -0.0001000711, 0.0001000786, 3.95233E-10, 1.9880467801337072E-05, 1.8432863625357694E-09, 0.0001000786
DataValue, 0.25, 3, 0, 4.82062E-10, -0.000125778, 0.000125828, 4.82062E-10, 2.1955910366003958E-05, 1.9854166365258144E-09, 0.000125828
DataValue, 0.3, 3, 0, 5.92254E-10, -0.00015197500000000002, 0.00015203700000000002, 5.92254E-10, 2.4336269229279989E-05, 2.3703019780764756E-09, 0.00015203700000000002
DataValue, 0.35000000000000003, 3, 0, 7.1955300000000009E-10, -0.000178526, 0.00017857700000000002, 7.1955300000000009E-10, 2.6824485083594802E-05, 2.3494704020644305E-09, 0.00017857700000000002
DataValue, 0.4, 3, 0, 8.51671E-10, -0.000205617, 0.00020564000000000002, 8.51671E-10, 2.9183402817354937E-05, 2.2092361678540629E-09, 0.00020564000000000002
DataValue, 0.45, 3, 0, 9.93809E-10, -0.000233131, 0.00023317000000000002, 9.93809E-10, 3.1524736319277914E-05, 2.1347127783182566E-09, 0.00023317000000000002
DataValue, 0.5, 3, 0, 1.14269E-09, -0.000261028, 0.000261131, 1.14269E-09, 3.3803698022553686E-05, 2.2473991853322626E-09, 0.000261131
DataValue, 0.55, 3, 0, 1.31518E-09, -0.000288824, 0.00028885600000000004, 1.31518E-09, 3.62654105174614E-05, 2.4754804868311138E-09, 0.00028885600000000004
DataValue, 0.6, 3, 0, 1.50382E-09, -0.00031719500000000004, 0.00031708400000000003, 1.50382E-09, 3.8779118092086622E-05, 2.5515562249467555E-09, 0.00031708400000000003
DataValue, 0.65, 3, 0, 1.70707E-09, -0.00034543700000000003, 0.000345453, 1.70707E-09, 4.1316703643925904E-05, 2.6758906842385492E-09, 0.000345453
DataValue, 0.70000000000000007, 3, 0, 1.93178E-09, -0.00037454400000000004, 0.00037460900000000003, 1.93178E-09, 4.3952019293770793E-05, 2.6371456158817705E-09, 0.00037460900000000003
DataValue, 0.75, 3, 0, 2.15779E-09, -0.000403742, 0.00040390200000000004, 2.15779E-09, 4.6452018255399838E-05, 2.5275416470716295E-09, 0.00040390200000000004
DataValue, 0.8, 3, 0, 2.39899E-09, -0.00043320200000000004, 0.00043320600000000005, 2.39899E-09, 4.8979485501585251E-05, 2.2887630188571516E-09, 0.00043320600000000005
DataValue, 0.85000000000000009, 3, 0, 2.62514E-09, -0.00046268300000000003, 0.00046299400000000005, 2.62514E-09, 5.1236120071683806E-05, 2.0805822988240554E-09, 0.00046299400000000005
DataValue, 0.9, 3, 0, 2.86662E-09, -0.00049306300000000007, 0.000492948, 2.86662E-09, 5.3540825544625294E-05, 2.1990154123066694E-09, 0.000492948
DataValue, 0.95000000000000007, 3, 0, 3.12766E-09, -0.00052323100000000009, 0.000523152, 3.12766E-09, 5.5925486140041733E-05, 2.3014342864826823E-09, 0.000523152
DataValue, 1, 3, 0, 3.40334E-09, -0.00055341200000000009, 0.000553805, 3.40334E-09, 5.833815218191265E-05, 2.6268826998060803E-09, 0.000553805
DataValue, 1.05, 3, 0, 3.7272E-09, -0.00058328800000000006, 0.000583519, 3.7272E-09, 6.1050798520576288E-05, 2.3457102629924285E-09, 0.000583519
DataValue, 1.1, 3, 0, 3.99189E-09, -0.000614519, 0.000614432, 3.99189E-09, 6.3181405492438987E-05, 1.875692655645067E-09, 0.000614432
DataValue, 1.1500000000000001, 3, 0, 4.27477E-09, -0.000645264, 0.000645739, 4.27477E-09, 6.5381725275492688E-05, 1.9784935034218747E-09, 0.000645739
DataValue, 1.2, 3, 0, 4.57374E-09, -0.00067629000000000007, 0.000676161, 4.57374E-09, 6.7629431462936314E-05, 2.3171177629640606E-09, 0.000676161
DataValue, 1.25, 3, 0, 4.92739E-09, -0.000707103, 0.000707006, 4.92739E-09, 7.0195370217700261E-05, 2.0039961632239587E-09, 0.000707006
DataValue, 1.3, 3, 0, 5.19928E-09, -0.000738424, 0.00073827700000000007, 5.19928E-09, 7.2106033034691346E-05, 1.7114698752828203E-09, 0.00073827700000000007
DataValue, 1.35, 3, 0, 5.5253E-09, -0.00076969700000000007, 0.000769826, 5.5253E-09, 7.4332361727581352E-05, 2.2234839195249621E-09, 0.000769826
DataValue, 1.4000000000000001, 3, 0, 5.90153E-09, -0.000801168, 0.00080118700000000008, 5.90153E-09, 7.68214162847835E-05, 1.883612408696016E-09, 0.00080118700000000008
DataValue, 1.4500000000000002, 3, 0, 6.18935E-09, -0.0008334830000000001, 0.00083371000000000009, 6.18935E-09, 7.867242210584341E-05, 1.8069077629094813E-09, 0.00083371000000000009
DataValue, 1.5, 3, 0, 6.5727E-09, -0.00086452300000000007, 0.00086447400000000006, 6.5727E-09, 8.10721900530632E-05, 2.3770775211040259E-09, 0.00086447400000000006
DataValue, 1.55, 3, 0, 6.98026E-09, -0.000896555, 0.00089688100000000009, 6.98026E-09, 8.3547950304002066E-05, 1.7902639041972598E-09, 0.00089688100000000009
DataValue, 1.6, 3, 0, 7.27666E-09, -0.00092909800000000005, 0.00092891400000000009, 7.27666E-09, 8.5303341083453466E-05, 1.6811721825353105E-09, 0.00092891400000000009
DataValue, 1.6500000000000001, 3, 0, 7.6822E-09, -0.0009603700000000001, 0.000960408, 7.6822E-09, 8.7648160277326986E-05, 1.7702084590477133E-09, 0.000960408
DataValue, 1.7000000000000002, 3, 0, 8.01217E-09, -0.00099343800000000013, 0.000992971, 8.01217E-09, 8.9510725614308373E-05, 1.9772499225906247E-09, 0.000992971
DataValue, 1.75, 3, 0, 8.48145E-09, -0.001024434, 0.001023574, 8.48145E-09, 9.20947881261475E-05, 3.205719095171981E-09, 0.001023574
DataValue, 1.8, 3, 0, 9.05783E-09, -0.001056089, 0.00105567, 9.05783E-09, 9.5172632620937829E-05, 2.1918863770657968E-09, 0.00105567
DataValue, 1.85, 3, 0, 9.3657E-09, -0.001088729, 0.001088744, 9.3657E-09, 9.677654674558294E-05, 1.1997354188957024E-09, 0.001088744
DataValue, 1.9000000000000001, 3, 0, 9.72913E-09, -0.001121369, 0.001120534, 9.72913E-09, 9.8636352325093615E-05, 2.1191127996607743E-09, 0.001120534
DataValue, 1.9500000000000002, 3, 0, 1.027789E-08, -0.0011518, 0.00115387, 1.027789E-08, 0.00010137992898005009, 2.1874384743351209E-09, 0.00115387
DataValue, 2, 3, 0, 1.067365E-08, -0.0011848, 0.0011852100000000001, 1.067365E-08, 0.00010331335828439612, 1.376716542554326E-09, 0.0011852100000000001
DataValue, 2.05, 3, 0, 1.104398E-08, -0.00121826, 0.00121858, 1.104398E-08, 0.00010509034208717754, 5.7234117625753319E-10, 0.00121858
DataValue, 2.1, 3, 0, 1.1173699999999998E-08, -0.00125182, 0.0012512, 1.1173699999999998E-08, 0.00010570572359148769, 1.2093764252208716E-09, 0.0012512
DataValue, 2.15, 3, 0, 1.1786999999999998E-08, -0.00128222, 0.00128221, 1.1786999999999998E-08, 0.00010856795107212808, 3.3545063232719774E-09, 0.00128221
DataValue, 2.2, 3, 0, 1.2431699999999999E-08, -0.00131429, 0.00131511, 1.2431699999999999E-08, 0.00011149753360500849, 3.1683490217706234E-09, 0.00131511
DataValue, 2.25, 3, 0, 1.3040899999999999E-08, -0.00134865, 0.00134965, 1.3040899999999999E-08, 0.00011419676002409175, 1.3893985507386234E-09, 0.00134965
DataValue, 2.3000000000000003, 3, 0, 1.32768E-08, -0.00138358, 0.00138476, 1.32768E-08, 0.00011522499728791491, 7.97814789825206E-11, 0.00138476
DataValue, 2.35, 3, 0, 1.3245699999999999E-08, -0.00142016, 0.00142089, 1.3245699999999999E-08, 0.00011508996481014319, 1.7380271541713669E-11, 0.00142089
DataValue, 2.4, 3, 0, 1.3180899999999999E-08, -0.00145707, 0.0014576, 1.3180899999999999E-08, 0.00011480810075948473, 1.5982542251844823E-10, 0.0014576
DataValue, 2.45, 3, 0, 1.2956299999999998E-08, -0.00149528, 0.0014969, 1.2956299999999998E-08, 0.0001138257440125036, 1.9935137097877614E-12, 0.0014969
