
SetupTitle, Transfer stab
PrimitiveTest, I/V Sweep
TestParameter, Context.MainFrame, 4155C
TestParameter, Channel.UnitType, SMU, SMU, SMU
TestParameter, Channel.Unit, SMU1:MP, SMU4:MP, SMU3:MP
TestParameter, Channel.IName, ID, IS, IG
TestParameter, Channel.VName, VD, VS, VG
TestParameter, Channel.Mode, V, COMMON, V
TestParameter, Channel.Func, CONST, CONST, VAR1
TestParameter, Channel.Index, 
TestParameter, Channel.Time, 
TestParameter, Measurement.Port.Unit, SMU1:MP, SMU4:MP, SMU3:MP
TestParameter, Measurement.Port.SeriesResistor, NONE, NONE, NONE
TestParameter, Measurement.Port.Filter, ON, ON, ON
TestParameter, Measurement.Primary.Locus, Single
TestParameter, Measurement.Primary.Scale, LINEAR
TestParameter, Measurement.Primary.Start, -2
TestParameter, Measurement.Primary.Stop, 3
TestParameter, Measurement.Primary.Step, 0.05
TestParameter, Measurement.Primary.Compliance, 0.1
TestParameter, Measurement.Primary.PowerCompliance, 0
TestParameter, Measurement.Aborting.Condition, CONTINUE AT ANY
TestParameter, Measurement.PostOutput.Value, START
TestParameter, Measurement.PostOutput.Retention, OFF
TestParameter, Measurement.Bias.Source, 3, 0, -2
TestParameter, Measurement.Bias.Compliance, 0.1, 0.1, 0.1
TestParameter, Measurement.Monitor.Unit, SMU1:MP, SMU4:MP, SMU3:MP
TestParameter, Measurement.Monitor.Adc, HR ADC, HR ADC, HR ADC
TestParameter, Measurement.Monitor.RangingMode, AUTO, AUTO, AUTO
TestParameter, Measurement.Monitor.RangeBoundary, , , 
TestParameter, Measurement.Monitor.RangeRating, BY FULL RANGE, BY FULL RANGE, BY FULL RANGE
TestParameter, Measurement.Monitor.RangeRatingCoeff, 50, 50, 50
TestParameter, Measurement.Timing.Hold, 0.5
TestParameter, Measurement.Timing.Delay, 0.05
TestParameter, Measurement.Adc.HighResolution.AutoZero, OFF
TestParameter, Measurement.Adc.HighResolution.Mode, AUTO
TestParameter, Measurement.Adc.HighResolution.Coeff, 1
TestParameter, Measurement.Ag16440ASelector.SemiconductorRelay.Channel1, DEFAULT
TestParameter, Measurement.Ag16440ASelector.SemiconductorRelay.Channel3, DEFAULT
TestParameter, Function.User.Name, absID, sqrtID, gm2, absIG
TestParameter, Function.User.Unit, A, A, A/V, A
TestParameter, Function.User.Definition, abs(ID), sqrt(abs(ID)), (delta(sqrtID)/delta(VG))^2, abs(IG)
TestParameter, Output.Graph.Enabled, true
TestParameter, Output.Graph.XAxis.Data, VG
TestParameter, Output.Graph.XAxis.Scale, Linear
TestParameter, Output.Graph.XAxis.Left, -5
TestParameter, Output.Graph.XAxis.Right, 7
TestParameter, Output.Graph.YAxis.Data, ID, absIG, gm2
TestParameter, Output.Graph.YAxis.Scale, Log, Log, Linear
TestParameter, Output.Graph.YAxis.Bottom, 1E-14, 1E-14, 0
TestParameter, Output.Graph.YAxis.Top, 0.01, 0.01, 1E-05
TestParameter, Output.Graph.YAxis.Group, , , 
TestParameter, Output.List.Data, VG, IG, VD, ID, VS, IS, sqrtID, gm2, absIG
TestParameter, AutoAnalysis.Interpolation, false
TestParameter, AutoAnalysis.Line1.Enabled, false
TestParameter, AutoAnalysis.Line1.Type, 1
TestParameter, AutoAnalysis.Line1.Fix, True
TestParameter, AutoAnalysis.Line1.YAxis, 0
TestParameter, AutoAnalysis.Line1.Point1.Type, 0
TestParameter, AutoAnalysis.Line1.Point1.XY.X, 
TestParameter, AutoAnalysis.Line1.Point1.XY.Y, 
TestParameter, AutoAnalysis.Line1.Point1.Data.Var, 
TestParameter, AutoAnalysis.Line1.Point1.Data.Condition, 
TestParameter, AutoAnalysis.Line1.Point1.Data.Start, false
TestParameter, AutoAnalysis.Line1.Point1.Data.StartVar, 
TestParameter, AutoAnalysis.Line1.Point1.Data.StartCondition, 
TestParameter, AutoAnalysis.Line1.Point2.Type, 0
TestParameter, AutoAnalysis.Line1.Point2.XY.X, 
TestParameter, AutoAnalysis.Line1.Point2.XY.Y, 
TestParameter, AutoAnalysis.Line1.Point2.Data.Var, 
TestParameter, AutoAnalysis.Line1.Point2.Data.Condition, 
TestParameter, AutoAnalysis.Line1.Point2.Data.Start, false
TestParameter, AutoAnalysis.Line1.Point2.Data.StartVar, 
TestParameter, AutoAnalysis.Line1.Point2.Data.StartCondition, 
TestParameter, AutoAnalysis.Line1.GradientExpr, 0
TestParameter, AutoAnalysis.Line2.Enabled, false
TestParameter, AutoAnalysis.Line2.Type, 1
TestParameter, AutoAnalysis.Line2.Fix, True
TestParameter, AutoAnalysis.Line2.YAxis, 0
TestParameter, AutoAnalysis.Line2.Point1.Type, 0
TestParameter, AutoAnalysis.Line2.Point1.XY.X, 
TestParameter, AutoAnalysis.Line2.Point1.XY.Y, 
TestParameter, AutoAnalysis.Line2.Point1.Data.Var, 
TestParameter, AutoAnalysis.Line2.Point1.Data.Condition, 
TestParameter, AutoAnalysis.Line2.Point1.Data.Start, false
TestParameter, AutoAnalysis.Line2.Point1.Data.StartVar, 
TestParameter, AutoAnalysis.Line2.Point1.Data.StartCondition, 
TestParameter, AutoAnalysis.Line2.Point2.Type, 0
TestParameter, AutoAnalysis.Line2.Point2.XY.X, 
TestParameter, AutoAnalysis.Line2.Point2.XY.Y, 
TestParameter, AutoAnalysis.Line2.Point2.Data.Var, 
TestParameter, AutoAnalysis.Line2.Point2.Data.Condition, 
TestParameter, AutoAnalysis.Line2.Point2.Data.Start, false
TestParameter, AutoAnalysis.Line2.Point2.Data.StartVar, 
TestParameter, AutoAnalysis.Line2.Point2.Data.StartCondition, 
TestParameter, AutoAnalysis.Line2.GradientExpr, 0
TestParameter, AutoAnalysis.Marker.Enabled, false
TestParameter, AutoAnalysis.Marker.Data.Var, 
TestParameter, AutoAnalysis.Marker.Data.Condition, 
TestParameter, AutoAnalysis.Marker.Data.Start, false
TestParameter, AutoAnalysis.Marker.Data.StartVar, 
TestParameter, AutoAnalysis.Marker.Data.StartCondition, 
MetaData, TestRecord.EntryPoint, true
MetaData, TestRecord.RecordTime, 04/23/2019 14:36:43
MetaData, TestRecord.TestTarget, 37
MetaData, TestRecord.IterationIndex, 3
MetaData, TestRecord.Preservation, true
MetaData, TestRecord.Flag, 
MetaData, TestRecord.Remarks, 250-300-G37
MetaData, TestRecord.LinkKey, 28aecd80-fb80-47d8-a109-fef0f2e89463
Dimension1, 101, 101, 101, 101, 101, 101, 101, 101, 101, 101
Dimension2, 1, 1, 1, 1, 1, 1, 1, 1, 1, 1
DataName, VG, VD, VS, ID, IS, IG, absID, sqrtID, gm2, absIG
DataValue, -2, 3, 0, 3.2410000000000004E-12, -9.88E-12, -3.27E-13, 3.2410000000000004E-12, 1.8002777563476144E-06, 4.9029503224753847E-11, 3.27E-13
DataValue, -1.9500000000000002, 3, 0, 2.1030000000000002E-12, 6.0940000000000005E-12, -5.658E-12, 2.1030000000000002E-12, 1.4501724035437994E-06, 5.1507645021096016E-11, 5.658E-12
DataValue, -1.9000000000000001, 3, 0, 1.172E-12, -7.55E-13, -2.155E-12, 1.172E-12, 1.0825894882179488E-06, 2.7554640318460137E-12, 2.155E-12
DataValue, -1.85, 3, 0, 2.612E-12, -1.2960000000000001E-12, -1.6790000000000002E-12, 2.612E-12, 1.6161683080669538E-06, 2.1982176419827338E-12, 1.6790000000000002E-12
DataValue, -1.8, 3, 0, 1.5150000000000001E-12, 1.3650000000000001E-12, -9.94E-13, 1.5150000000000001E-12, 1.2308533625091172E-06, 2.2407417508147531E-11, 9.94E-13
DataValue, -1.75, 3, 0, 1.306E-12, -9.3100000000000017E-13, -1.8020000000000002E-12, 1.306E-12, 1.1428035701729323E-06, 1.6527230052513953E-12, 1.8020000000000002E-12
DataValue, -1.7000000000000002, 3, 0, 1.8480000000000002E-12, -2.2600000000000002E-13, -5.3020000000000006E-12, 1.8480000000000002E-12, 1.3594116374373143E-06, 1.9427359712781335E-12, 5.3020000000000006E-12
DataValue, -1.6500000000000001, 3, 0, 1.644E-12, 1.926E-12, -1.4220000000000002E-12, 1.644E-12, 1.2821856339859684E-06, 4.056038647713614E-12, 1.4220000000000002E-12
DataValue, -1.6, 3, 0, 1.341E-12, 6.77E-13, -6.34E-13, 1.341E-12, 1.1580155439371269E-06, 7.40975949867676E-15, 6.34E-13
DataValue, -1.55, 3, 0, 1.6220000000000002E-12, -1.3300000000000001E-13, -2E-15, 1.6220000000000002E-12, 1.2735776379946376E-06, 1.4296362070885315E-13, 2E-15
DataValue, -1.5, 3, 0, 1.4300000000000002E-12, 1.7100000000000002E-12, -2.046E-12, 1.4300000000000002E-12, 1.1958260743101398E-06, 2.5896261602268071E-12, 2.046E-12
DataValue, -1.4500000000000002, 3, 0, 1.2380000000000002E-12, -5.2700000000000008E-13, -1.569E-12, 1.2380000000000002E-12, 1.11265448365609E-06, 4.9379134502542691E-13, 1.569E-12
DataValue, -1.4000000000000001, 3, 0, 1.6030000000000001E-12, -1.032E-12, -1.372E-12, 1.6030000000000001E-12, 1.2660963628413125E-06, 1.3212306931594611E-12, 1.372E-12
DataValue, -1.35, 3, 0, 1.5070000000000001E-12, -8.92E-13, -1.4E-12, 1.5070000000000001E-12, 1.2275992831539126E-06, 2.7156307674024615E-14, 1.4E-12
DataValue, -1.3, 3, 0, 1.6450000000000002E-12, -9.9300000000000011E-13, -1.038E-12, 1.6450000000000002E-12, 1.2825755338380661E-06, 4.0697505201354066E-12, 1.038E-12
DataValue, -1.25, 3, 0, 2.043E-12, -7.8000000000000011E-13, -1.289E-12, 2.043E-12, 1.4293355099485915E-06, 7.1300146627585571E-11, 1.289E-12
DataValue, -1.2, 3, 0, 4.5240000000000005E-12, -4.02E-12, -2.5710000000000003E-12, 4.5240000000000005E-12, 2.1269696753832671E-06, 3.6560169598140623E-10, 2.5710000000000003E-12
DataValue, -1.1500000000000001, 3, 0, 1.1165000000000001E-11, -1.5830000000000002E-12, -3.355E-12, 1.1165000000000001E-11, 3.3414068893207246E-06, 1.078004799049108E-09, 3.355E-12
DataValue, -1.1, 3, 0, 2.9271E-11, -3.6291E-11, -1.009E-12, 2.9271E-11, 5.4102680155422987E-06, 3.5552890868101553E-09, 1.009E-12
DataValue, -1.05, 3, 0, 8.6565E-11, -8.5779E-11, -2.0360000000000002E-12, 8.6565E-11, 9.3040313842978834E-06, 9.2937563430854679E-09, 2.0360000000000002E-12
DataValue, -1, 3, 0, 2.26523E-10, -2.1553500000000002E-10, -8.45E-13, 2.26523E-10, 1.5050681047713423E-05, 2.0822596656251208E-08, 8.45E-13
DataValue, -0.95000000000000007, 3, 0, 5.6330600000000006E-10, -5.40464E-10, -9.0400000000000009E-13, 5.6330600000000006E-10, 2.3734068340678555E-05, 3.9318801873705309E-08, 9.0400000000000009E-13
DataValue, -0.9, 3, 0, 1.21659E-09, -1.16024E-09, -1.26E-12, 1.21659E-09, 3.4879650227604062E-05, 8.7397790603727278E-08, 1.26E-12
DataValue, -0.85000000000000009, 3, 0, 2.84059E-09, -2.79675E-09, 2.68E-13, 2.84059E-09, 5.3297185666787325E-05, 1.8175446684447056E-07, 2.68E-13
DataValue, -0.8, 3, 0, 6.00816E-09, -5.90943E-09, -2.874E-12, 6.00816E-09, 7.7512321601149316E-05, 2.7062238417099487E-07, 2.874E-12
DataValue, -0.75, 3, 0, 1.1092E-08, -1.0780899999999999E-08, -1.1210000000000002E-12, 1.1092E-08, 0.00010531856436545268, 4.4766668937019018E-07, 1.1210000000000002E-12
DataValue, -0.70000000000000007, 3, 0, 2.0857199999999997E-08, -2.0620599999999998E-08, -3.18E-13, 2.0857199999999997E-08, 0.00014442022019094138, 7.2481201292277229E-07, 3.18E-13
DataValue, -0.65, 3, 0, 3.62729E-08, -3.58683E-08, -1.52E-13, 3.62729E-08, 0.000190454456498135, 9.9010765309058E-07, 1.52E-13
DataValue, -0.6, 3, 0, 5.9499099999999994E-08, -5.8938199999999992E-08, -6.38E-13, 5.9499099999999994E-08, 0.00024392437352589429, 1.3082504536114265E-06, 6.38E-13
DataValue, -0.55, 3, 0, 9.29233E-08, -9.2108199999999991E-08, -3.0180000000000003E-12, 9.29233E-08, 0.00030483323309639322, 1.5721597392010241E-06, 3.0180000000000003E-12
DataValue, -0.5, 3, 0, 1.3639E-07, -1.3411999999999999E-07, -6.09E-13, 1.3639E-07, 0.00036931016774521656, 1.9891351620123193E-06, 6.09E-13
DataValue, -0.45, 3, 0, 1.988E-07, -1.97485E-07, -4.9E-13, 1.988E-07, 0.00044586993619215906, 2.5697321966266113E-06, 4.9E-13
DataValue, -0.4, 3, 0, 2.80491E-07, -2.7902399999999997E-07, 1.4030000000000002E-12, 2.80491E-07, 0.00052961401038869812, 3.0236223030980786E-06, 1.4030000000000002E-12
DataValue, -0.35000000000000003, 3, 0, 3.84097E-07, -3.82393E-07, -3.4070000000000003E-12, 3.84097E-07, 0.000619755596989652, 3.4523144702840831E-06, 3.4070000000000003E-12
DataValue, -0.3, 3, 0, 5.11823E-07, -5.09847E-07, -7.03E-13, 5.11823E-07, 0.00071541805959872168, 3.8604739486894684E-06, 7.03E-13
DataValue, -0.25, 3, 0, 6.66242E-07, -6.6397799999999994E-07, 1.9000000000000002E-13, 6.66242E-07, 0.00081623648533987985, 4.2515789246419462E-06, 1.9000000000000002E-13
DataValue, -0.2, 3, 0, 8.4936799999999993E-07, -8.46835E-07, -7.5E-13, 8.4936799999999993E-07, 0.00092161163187103924, 4.6147949932954783E-06, 7.5E-13
DataValue, -0.15, 3, 0, 1.0630789999999999E-06, -1.060091E-06, -3.26E-13, 1.0630789999999999E-06, 0.0010310572244060948, 4.66009077401116E-06, 3.26E-13
DataValue, -0.1, 3, 0, 1.29387E-06, -1.28995E-06, -3.17E-13, 1.29387E-06, 0.0011374840658224625, 5.04782438270087E-06, 3.17E-13
DataValue, -0.05, 3, 0, 1.5768600000000003E-06, -1.5742000000000001E-06, -1.9070000000000003E-12, 1.5768600000000003E-06, 0.0012557308628842409, 5.6982445573971641E-06, 1.9070000000000003E-12
DataValue, 0, 3, 0, 1.8939100000000003E-06, -1.8911100000000003E-06, -7.04E-13, 1.8939100000000003E-06, 0.001376194027017993, 5.8926769293271411E-06, 7.04E-13
DataValue, 0.05, 3, 0, 2.2454400000000004E-06, -2.2421400000000004E-06, -3.74E-13, 2.2454400000000004E-06, 0.0014984792290852751, 6.1010696795027976E-06, 3.74E-13
DataValue, 0.1, 3, 0, 2.63477E-06, -2.6309600000000005E-06, -1.3E-13, 2.63477E-06, 0.0016231974618018598, 6.2998478800930163E-06, 1.3E-13
DataValue, 0.15, 3, 0, 3.0606600000000004E-06, -3.0567600000000003E-06, -7.1300000000000009E-13, 3.0606600000000004E-06, 0.0017494742067261238, 6.4341512692600894E-06, 7.1300000000000009E-13
DataValue, 0.2, 3, 0, 3.5225800000000002E-06, -3.5191200000000005E-06, 1.0000000000000002E-14, 3.5225800000000002E-06, 0.0018768537502959575, 6.4886800673804017E-06, 1.0000000000000002E-14
DataValue, 0.25, 3, 0, 4.0168300000000006E-06, -4.01369E-06, -6.9500000000000007E-13, 4.0168300000000006E-06, 0.0020042030835222264, 6.3494732814318181E-06, 6.9500000000000007E-13
DataValue, 0.3, 3, 0, 4.5319400000000009E-06, -4.52916E-06, -3.9200000000000005E-13, 4.5319400000000009E-06, 0.0021288353623519132, 5.958516227184324E-06, 3.9200000000000005E-13
DataValue, 0.35000000000000003, 3, 0, 5.05487E-06, -5.0520700000000007E-06, -8.6000000000000012E-14, 5.05487E-06, 0.0022483038050939647, 5.6193348981066125E-06, 8.6000000000000012E-14
DataValue, 0.4, 3, 0, 5.5974200000000005E-06, -5.5947700000000006E-06, 1.34E-13, 5.5974200000000005E-06, 0.0023658867259444185, 5.2457257249687314E-06, 1.34E-13
DataValue, 0.45, 3, 0, 6.137210000000001E-06, -6.1353200000000009E-06, -2.503E-12, 6.137210000000001E-06, 0.0024773392985217024, 4.882451884786447E-06, 2.503E-12
DataValue, 0.5, 3, 0, 6.691790000000001E-06, -6.6904500000000005E-06, -2.1530000000000002E-12, 6.691790000000001E-06, 0.0025868494351237378, 4.6673919627937231E-06, 2.1530000000000002E-12
DataValue, 0.55, 3, 0, 7.254300000000001E-06, -7.2531600000000009E-06, 1.0400000000000001E-13, 7.254300000000001E-06, 0.002693380775159725, 4.4665040092056443E-06, 1.0400000000000001E-13
DataValue, 0.6, 3, 0, 7.82987E-06, -7.830190000000001E-06, 1.6700000000000002E-13, 7.82987E-06, 0.0027981904867253053, 4.3145757741252276E-06, 1.6700000000000002E-13
DataValue, 0.65, 3, 0, 8.41636E-06, -8.4134700000000013E-06, 2.0040000000000003E-12, 8.41636E-06, 0.002901096344487718, 4.1306838431221735E-06, 2.0040000000000003E-12
DataValue, 0.70000000000000007, 3, 0, 9.0085900000000014E-06, -9.011320000000001E-06, 1.5000000000000002E-14, 9.0085900000000014E-06, 0.00300143132521802, 4.0401535824059933E-06, 1.5000000000000002E-14
DataValue, 0.75, 3, 0, 9.6230100000000016E-06, -9.62149E-06, -2.5E-14, 9.6230100000000016E-06, 0.00310209767737897, 3.8840236955619654E-06, 2.5E-14
DataValue, 0.8, 3, 0, 1.0230470000000001E-05, -1.023543E-05, -1.3840000000000002E-12, 1.0230470000000001E-05, 0.0031985105908844511, 3.8134897442073618E-06, 1.3840000000000002E-12
DataValue, 0.85000000000000009, 3, 0, 1.087271E-05, -1.08744E-05, 2.36E-13, 1.087271E-05, 0.0032973792623839922, 3.8047176121115709E-06, 2.36E-13
DataValue, 0.9, 3, 0, 1.15163E-05, -1.1511300000000001E-05, -1.9100000000000002E-13, 1.15163E-05, 0.0033935674444454467, 3.626831052457943E-06, 1.9100000000000002E-13
DataValue, 0.95000000000000007, 3, 0, 1.2164900000000001E-05, -1.21629E-05, 1.0200000000000001E-13, 1.2164900000000001E-05, 0.0034878216697532003, 3.450236876022631E-06, 1.0200000000000001E-13
DataValue, 1, 3, 0, 1.2811500000000001E-05, -1.28104E-05, -1.8400000000000002E-12, 1.2811500000000001E-05, 0.0035793155770342464, 3.2995616852415903E-06, 1.8400000000000002E-12
DataValue, 1.05, 3, 0, 1.3465E-05, -1.3461300000000001E-05, -2.2900000000000003E-13, 1.3465E-05, 0.0036694686263817546, 3.2781544894528181E-06, 2.2900000000000003E-13
DataValue, 1.1, 3, 0, 1.4140400000000001E-05, -1.41369E-05, -1.8400000000000002E-13, 1.4140400000000001E-05, 0.0037603723219915338, 3.2334161268384937E-06, 1.8400000000000002E-13
DataValue, 1.1500000000000001, 3, 0, 1.4817E-05, -1.48167E-05, 1E-13, 1.4817E-05, 0.0038492856480131479, 3.0201498590673343E-06, 1E-13
DataValue, 1.2, 3, 0, 1.54776E-05, -1.54609E-05, -2.0400000000000001E-13, 1.54776E-05, 0.003934158105618024, 2.8543357328176066E-06, 2.0400000000000001E-13
DataValue, 1.25, 3, 0, 1.61462E-05, -1.6155E-05, -2.2900000000000003E-13, 1.61462E-05, 0.0040182334426959315, 2.751971591247376E-06, 2.2900000000000003E-13
DataValue, 1.3, 3, 0, 1.68104E-05, -1.67926E-05, 2.6630000000000003E-12, 1.68104E-05, 0.0041000487801976212, 2.7754328154896649E-06, 2.6630000000000003E-12
DataValue, 1.35, 3, 0, 1.75128E-05, -1.75208E-05, 1.2600000000000002E-13, 1.75128E-05, 0.0041848297456407949, 2.77832192016828E-06, 1.2600000000000002E-13
DataValue, 1.4000000000000001, 3, 0, 1.8205E-05, -1.81966E-05, 2.4000000000000002E-14, 1.8205E-05, 0.0042667317703366358, 2.5169227100449711E-06, 2.4000000000000002E-14
DataValue, 1.4500000000000002, 3, 0, 1.88658E-05, -1.88631E-05, 2.85E-13, 1.88658E-05, 0.0043434778691735041, 2.4581514340423273E-06, 2.85E-13
DataValue, 1.5, 3, 0, 1.9567500000000002E-05, -1.95545E-05, 3.98E-13, 1.9567500000000002E-05, 0.0044235167005449412, 2.6275261059895835E-06, 3.98E-13
DataValue, 1.55, 3, 0, 2.03002E-05, -2.02944E-05, -1.2570000000000002E-12, 2.03002E-05, 0.0045055743252109381, 2.3616547394884759E-06, 1.2570000000000002E-12
DataValue, 1.6, 3, 0, 2.09507E-05, -2.09401E-05, 8.8E-14, 2.09507E-05, 0.0045771934632479758, 2.0719235639000196E-06, 8.8E-14
DataValue, 1.6500000000000001, 3, 0, 2.1618000000000002E-05, -2.16235E-05, 2.6200000000000004E-13, 2.1618000000000002E-05, 0.00464951610385425, 2.1203118350315046E-06, 2.6200000000000004E-13
DataValue, 1.7000000000000002, 3, 0, 2.23049E-05, -2.23355E-05, 3.1000000000000004E-13, 2.23049E-05, 0.00472280636909878, 2.1871287936934764E-06, 3.1000000000000004E-13
DataValue, 1.75, 3, 0, 2.30151E-05, -2.2993400000000002E-05, -2.7000000000000002E-14, 2.30151E-05, 0.0047974055488357453, 1.9892238039922822E-06, 2.7000000000000002E-14
DataValue, 1.8, 3, 0, 2.3657E-05, -2.36831E-05, 2E-13, 2.3657E-05, 0.0048638462146741446, 2.0315861920295886E-06, 2E-13
DataValue, 1.85, 3, 0, 2.4403E-05, -2.43681E-05, 1.48E-13, 2.4403E-05, 0.0049399392708817788, 2.1451456361746183E-06, 1.48E-13
DataValue, 1.9000000000000001, 3, 0, 2.51032E-05, -2.51158E-05, 6.9100000000000008E-13, 2.51032E-05, 0.0050103093716855453, 1.8658188551088053E-06, 6.9100000000000008E-13
DataValue, 1.9500000000000002, 3, 0, 2.57712E-05, -2.57758E-05, -1.58E-13, 2.57712E-05, 0.0050765342508447631, 1.6006916475125744E-06, 1.58E-13
DataValue, 2, 3, 0, 2.6387E-05, -2.6398700000000002E-05, 7.6900000000000006E-13, 2.6387E-05, 0.0051368278149067836, 1.5874483172140963E-06, 7.6900000000000006E-13
DataValue, 2.05, 3, 0, 2.7066300000000002E-05, -2.70536E-05, 5.0700000000000006E-13, 2.7066300000000002E-05, 0.0052025282315428141, 1.619461145633282E-06, 5.0700000000000006E-13
DataValue, 2.1, 3, 0, 2.7710600000000002E-05, -2.7685E-05, 1.18E-13, 2.7710600000000002E-05, 0.0052640858655610854, 1.5338704717302432E-06, 1.18E-13
DataValue, 2.15, 3, 0, 2.8370300000000002E-05, -2.8384500000000002E-05, 3.1300000000000003E-13, 2.8370300000000002E-05, 0.0053263777560364611, 9.40101059495601E-07, 3.1300000000000003E-13
DataValue, 2.2, 3, 0, 2.87408E-05, -2.87578E-05, 2.2700000000000002E-13, 2.87408E-05, 0.0053610446743148858, 1.5615383716680347E-06, 2.2700000000000002E-13
DataValue, 2.25, 3, 0, 2.97171E-05, -2.97622E-05, -1.1600000000000001E-12, 2.97171E-05, 0.0054513392849830948, 2.367084720798726E-06, 1.1600000000000001E-12
DataValue, 2.3000000000000003, 3, 0, 3.04141E-05, -3.04336E-05, -3.3200000000000005E-13, 3.04141E-05, 0.0055148980044965471, 1.8123963092954473E-06, 3.3200000000000005E-13
