
SetupTitle, Transfer lin
PrimitiveTest, I/V Sweep
TestParameter, Context.MainFrame, 4155C
TestParameter, Channel.UnitType, SMU, SMU, SMU
TestParameter, Channel.Unit, SMU1:MP, SMU4:MP, SMU3:MP
TestParameter, Channel.IName, ID, IS, IG
TestParameter, Channel.VName, VD, VS, VG
TestParameter, Channel.Mode, V, COMMON, V
TestParameter, Channel.Func, CONST, CONST, VAR1
TestParameter, Channel.Index, 
TestParameter, Channel.Time, 
TestParameter, Measurement.Port.Unit, SMU1:MP, SMU4:MP, SMU3:MP
TestParameter, Measurement.Port.SeriesResistor, NONE, NONE, NONE
TestParameter, Measurement.Port.Filter, ON, ON, ON
TestParameter, Measurement.Primary.Locus, Double
TestParameter, Measurement.Primary.Scale, LINEAR
TestParameter, Measurement.Primary.Start, -2
TestParameter, Measurement.Primary.Stop, 3
TestParameter, Measurement.Primary.Step, 0.05
TestParameter, Measurement.Primary.Compliance, 0.001
TestParameter, Measurement.Primary.PowerCompliance, 0
TestParameter, Measurement.Aborting.Condition, CONTINUE AT ANY
TestParameter, Measurement.PostOutput.Value, START
TestParameter, Measurement.PostOutput.Retention, OFF
TestParameter, Measurement.Bias.Source, 0.1, 0, -2
TestParameter, Measurement.Bias.Compliance, 0.001, 0.1, 0.001
TestParameter, Measurement.Monitor.Unit, SMU1:MP, SMU4:MP, SMU3:MP
TestParameter, Measurement.Monitor.Adc, HR ADC, HR ADC, HR ADC
TestParameter, Measurement.Monitor.RangingMode, AUTO, AUTO, AUTO
TestParameter, Measurement.Monitor.RangeBoundary, , , 
TestParameter, Measurement.Monitor.RangeRating, BY FULL RANGE, BY FULL RANGE, BY FULL RANGE
TestParameter, Measurement.Monitor.RangeRatingCoeff, 50, 50, 50
TestParameter, Measurement.Timing.Hold, 0.5
TestParameter, Measurement.Timing.Delay, 0.05
TestParameter, Measurement.Adc.HighResolution.AutoZero, OFF
TestParameter, Measurement.Adc.HighResolution.Mode, AUTO
TestParameter, Measurement.Adc.HighResolution.Coeff, 1
TestParameter, Measurement.Ag16440ASelector.SemiconductorRelay.Channel1, DEFAULT
TestParameter, Measurement.Ag16440ASelector.SemiconductorRelay.Channel3, DEFAULT
TestParameter, Function.User.Name, absID, sqrtID, gm2, absIG
TestParameter, Function.User.Unit, A, A, A/V, A
TestParameter, Function.User.Definition, abs(ID), sqrt(abs(ID)), (delta(sqrtID)/delta(VG))^2, abs(IG)
TestParameter, Output.Graph.Enabled, true
TestParameter, Output.Graph.XAxis.Data, VG
TestParameter, Output.Graph.XAxis.Scale, Linear
TestParameter, Output.Graph.XAxis.Left, -5
TestParameter, Output.Graph.XAxis.Right, 7
TestParameter, Output.Graph.YAxis.Data, ID, absIG, gm2
TestParameter, Output.Graph.YAxis.Scale, Log, Log, Linear
TestParameter, Output.Graph.YAxis.Bottom, 1E-14, 1E-14, 0
TestParameter, Output.Graph.YAxis.Top, 0.01, 0.01, 1E-05
TestParameter, Output.Graph.YAxis.Group, , , 
TestParameter, Output.List.Data, VG, IG, VD, ID, VS, IS, sqrtID, gm2, absIG
TestParameter, AutoAnalysis.Interpolation, false
TestParameter, AutoAnalysis.Line1.Enabled, false
TestParameter, AutoAnalysis.Line1.Type, 1
TestParameter, AutoAnalysis.Line1.Fix, True
TestParameter, AutoAnalysis.Line1.YAxis, 0
TestParameter, AutoAnalysis.Line1.Point1.Type, 0
TestParameter, AutoAnalysis.Line1.Point1.XY.X, 
TestParameter, AutoAnalysis.Line1.Point1.XY.Y, 
TestParameter, AutoAnalysis.Line1.Point1.Data.Var, 
TestParameter, AutoAnalysis.Line1.Point1.Data.Condition, 
TestParameter, AutoAnalysis.Line1.Point1.Data.Start, false
TestParameter, AutoAnalysis.Line1.Point1.Data.StartVar, 
TestParameter, AutoAnalysis.Line1.Point1.Data.StartCondition, 
TestParameter, AutoAnalysis.Line1.Point2.Type, 0
TestParameter, AutoAnalysis.Line1.Point2.XY.X, 
TestParameter, AutoAnalysis.Line1.Point2.XY.Y, 
TestParameter, AutoAnalysis.Line1.Point2.Data.Var, 
TestParameter, AutoAnalysis.Line1.Point2.Data.Condition, 
TestParameter, AutoAnalysis.Line1.Point2.Data.Start, false
TestParameter, AutoAnalysis.Line1.Point2.Data.StartVar, 
TestParameter, AutoAnalysis.Line1.Point2.Data.StartCondition, 
TestParameter, AutoAnalysis.Line1.GradientExpr, 0
TestParameter, AutoAnalysis.Line2.Enabled, false
TestParameter, AutoAnalysis.Line2.Type, 1
TestParameter, AutoAnalysis.Line2.Fix, True
TestParameter, AutoAnalysis.Line2.YAxis, 0
TestParameter, AutoAnalysis.Line2.Point1.Type, 0
TestParameter, AutoAnalysis.Line2.Point1.XY.X, 
TestParameter, AutoAnalysis.Line2.Point1.XY.Y, 
TestParameter, AutoAnalysis.Line2.Point1.Data.Var, 
TestParameter, AutoAnalysis.Line2.Point1.Data.Condition, 
TestParameter, AutoAnalysis.Line2.Point1.Data.Start, false
TestParameter, AutoAnalysis.Line2.Point1.Data.StartVar, 
TestParameter, AutoAnalysis.Line2.Point1.Data.StartCondition, 
TestParameter, AutoAnalysis.Line2.Point2.Type, 0
TestParameter, AutoAnalysis.Line2.Point2.XY.X, 
TestParameter, AutoAnalysis.Line2.Point2.XY.Y, 
TestParameter, AutoAnalysis.Line2.Point2.Data.Var, 
TestParameter, AutoAnalysis.Line2.Point2.Data.Condition, 
TestParameter, AutoAnalysis.Line2.Point2.Data.Start, false
TestParameter, AutoAnalysis.Line2.Point2.Data.StartVar, 
TestParameter, AutoAnalysis.Line2.Point2.Data.StartCondition, 
TestParameter, AutoAnalysis.Line2.GradientExpr, 0
TestParameter, AutoAnalysis.Marker.Enabled, false
TestParameter, AutoAnalysis.Marker.Data.Var, 
TestParameter, AutoAnalysis.Marker.Data.Condition, 
TestParameter, AutoAnalysis.Marker.Data.Start, false
TestParameter, AutoAnalysis.Marker.Data.StartVar, 
TestParameter, AutoAnalysis.Marker.Data.StartCondition, 
MetaData, TestRecord.EntryPoint, true
MetaData, TestRecord.RecordTime, 04/24/2019 15:24:20
MetaData, TestRecord.TestTarget, 37
MetaData, TestRecord.IterationIndex, 1
MetaData, TestRecord.Preservation, true
MetaData, TestRecord.Flag, 
MetaData, TestRecord.Remarks, 350-300-G37
MetaData, TestRecord.LinkKey, e9e4ba0a-c448-45a8-b000-72977aa2a7f0
Dimension1, 202, 202, 202, 202, 202, 202, 202, 202, 202, 202
Dimension2, 1, 1, 1, 1, 1, 1, 1, 1, 1, 1
DataName, VG, VD, VS, ID, IS, IG, absID, sqrtID, gm2, absIG
DataValue, -2, 0.1, 0, 3.8400000000000003E-13, 1.6550000000000001E-12, -2.293E-12, 3.8400000000000003E-13, 6.1967733539318668E-07, 4.9974130046905919E-11, 2.293E-12
DataValue, -1.9500000000000002, 0.1, 0, 9.470000000000001E-13, 7.6900000000000006E-13, -9.950000000000001E-13, 9.470000000000001E-13, 9.7313925005622914E-07, 1.1415229886681463E-12, 9.950000000000001E-13
DataValue, -1.9000000000000001, 0.1, 0, 2.6300000000000004E-13, 1.2860000000000002E-12, 1.3090000000000002E-12, 2.6300000000000004E-13, 5.1283525619832342E-07, 2.7193686233581559E-11, 1.3090000000000002E-12
DataValue, -1.85, 0.1, 0, 2.0400000000000001E-13, 2.038E-12, -9.9300000000000011E-13, 2.0400000000000001E-13, 4.5166359162544861E-07, 1.4018047613383519E-13, 9.9300000000000011E-13
DataValue, -1.8, 0.1, 0, 2.2600000000000002E-13, -6.400000000000001E-13, -4.744E-12, 2.2600000000000002E-13, 4.7539457296018854E-07, 2.054569017569795E-13, 4.744E-12
DataValue, -1.75, 0.1, 0, 2.47E-13, 2.2210000000000003E-12, -9.3300000000000016E-13, 2.47E-13, 4.9699094559156711E-07, 1.5734737621829514E-12, 9.3300000000000016E-13
DataValue, -1.7000000000000002, 0.1, 0, 3.6100000000000003E-13, -5.5500000000000006E-13, -2.8600000000000004E-13, 3.6100000000000003E-13, 6.00832755431992E-07, 1.4608696084793466E-11, 2.8600000000000004E-13
DataValue, -1.6500000000000001, 0.1, 0, 7.73E-13, -1.12E-13, -4.0500000000000004E-13, 7.73E-13, 8.7920418561333065E-07, 9.4871802396806425E-12, 4.0500000000000004E-13
DataValue, -1.6, 0.1, 0, 8.26E-13, -7E-14, -3.7300000000000003E-13, 8.26E-13, 9.0884542140014112E-07, 3.7552364079332316E-13, 3.7300000000000003E-13
DataValue, -1.55, 0.1, 0, 6.6900000000000008E-13, -1.2960000000000001E-12, 1.4400000000000002E-13, 6.6900000000000008E-13, 8.1792420186714124E-07, 5.3848413768549435E-13, 1.4400000000000002E-13
DataValue, -1.5, 0.1, 0, 6.9800000000000006E-13, 2.23E-13, 1.435E-12, 6.9800000000000006E-13, 8.3546394296821694E-07, 3.5928399613657628E-12, 1.435E-12
DataValue, -1.4500000000000002, 0.1, 0, 1.015E-12, -1.172E-12, -1.4550000000000002E-12, 1.015E-12, 1.0074720839804942E-06, 1.5955627651249043E-11, 1.4550000000000002E-12
DataValue, -1.4000000000000001, 0.1, 0, 1.525E-12, -4.5600000000000008E-13, -4.2600000000000005E-13, 1.525E-12, 1.234908903522847E-06, 7.7838739584282643E-12, 4.2600000000000005E-13
DataValue, -1.35, 0.1, 0, 1.6550000000000001E-12, -1.097E-12, -1.0700000000000001E-13, 1.6550000000000001E-12, 1.2864680330268608E-06, 1.4020440777138802E-11, 1.0700000000000001E-13
DataValue, -1.3, 0.1, 0, 2.59E-12, -1.839E-12, -1.4E-13, 2.59E-12, 1.6093476939431082E-06, 3.471156250900493E-11, 1.4E-13
DataValue, -1.25, 0.1, 0, 3.518E-12, -1.2500000000000001E-12, -2.3620000000000002E-12, 3.518E-12, 1.8756332264064849E-06, 3.0153715375173757E-11, 2.3620000000000002E-12
DataValue, -1.2, 0.1, 0, 4.659E-12, -3.484E-12, -3.4800000000000003E-13, 4.659E-12, 2.158471681537657E-06, 3.5377733082883247E-11, 3.4800000000000003E-13
DataValue, -1.1500000000000001, 0.1, 0, 6.103E-12, -7.352E-12, -7.3E-14, 6.103E-12, 2.4704250646396869E-06, 4.3752588617366087E-11, 7.3E-14
DataValue, -1.1, 0.1, 0, 7.952E-12, -7.2720000000000005E-12, 1.9110000000000002E-12, 7.952E-12, 2.8199290771223308E-06, 5.0922146100447936E-11, 1.9110000000000002E-12
DataValue, -1.05, 0.1, 0, 1.0138E-11, -1.1168000000000001E-11, 5.89E-13, 1.0138E-11, 3.1840226129850271E-06, 5.8870384775112735E-11, 5.89E-13
DataValue, -1, 0.1, 0, 1.2868E-11, -1.1542E-11, 7.3E-14, 1.2868E-11, 3.5871994647635641E-06, 1.0273763634291553E-10, 7.3E-14
DataValue, -0.95000000000000007, 0.1, 0, 1.7620000000000003E-11, -1.7038000000000002E-11, 3.43E-13, 1.7620000000000003E-11, 4.1976183723630718E-06, 1.208864620781698E-10, 3.43E-13
DataValue, -0.9, 0.1, 0, 2.1965000000000002E-11, -1.9508E-11, 4.6100000000000006E-13, 2.1965000000000002E-11, 4.6866832621801961E-06, 1.36207820069847E-10, 4.6100000000000006E-13
DataValue, -0.85000000000000009, 0.1, 0, 2.8780000000000003E-11, -2.7215000000000003E-11, -7.9E-14, 2.8780000000000003E-11, 5.3646994324006637E-06, 2.0622718289792026E-10, 7.9E-14
DataValue, -0.8, 0.1, 0, 3.7488E-11, -3.6142E-11, 3.4700000000000004E-13, 3.7488E-11, 6.122744482664616E-06, 3.2046694485212613E-10, 3.4700000000000004E-13
DataValue, -0.75, 0.1, 0, 5.1192000000000004E-11, -5.0244E-11, -2.3870000000000002E-12, 5.1192000000000004E-11, 7.1548584891666448E-06, 5.4780765412249454E-10, 2.3870000000000002E-12
DataValue, -0.70000000000000007, 0.1, 0, 7.1627E-11, -7.0023000000000007E-11, 2.5390000000000004E-12, 7.1627E-11, 8.463273598318797E-06, 9.40127146203232E-10, 2.5390000000000004E-12
DataValue, -0.65, 0.1, 0, 1.0446900000000001E-10, -1.01463E-10, 4.0500000000000004E-13, 1.0446900000000001E-10, 1.0221007778100945E-05, 1.6875690180122877E-09, 4.0500000000000004E-13
DataValue, -0.6, 0.1, 0, 1.58037E-10, -1.52692E-10, 3.29E-13, 1.58037E-10, 1.2571276784797954E-05, 2.9993534834595532E-09, 3.29E-13
DataValue, -0.55, 0.1, 0, 2.4641600000000003E-10, -2.40146E-10, 2.18E-13, 2.4641600000000003E-10, 1.5697643135197081E-05, 5.20191267648977E-09, 2.18E-13
DataValue, -0.5, 0.1, 0, 3.91395E-10, -3.78889E-10, 6.9000000000000009E-14, 3.91395E-10, 1.9783705416326843E-05, 8.7088447809859291E-09, 6.9000000000000009E-14
DataValue, -0.45, 0.1, 0, 6.2648900000000007E-10, -6.04945E-10, 5.9900000000000007E-13, 6.2648900000000007E-10, 2.5029762284128869E-05, 1.423147014628841E-08, 5.9900000000000007E-13
DataValue, -0.4, 0.1, 0, 1.005732E-09, -9.73704E-10, -1.592E-12, 1.005732E-09, 3.1713277976267289E-05, 2.0184119728457376E-08, 1.592E-12
DataValue, -0.35000000000000003, 0.1, 0, 1.53953E-09, -1.48326E-09, -8.1000000000000008E-14, 1.53953E-09, 3.9236844929224366E-05, 3.2779799524592265E-08, 8.1000000000000008E-14
DataValue, -0.3, 0.1, 0, 2.48188E-09, -2.45102E-09, -2.5050000000000003E-12, 2.48188E-09, 4.9818470470298465E-05, 5.1898751932034745E-08, 2.5050000000000003E-12
DataValue, -0.25, 0.1, 0, 3.84625E-09, -3.78754E-09, 3.39E-13, 3.84625E-09, 6.2018142506850357E-05, 6.4547802208384623E-08, 3.39E-13
DataValue, -0.2, 0.1, 0, 5.65876E-09, -5.57362E-09, -3.008E-12, 5.65876E-09, 7.5224729976251832E-05, 7.4624060114974862E-08, 3.008E-12
DataValue, -0.15, 0.1, 0, 7.98084E-09, -7.87727E-09, 8.01E-13, 7.98084E-09, 8.9335547236248582E-05, 8.2666910418701461E-08, 8.01E-13
DataValue, -0.1, 0.1, 0, 1.081113E-08, -1.067154E-08, 2.17E-13, 1.081113E-08, 0.00010397658390233831, 7.6255741113686927E-08, 2.17E-13
DataValue, -0.05, 0.1, 0, 1.3677299999999999E-08, -1.3309499999999999E-08, -3.77E-13, 1.3677299999999999E-08, 0.00011694998931167117, 8.3349540375511531E-08, 3.77E-13
DataValue, 0, 0.1, 0, 1.76483E-08, -1.7426499999999997E-08, 4.76E-13, 1.76483E-08, 0.00013284690436739577, 1.0782374026533233E-07, 4.76E-13
DataValue, 0.05, 0.1, 0, 2.2435999999999997E-08, -2.21523E-08, 3.8000000000000005E-13, 2.2435999999999997E-08, 0.00014978651474682224, 1.1929753337449086E-07, 3.8000000000000005E-13
DataValue, 0.1, 0.1, 0, 2.8018199999999997E-08, -2.76741E-08, 2.8900000000000003E-13, 2.8018199999999997E-08, 0.00016738637937418921, 1.2738843355995896E-07, 2.8900000000000003E-13
DataValue, 0.15, 0.1, 0, 3.44021E-08, -3.40022E-08, 7.2100000000000006E-13, 3.44021E-08, 0.00018547803104411044, 1.3606122123283556E-07, 7.2100000000000006E-13
DataValue, 0.2, 0.1, 0, 4.1727399999999996E-08, -4.1234299999999994E-08, 4.35E-13, 4.1727399999999996E-08, 0.00020427285673823626, 1.467128391943467E-07, 4.35E-13
DataValue, 0.25, 0.1, 0, 5.0077999999999994E-08, -4.9516399999999993E-08, 5.7500000000000007E-13, 5.0077999999999994E-08, 0.00022378114308404092, 1.5988165003530997E-07, 5.7500000000000007E-13
DataValue, 0.3, 0.1, 0, 5.9662E-08, -5.8981899999999993E-08, -2.3450000000000002E-12, 5.9662E-08, 0.0002442580602559514, 1.7060152610676698E-07, 2.3450000000000002E-12
DataValue, 0.35000000000000003, 0.1, 0, 7.02701E-08, -6.9462999999999991E-08, -4.4820000000000005E-12, 7.02701E-08, 0.00026508508068165588, 1.8106859581739834E-07, 4.4820000000000005E-12
DataValue, 0.4, 0.1, 0, 8.2260099999999989E-08, -8.1346399999999988E-08, 3.2100000000000005E-13, 8.2260099999999989E-08, 0.00028681021599657146, 1.9070264901895351E-07, 3.2100000000000005E-13
DataValue, 0.45, 0.1, 0, 9.5329399999999988E-08, -9.4459299999999989E-08, 8.0400000000000011E-13, 9.5329399999999988E-08, 0.00030875459510750603, 2.006184183013485E-07, 8.0400000000000011E-13
DataValue, 0.5, 0.1, 0, 1.0995899999999999E-07, -1.0913399999999999E-07, 5.2500000000000009E-13, 1.0995899999999999E-07, 0.00033160066344927597, 1.8124507458067691E-07, 5.2500000000000009E-13
DataValue, 0.55, 0.1, 0, 1.23431E-07, -1.21004E-07, 3.87E-13, 1.23431E-07, 0.0003513274825572289, 1.9691760913081479E-07, 3.87E-13
DataValue, 0.6, 0.1, 0, 1.41358E-07, -1.4002499999999999E-07, 1.4400000000000002E-13, 1.41358E-07, 0.00037597606306785008, 2.6047529402649264E-07, 1.4400000000000002E-13
DataValue, 0.65, 0.1, 0, 1.6189699999999998E-07, -1.60489E-07, 5.0300000000000008E-13, 1.6189699999999998E-07, 0.0004023642628266084, 2.7603269926524833E-07, 5.0300000000000008E-13
DataValue, 0.70000000000000007, 0.1, 0, 1.83625E-07, -1.8212E-07, 3.9100000000000005E-13, 1.83625E-07, 0.00042851487722131654, 2.6858435796328675E-07, 3.9100000000000005E-13
DataValue, 0.75, 0.1, 0, 2.06288E-07, -2.04416E-07, 2.35E-13, 2.06288E-07, 0.00045418938781085583, 2.6844931620449287E-07, 2.35E-13
DataValue, 0.8, 0.1, 0, 2.3071399999999998E-07, -2.2851999999999998E-07, -9.53E-13, 2.3071399999999998E-07, 0.00048032697196805427, 2.7592414641774167E-07, 9.53E-13
DataValue, 0.85000000000000009, 0.1, 0, 2.56763E-07, -2.54738E-07, -7.4E-14, 2.56763E-07, 0.00050671787021971113, 2.8847150777363087E-07, 7.4E-14
DataValue, 0.9, 0.1, 0, 2.85195E-07, -2.8256999999999997E-07, -4.1E-13, 2.85195E-07, 0.00053403651560544061, 2.9210551091969504E-07, 4.1E-13
DataValue, 0.95000000000000007, 0.1, 0, 3.14457E-07, -3.12604E-07, 1.8400000000000002E-12, 3.14457E-07, 0.00056076465651822244, 3.0151082637390108E-07, 1.8400000000000002E-12
DataValue, 1, 0.1, 0, 3.4685799999999997E-07, -3.4478E-07, 3.4700000000000004E-13, 3.4685799999999997E-07, 0.00058894651709641681, 3.199882837740796E-07, 3.4700000000000004E-13
DataValue, 1.05, 0.1, 0, 3.81099E-07, -3.78709E-07, 1.297E-12, 3.81099E-07, 0.00061733216342581732, 3.0469769728564866E-07, 1.297E-12
DataValue, 1.1, 0.1, 0, 4.14924E-07, -4.12739E-07, -2.8800000000000004E-13, 4.14924E-07, 0.00064414594619542555, 3.0474084706841646E-07, 2.8800000000000004E-13
DataValue, 1.1500000000000001, 0.1, 0, 4.52304E-07, -4.5043099999999997E-07, -1.337E-12, 4.52304E-07, 0.00067253550092169858, 3.1794608717496467E-07, 1.337E-12
DataValue, 1.2, 0.1, 0, 4.90746E-07, -4.89082E-07, 1.906E-12, 4.90746E-07, 0.00070053265448514253, 2.9310439648311732E-07, 1.906E-12
DataValue, 1.25, 0.1, 0, 5.28056E-07, -5.25877E-07, 1.29E-13, 5.28056E-07, 0.00072667461769350384, 2.8456523758159039E-07, 1.29E-13
DataValue, 1.3, 0.1, 0, 5.68331E-07, -5.67694E-07, 5.83E-13, 5.68331E-07, 0.00075387731097307869, 3.0419646017237285E-07, 5.83E-13
DataValue, 1.35, 0.1, 0, 6.11256E-07, -6.13031E-07, -2.573E-12, 6.11256E-07, 0.00078182862572305446, 3.2852942977241049E-07, 2.573E-12
DataValue, 1.4000000000000001, 0.1, 0, 6.58037E-07, -6.52938E-07, 9.92E-13, 6.58037E-07, 0.000811194797813694, 3.1604536705867117E-07, 9.92E-13
DataValue, 1.4500000000000002, 0.1, 0, 7.02322E-07, -7.02198E-07, -2.907E-12, 7.02322E-07, 0.00083804653808723531, 3.0329146946637104E-07, 2.907E-12
DataValue, 1.5, 0.1, 0, 7.50418E-07, -7.4308E-07, -1.867E-12, 7.50418E-07, 0.00086626670258067753, 3.0497362822958763E-07, 1.867E-12
DataValue, 1.55, 0.1, 0, 7.97933E-07, -7.97006E-07, 3.5E-14, 7.97933E-07, 0.00089327095553365, 2.7054307786110315E-07, 3.5E-14
DataValue, 1.6, 0.1, 0, 8.4323899999999994E-07, -8.4315799999999993E-07, -1.3820000000000002E-12, 8.4323899999999994E-07, 0.0009182804582479146, 2.8297751898248697E-07, 1.3820000000000002E-12
DataValue, 1.6500000000000001, 0.1, 0, 8.9579899999999993E-07, -8.9461399999999994E-07, 9.8000000000000012E-14, 8.9579899999999993E-07, 0.00094646658683759141, 2.5055257849369867E-07, 9.8000000000000012E-14
DataValue, 1.7000000000000002, 0.1, 0, 9.37674E-07, -9.34224E-07, 1.304E-12, 9.37674E-07, 0.000968335685596684, 2.1805670120727868E-07, 1.304E-12
DataValue, 1.75, 0.1, 0, 9.8637299999999988E-07, -9.83114E-07, 1.324E-12, 9.8637299999999988E-07, 0.00099316312859469352, 2.0247241609331586E-07, 1.324E-12
DataValue, 1.8, 0.1, 0, 1.026843E-06, -1.03676E-06, 8E-13, 1.026843E-06, 0.0010133326206137844, 2.7887554527129042E-07, 8E-13
DataValue, 1.85, 0.1, 0, 1.094057E-06, -1.094451E-06, -6.8E-14, 1.094057E-06, 0.0010459717969429194, 3.1411208763862255E-07, 6.8E-14
DataValue, 1.9000000000000001, 0.1, 0, 1.1435700000000002E-06, -1.1358200000000001E-06, 6.170000000000001E-13, 1.1435700000000002E-06, 0.0010693783240743194, 1.5943051555841283E-07, 6.170000000000001E-13
DataValue, 1.9500000000000002, 0.1, 0, 1.1791800000000002E-06, -1.1755500000000001E-06, -1.602E-12, 1.1791800000000002E-06, 0.0010859005479324523, 1.9083806614849208E-07, 1.602E-12
DataValue, 2, 0.1, 0, 1.2389100000000002E-06, -1.2420100000000002E-06, 8E-13, 1.2389100000000002E-06, 0.001113063340515714, 2.6576858069714789E-07, 8E-13
DataValue, 2.05, 0.1, 0, 1.2938000000000002E-06, -1.2907300000000002E-06, 4.64E-13, 1.2938000000000002E-06, 0.0011374532957444891, 1.3566188333181453E-07, 4.64E-13
DataValue, 2.1, 0.1, 0, 1.3222600000000002E-06, -1.3236100000000002E-06, 1.3630000000000002E-12, 1.3222600000000002E-06, 0.0011498956474393666, 1.086719756094626E-07, 1.3630000000000002E-12
DataValue, 2.15, 0.1, 0, 1.36988E-06, -1.3773400000000002E-06, 1.216E-12, 1.36988E-06, 0.0011704187284899367, 1.474994808523717E-07, 1.216E-12
DataValue, 2.2, 0.1, 0, 1.4120600000000002E-06, -1.4147700000000002E-06, 1.788E-12, 1.4120600000000002E-06, 0.0011883013085913859, 2.1901849044214565E-07, 1.788E-12
DataValue, 2.25, 0.1, 0, 1.48162E-06, -1.4825400000000003E-06, 2.7420000000000002E-12, 1.48162E-06, 0.001217218139858259, 2.1481778267372039E-07, 2.7420000000000002E-12
