
SetupTitle, Transfer sat
PrimitiveTest, I/V Sweep
TestParameter, Context.MainFrame, 4155C
TestParameter, Channel.UnitType, SMU, SMU, SMU
TestParameter, Channel.Unit, SMU1:MP, SMU4:MP, SMU3:MP
TestParameter, Channel.IName, ID, IS, IG
TestParameter, Channel.VName, VD, VS, VG
TestParameter, Channel.Mode, V, COMMON, V
TestParameter, Channel.Func, CONST, CONST, VAR1
TestParameter, Channel.Index, 
TestParameter, Channel.Time, 
TestParameter, Measurement.Port.Unit, SMU1:MP, SMU4:MP, SMU3:MP
TestParameter, Measurement.Port.SeriesResistor, NONE, NONE, NONE
TestParameter, Measurement.Port.Filter, ON, ON, ON
TestParameter, Measurement.Primary.Locus, Double
TestParameter, Measurement.Primary.Scale, LINEAR
TestParameter, Measurement.Primary.Start, -2
TestParameter, Measurement.Primary.Stop, 3
TestParameter, Measurement.Primary.Step, 0.05
TestParameter, Measurement.Primary.Compliance, 0.001
TestParameter, Measurement.Primary.PowerCompliance, 0
TestParameter, Measurement.Aborting.Condition, CONTINUE AT ANY
TestParameter, Measurement.PostOutput.Value, START
TestParameter, Measurement.PostOutput.Retention, OFF
TestParameter, Measurement.Bias.Source, 5, 0, -2
TestParameter, Measurement.Bias.Compliance, 0.001, 0.1, 0.001
TestParameter, Measurement.Monitor.Unit, SMU1:MP, SMU4:MP, SMU3:MP
TestParameter, Measurement.Monitor.Adc, HR ADC, HR ADC, HR ADC
TestParameter, Measurement.Monitor.RangingMode, AUTO, AUTO, AUTO
TestParameter, Measurement.Monitor.RangeBoundary, , , 
TestParameter, Measurement.Monitor.RangeRating, BY FULL RANGE, BY FULL RANGE, BY FULL RANGE
TestParameter, Measurement.Monitor.RangeRatingCoeff, 50, 50, 50
TestParameter, Measurement.Timing.Hold, 0.5
TestParameter, Measurement.Timing.Delay, 0.05
TestParameter, Measurement.Adc.HighResolution.AutoZero, OFF
TestParameter, Measurement.Adc.HighResolution.Mode, AUTO
TestParameter, Measurement.Adc.HighResolution.Coeff, 1
TestParameter, Measurement.Ag16440ASelector.SemiconductorRelay.Channel1, DEFAULT
TestParameter, Measurement.Ag16440ASelector.SemiconductorRelay.Channel3, DEFAULT
TestParameter, Function.User.Name, absID, sqrtID, gm2, absIG
TestParameter, Function.User.Unit, A, A, A/V, A
TestParameter, Function.User.Definition, abs(ID), sqrt(abs(ID)), (delta(sqrtID)/delta(VG))^2, abs(IG)
TestParameter, Output.Graph.Enabled, true
TestParameter, Output.Graph.XAxis.Data, VG
TestParameter, Output.Graph.XAxis.Scale, Linear
TestParameter, Output.Graph.XAxis.Left, -5
TestParameter, Output.Graph.XAxis.Right, 7
TestParameter, Output.Graph.YAxis.Data, ID, absIG, gm2
TestParameter, Output.Graph.YAxis.Scale, Log, Log, Linear
TestParameter, Output.Graph.YAxis.Bottom, 1E-14, 1E-14, 0
TestParameter, Output.Graph.YAxis.Top, 0.01, 0.01, 1E-05
TestParameter, Output.Graph.YAxis.Group, , , 
TestParameter, Output.List.Data, VG, IG, VD, ID, VS, IS, sqrtID, gm2, absIG
TestParameter, AutoAnalysis.Interpolation, false
TestParameter, AutoAnalysis.Line1.Enabled, false
TestParameter, AutoAnalysis.Line1.Type, 1
TestParameter, AutoAnalysis.Line1.Fix, True
TestParameter, AutoAnalysis.Line1.YAxis, 0
TestParameter, AutoAnalysis.Line1.Point1.Type, 0
TestParameter, AutoAnalysis.Line1.Point1.XY.X, 
TestParameter, AutoAnalysis.Line1.Point1.XY.Y, 
TestParameter, AutoAnalysis.Line1.Point1.Data.Var, 
TestParameter, AutoAnalysis.Line1.Point1.Data.Condition, 
TestParameter, AutoAnalysis.Line1.Point1.Data.Start, false
TestParameter, AutoAnalysis.Line1.Point1.Data.StartVar, 
TestParameter, AutoAnalysis.Line1.Point1.Data.StartCondition, 
TestParameter, AutoAnalysis.Line1.Point2.Type, 0
TestParameter, AutoAnalysis.Line1.Point2.XY.X, 
TestParameter, AutoAnalysis.Line1.Point2.XY.Y, 
TestParameter, AutoAnalysis.Line1.Point2.Data.Var, 
TestParameter, AutoAnalysis.Line1.Point2.Data.Condition, 
TestParameter, AutoAnalysis.Line1.Point2.Data.Start, false
TestParameter, AutoAnalysis.Line1.Point2.Data.StartVar, 
TestParameter, AutoAnalysis.Line1.Point2.Data.StartCondition, 
TestParameter, AutoAnalysis.Line1.GradientExpr, 0
TestParameter, AutoAnalysis.Line2.Enabled, false
TestParameter, AutoAnalysis.Line2.Type, 1
TestParameter, AutoAnalysis.Line2.Fix, True
TestParameter, AutoAnalysis.Line2.YAxis, 0
TestParameter, AutoAnalysis.Line2.Point1.Type, 0
TestParameter, AutoAnalysis.Line2.Point1.XY.X, 
TestParameter, AutoAnalysis.Line2.Point1.XY.Y, 
TestParameter, AutoAnalysis.Line2.Point1.Data.Var, 
TestParameter, AutoAnalysis.Line2.Point1.Data.Condition, 
TestParameter, AutoAnalysis.Line2.Point1.Data.Start, false
TestParameter, AutoAnalysis.Line2.Point1.Data.StartVar, 
TestParameter, AutoAnalysis.Line2.Point1.Data.StartCondition, 
TestParameter, AutoAnalysis.Line2.Point2.Type, 0
TestParameter, AutoAnalysis.Line2.Point2.XY.X, 
TestParameter, AutoAnalysis.Line2.Point2.XY.Y, 
TestParameter, AutoAnalysis.Line2.Point2.Data.Var, 
TestParameter, AutoAnalysis.Line2.Point2.Data.Condition, 
TestParameter, AutoAnalysis.Line2.Point2.Data.Start, false
TestParameter, AutoAnalysis.Line2.Point2.Data.StartVar, 
TestParameter, AutoAnalysis.Line2.Point2.Data.StartCondition, 
TestParameter, AutoAnalysis.Line2.GradientExpr, 0
TestParameter, AutoAnalysis.Marker.Enabled, false
TestParameter, AutoAnalysis.Marker.Data.Var, 
TestParameter, AutoAnalysis.Marker.Data.Condition, 
TestParameter, AutoAnalysis.Marker.Data.Start, false
TestParameter, AutoAnalysis.Marker.Data.StartVar, 
TestParameter, AutoAnalysis.Marker.Data.StartCondition, 
MetaData, TestRecord.EntryPoint, true
MetaData, TestRecord.RecordTime, 04/23/2019 16:27:31
MetaData, TestRecord.TestTarget, 41
MetaData, TestRecord.IterationIndex, 1
MetaData, TestRecord.Preservation, true
MetaData, TestRecord.Flag, 
MetaData, TestRecord.Remarks, 250-180-G41
MetaData, TestRecord.LinkKey, 035e0384-4000-4ef1-839f-3f3dc03d6528
Dimension1, 202, 202, 202, 202, 202, 202, 202, 202, 202, 202
Dimension2, 1, 1, 1, 1, 1, 1, 1, 1, 1, 1
DataName, VG, VD, VS, ID, IS, IG, absID, sqrtID, gm2, absIG
DataValue, -2, 5, 0, 9.6800000000000012E-13, -1.69E-12, -1.51E-12, 9.6800000000000012E-13, 9.8386991009990746E-07, 1.3371685656126314E-10, 1.51E-12
DataValue, -1.9500000000000002, 5, 0, 2.44E-12, 2.5630000000000003E-12, -2.2000000000000002E-13, 2.44E-12, 1.5620499351813309E-06, 1.382695029941047E-14, 2.2000000000000002E-13
DataValue, -1.9000000000000001, 5, 0, 9.4500000000000011E-13, -4.1270000000000005E-12, 2.18E-13, 9.4500000000000011E-13, 9.7211110476117919E-07, 3.8222277308978457E-12, 2.18E-13
DataValue, -1.85, 5, 0, 3.0890000000000003E-12, 1.53E-13, -1.667E-12, 3.0890000000000003E-12, 1.7575551200460258E-06, 1.6232931727636315E-11, 1.667E-12
DataValue, -1.8, 5, 0, 3.2400000000000003E-13, -3.505E-12, -1.41E-13, 3.2400000000000003E-13, 5.6920997883030836E-07, 1.4293122342031505E-11, 1.41E-13
DataValue, -1.75, 5, 0, 1.9030000000000003E-12, -1.224E-12, -7.95E-13, 1.9030000000000003E-12, 1.379492660364672E-06, 3.5638559814982511E-11, 7.95E-13
DataValue, -1.7000000000000002, 5, 0, 1.36E-12, 2.2540000000000003E-12, -7.360000000000001E-13, 1.36E-12, 1.16619037896906E-06, 1.4551297247160103E-10, 7.360000000000001E-13
DataValue, -1.6500000000000001, 5, 0, -3.0000000000000005E-14, 9.5000000000000012E-14, -1.3100000000000002E-13, 3.0000000000000005E-14, 1.7320508075688775E-07, 1.9502958605779093E-11, 1.3100000000000002E-13
DataValue, -1.6, 5, 0, 5.2500000000000009E-13, 4.2920000000000007E-12, -1.1480000000000002E-12, 5.2500000000000009E-13, 7.24568837309472E-07, 4.4334556600664004E-11, 1.1480000000000002E-12
DataValue, -1.55, 5, 0, 7.04E-13, -3.3350000000000002E-12, -1.1100000000000001E-13, 7.04E-13, 8.3904707853612127E-07, 3.17333571089041E-11, 1.1100000000000001E-13
DataValue, -1.5, 5, 0, 2.6000000000000003E-14, 3.442E-12, -1.529E-12, 2.6000000000000003E-14, 1.61245154965971E-07, 1.9954103983721705E-12, 1.529E-12
DataValue, -1.4500000000000002, 5, 0, 9.61E-13, -3.8400000000000003E-13, 1.174E-12, 9.61E-13, 9.8030607465219755E-07, 5.1954965283902489E-11, 1.174E-12
DataValue, -1.4000000000000001, 5, 0, -7.78E-13, 5.2830000000000008E-12, 8.3100000000000009E-13, 7.78E-13, 8.8204308284799781E-07, 2.6030373766625213E-11, 8.3100000000000009E-13
DataValue, -1.35, 5, 0, 2.2100000000000002E-13, -1.9870000000000003E-12, 1.3300000000000001E-13, 2.2100000000000002E-13, 4.7010637094172634E-07, 2.8129594167021622E-12, 1.3300000000000001E-13
DataValue, -1.3, 5, 0, 1.1020000000000002E-12, -2.264E-12, 7.8400000000000009E-13, 1.1020000000000002E-12, 1.0497618777608569E-06, 1.1885641032506167E-11, 7.8400000000000009E-13
DataValue, -1.25, 5, 0, -6.640000000000001E-13, 2.963E-12, -3.4E-13, 6.640000000000001E-13, 8.1486195149853454E-07, 1.3645104084527553E-11, 3.4E-13
DataValue, -1.2, 5, 0, 2.014E-12, -1.4190000000000001E-12, 6.170000000000001E-13, 2.014E-12, 1.4191546779685433E-06, 2.505170323872166E-12, 6.170000000000001E-13
DataValue, -1.1500000000000001, 5, 0, -9.470000000000001E-13, -8.1100000000000008E-13, -3.04E-13, 9.470000000000001E-13, 9.7313925005622914E-07, 2.4292259528175995E-11, 3.04E-13
DataValue, -1.1, 5, 0, 8.5800000000000008E-13, -9.4330000000000015E-12, 2.006E-12, 8.5800000000000008E-13, 9.2628289415275289E-07, 3.3311194276305695E-13, 2.006E-12
DataValue, -1.05, 5, 0, -8.3800000000000006E-13, 1.5903E-11, -5.58E-13, 8.3800000000000006E-13, 9.1542339930766462E-07, 4.7853481152110606E-11, 5.58E-13
DataValue, -1, 5, 0, 5.5000000000000005E-14, -3.5E-13, -1.0940000000000002E-12, 5.5000000000000005E-14, 2.3452078799117149E-07, 1.5590399224422313E-11, 1.0940000000000002E-12
DataValue, -0.95000000000000007, 5, 0, -2.71E-13, -2.03E-12, -1.4150000000000001E-12, 2.71E-13, 5.2057660339281479E-07, 3.4464302264004624E-11, 1.4150000000000001E-12
DataValue, -0.9, 5, 0, -6.7500000000000005E-13, 1.42E-13, -1.1960000000000002E-12, 6.7500000000000005E-13, 8.2158383625774918E-07, 9.65803526709826E-11, 1.1960000000000002E-12
DataValue, -0.85000000000000009, 5, 0, 2.26E-12, -6.9580000000000008E-12, 4.46E-13, 2.26E-12, 1.5033296378372909E-06, 6.64022499164413E-11, 4.46E-13
DataValue, -0.8, 5, 0, 2.678E-12, 6.626E-12, -5.9E-13, 2.678E-12, 1.6364595931461307E-06, 3.2974333248462764E-12, 5.9E-13
DataValue, -0.75, 5, 0, -1.7470000000000001E-12, -3.497E-12, -3.4580000000000004E-12, 1.7470000000000001E-12, 1.321741275741966E-06, 2.3983067261814048E-11, 3.4580000000000004E-12
DataValue, -0.70000000000000007, 5, 0, 1.3150000000000002E-12, -2.988E-12, 1.0480000000000002E-12, 1.3150000000000002E-12, 1.1467344941179715E-06, 5.9606807755513579E-12, 1.0480000000000002E-12
DataValue, -0.65, 5, 0, -2.452E-12, 2.0900000000000002E-13, -1.3510000000000002E-12, 2.452E-12, 1.5658863304850707E-06, 5.5761240470562192E-11, 1.3510000000000002E-12
DataValue, -0.6, 5, 0, -1.6000000000000003E-13, -2.9230000000000004E-12, 7.4600000000000005E-13, 1.6000000000000003E-13, 4.0000000000000003E-07, 8.2805085098348016E-12, 7.4600000000000005E-13
DataValue, -0.55, 5, 0, -3.4360000000000003E-12, -4.969E-12, -3.17E-13, 3.4360000000000003E-12, 1.8536450577173615E-06, 8.0792348693659766E-11, 3.17E-13
DataValue, -0.5, 5, 0, 1.6870000000000002E-12, -1.988E-12, 2.11E-13, 1.6870000000000002E-12, 1.2988456413292536E-06, 5.3915277389636888E-11, 2.11E-13
DataValue, -0.45, 5, 0, 1.253E-12, 1.838E-12, -3.1980000000000003E-12, 1.253E-12, 1.1193748255164577E-06, 1.9684246459840594E-10, 3.1980000000000003E-12
DataValue, -0.4, 5, 0, 7.3E-12, -2.6800000000000003E-12, -1.7290000000000002E-12, 7.3E-12, 2.7018512172212593E-06, 4.9740240699146175E-10, 1.7290000000000002E-12
DataValue, -0.35000000000000003, 5, 0, 1.1220000000000001E-11, -1.2006E-11, -1.0980000000000002E-12, 1.1220000000000001E-11, 3.3496268448888455E-06, 8.2928196517443959E-10, 1.0980000000000002E-12
DataValue, -0.3, 5, 0, 3.1154000000000006E-11, -2.8264000000000003E-11, -4.2700000000000005E-13, 3.1154000000000006E-11, 5.5815768381345437E-06, 2.2806760155213961E-09, 4.2700000000000005E-13
DataValue, -0.25, 5, 0, 6.6020000000000008E-11, -5.3748000000000004E-11, 4.3000000000000006E-14, 6.6020000000000008E-11, 8.12526922630875E-06, 3.94468685697677E-09, 4.3000000000000006E-14
DataValue, -0.2, 5, 0, 1.4071300000000002E-10, -1.2258E-10, -4.365E-12, 1.4071300000000002E-10, 1.1862251051128534E-05, 8.936966923688486E-09, 4.365E-12
DataValue, -0.15, 5, 0, 3.0901500000000004E-10, -3.0844900000000005E-10, 1.717E-12, 3.0901500000000004E-10, 1.7578822486162152E-05, 1.7506713920973451E-08, 1.717E-12
DataValue, -0.1, 5, 0, 6.2968600000000009E-10, -5.9274200000000008E-10, -4.5800000000000007E-13, 6.2968600000000009E-10, 2.5093544986709232E-05, 2.6595724624390215E-08, 4.5800000000000007E-13
DataValue, -0.05, 5, 0, 1.14833E-09, -1.07649E-09, -6.6700000000000009E-13, 1.14833E-09, 3.3887018163302591E-05, 5.4189109539761775E-08, 6.6700000000000009E-13
DataValue, 0, 5, 0, 2.33986E-09, -2.28901E-09, -2.569E-12, 2.33986E-09, 4.8372099396242868E-05, 1.0599741494067796E-07, 2.569E-12
DataValue, 0.05, 5, 0, 4.41484E-09, -4.31926E-09, 1.1880000000000002E-12, 4.41484E-09, 6.6444262355751981E-05, 1.612570387802911E-07, 1.1880000000000002E-12
DataValue, 0.1, 5, 0, 7.83737E-09, -7.67214E-09, -1.7450000000000001E-12, 7.83737E-09, 8.85289218278411E-05, 1.8930647759524568E-07, 1.7450000000000001E-12
DataValue, 0.15, 5, 0, 1.2089799999999999E-08, -1.1621399999999999E-08, 1.7980000000000002E-12, 1.2089799999999999E-08, 0.00010995362658866691, 2.9330291227664778E-07, 1.7980000000000002E-12
DataValue, 0.2, 5, 0, 2.03594E-08, -1.99818E-08, -3.19E-13, 2.03594E-08, 0.00014268636935601102, 4.8641723632130688E-07, 3.19E-13
DataValue, 0.25, 5, 0, 3.22911E-08, -3.1672499999999995E-08, 1.9500000000000003E-13, 3.22911E-08, 0.00017969724538790237, 6.0675460937643938E-07, 1.9500000000000003E-13
DataValue, 0.3, 5, 0, 4.86559E-08, -4.7833199999999993E-08, -2.235E-12, 4.86559E-08, 0.00022058082418923, 7.2478659351388366E-07, 2.235E-12
DataValue, 0.35000000000000003, 5, 0, 7.0135799999999989E-08, -6.8975E-08, 2.322E-12, 7.0135799999999989E-08, 0.00026483164463485096, 8.6769432699565645E-07, 2.322E-12
DataValue, 0.4, 5, 0, 9.8427099999999991E-08, -9.6943999999999985E-08, 4.67E-13, 9.8427099999999991E-08, 0.00031373093567577934, 8.6834656108586779E-07, 4.67E-13
DataValue, 0.45, 5, 0, 1.28176E-07, -1.24357E-07, 1.23E-13, 1.28176E-07, 0.00035801675938425004, 9.7196165268090415E-07, 1.23E-13
DataValue, 0.5, 5, 0, 1.70007E-07, -1.67854E-07, 1.446E-12, 1.70007E-07, 0.00041231905122125995, 1.2472649287020655E-06, 1.446E-12
DataValue, 0.55, 5, 0, 2.20616E-07, -2.17754E-07, 7.1E-14, 2.20616E-07, 0.00046969777517037487, 1.3569697025846244E-06, 7.1E-14
DataValue, 0.6, 5, 0, 2.79638E-07, -2.7619E-07, 3.0000000000000005E-14, 2.79638E-07, 0.00052880809373533609, 1.4334236520778268E-06, 3.0000000000000005E-14
DataValue, 0.65, 5, 0, 3.4741999999999997E-07, -3.43579E-07, -9.69E-13, 3.4741999999999997E-07, 0.00058942344710742546, 1.5235621396990026E-06, 9.69E-13
DataValue, 0.70000000000000007, 5, 0, 4.25418E-07, -4.21151E-07, -6.0000000000000009E-14, 4.25418E-07, 0.00065224075309658477, 1.6312803795604548E-06, 6.0000000000000009E-14
DataValue, 0.75, 5, 0, 5.14297E-07, -5.09066E-07, -2.23E-13, 5.14297E-07, 0.00071714503414581354, 1.7223419921537012E-06, 2.23E-13
DataValue, 0.8, 5, 0, 6.13839E-07, -6.07855E-07, -5.9E-14, 6.13839E-07, 0.00078347878082306733, 1.8572831013473356E-06, 5.9E-14
DataValue, 0.85000000000000009, 5, 0, 7.28338E-07, -7.21582E-07, -1.558E-12, 7.28338E-07, 0.00085342720837807838, 1.9615608615742233E-06, 1.558E-12
DataValue, 0.9, 5, 0, 8.5291599999999993E-07, -8.46091E-07, -2.5100000000000004E-13, 8.5291599999999993E-07, 0.00092353451478545184, 2.0770800800108472E-06, 2.5100000000000004E-13
DataValue, 0.95000000000000007, 5, 0, 9.95102E-07, -9.87269E-07, 2.0900000000000002E-13, 9.95102E-07, 0.00099754799383287829, 1.9883154629070203E-06, 2.0900000000000002E-13
DataValue, 1, 5, 0, 1.1332500000000001E-06, -1.126991E-06, 1.65E-13, 1.1332500000000001E-06, 0.0010645421551070677, 2.2575031784082719E-06, 1.65E-13
DataValue, 1.05, 5, 0, 1.3174400000000001E-06, -1.2967000000000002E-06, -1.48E-13, 1.3174400000000001E-06, 0.0011477978916168126, 2.5202380496384374E-06, 1.48E-13
DataValue, 1.1, 5, 0, 1.49645E-06, -1.4860100000000001E-06, -2.05E-13, 1.49645E-06, 0.0012232947314527272, 2.4830075435242703E-06, 2.05E-13
DataValue, 1.1500000000000001, 5, 0, 1.7040000000000001E-06, -1.69233E-06, -1.86E-12, 1.7040000000000001E-06, 0.0013053735097664576, 2.7542875838977922E-06, 1.86E-12
DataValue, 1.2, 5, 0, 1.93003E-06, -1.92104E-06, -1.6890000000000002E-12, 1.93003E-06, 0.0013892551961392839, 2.9352430959267671E-06, 1.6890000000000002E-12
DataValue, 1.25, 5, 0, 2.18064E-06, -2.1680300000000002E-06, -1.23E-13, 2.18064E-06, 0.0014766990214664598, 3.0555190142891029E-06, 1.23E-13
DataValue, 1.3, 5, 0, 2.4462700000000002E-06, -2.4303300000000002E-06, -2.1600000000000001E-13, 2.4462700000000002E-06, 0.0015640556256092686, 3.0929791761005396E-06, 2.1600000000000001E-13
DataValue, 1.35, 5, 0, 2.73098E-06, -2.7157100000000004E-06, -6.9000000000000009E-14, 2.73098E-06, 0.0016525676990671214, 3.174044504060643E-06, 6.9000000000000009E-14
DataValue, 1.4000000000000001, 5, 0, 3.0353100000000003E-06, -3.02047E-06, -8.290000000000001E-13, 3.0353100000000003E-06, 0.0017422141085411977, 3.2301415493611554E-06, 8.290000000000001E-13
DataValue, 1.4500000000000002, 5, 0, 3.3573000000000004E-06, -3.3410400000000005E-06, 2.2E-14, 3.3573000000000004E-06, 0.0018322936445886616, 3.2382483685036537E-06, 2.2E-14
DataValue, 1.5, 5, 0, 3.6947200000000005E-06, -3.6775300000000003E-06, -1.7810000000000002E-12, 3.6947200000000005E-06, 0.00192216544553272, 3.2646797829814397E-06, 1.7810000000000002E-12
DataValue, 1.55, 5, 0, 4.05208E-06, -4.0344700000000005E-06, 6.28E-13, 4.05208E-06, 0.0020129778935696237, 3.2867373173127893E-06, 6.28E-13
DataValue, 1.6, 5, 0, 4.4245400000000008E-06, -4.40541E-06, -8.23E-13, 4.4245400000000008E-06, 0.0021034590559361977, 3.3785526269313034E-06, 8.23E-13
DataValue, 1.6500000000000001, 5, 0, 4.82587E-06, -4.80622E-06, 1E-13, 4.82587E-06, 0.0021967862891050646, 3.4505650815993367E-06, 1E-13
DataValue, 1.7000000000000002, 5, 0, 5.2405100000000008E-06, -5.2175300000000008E-06, -3.0720000000000002E-12, 5.2405100000000008E-06, 0.0022892160230087505, 3.5146726642498149E-06, 3.0720000000000002E-12
DataValue, 1.75, 5, 0, 5.6847000000000008E-06, -5.6626000000000006E-06, -4.4000000000000004E-13, 5.6847000000000008E-06, 0.002384260891764993, 3.5773285050770931E-06, 4.4000000000000004E-13
DataValue, 1.8, 5, 0, 6.1422400000000005E-06, -6.120670000000001E-06, 1.17E-12, 6.1422400000000005E-06, 0.002478354292670844, 3.6550105141661836E-06, 1.17E-12
DataValue, 1.85, 5, 0, 6.6329000000000005E-06, -6.6087100000000006E-06, 7.2000000000000009E-14, 6.6329000000000005E-06, 0.0025754417096878744, 3.8131332714392481E-06, 7.2000000000000009E-14
DataValue, 1.9000000000000001, 5, 0, 7.148280000000001E-06, -7.1197500000000007E-06, -1.5610000000000001E-12, 7.148280000000001E-06, 0.00267362675031501, 3.8235917327004287E-06, 1.5610000000000001E-12
DataValue, 1.9500000000000002, 5, 0, 7.67834E-06, -7.6498000000000009E-06, 6.16E-13, 7.67834E-06, 0.0027709817754723687, 3.821832104465492E-06, 6.16E-13
DataValue, 2, 5, 0, 8.23186E-06, -8.20646E-06, -1.3200000000000002E-13, 8.23186E-06, 0.0028691218168631323, 3.909651310963975E-06, 1.3200000000000002E-13
DataValue, 2.05, 5, 0, 8.8132400000000017E-06, -8.78164E-06, 1.963E-12, 8.8132400000000017E-06, 0.0029687101576273832, 4.0272907271654106E-06, 1.963E-12
DataValue, 2.1, 5, 0, 9.42369E-06, -9.3937500000000013E-06, -5.4900000000000008E-13, 9.42369E-06, 0.0030698029252706109, 4.102388465588271E-06, 5.4900000000000008E-13
DataValue, 2.15, 5, 0, 1.0056850000000002E-05, -1.0028050000000001E-05, 8.42E-13, 1.0056850000000002E-05, 0.0031712536953072677, 4.0782123339543935E-06, 8.42E-13
DataValue, 2.2, 5, 0, 1.0704340000000001E-05, -1.0670440000000002E-05, 5.83E-13, 1.0704340000000001E-05, 0.0032717487678610045, 3.9376337144192342E-06, 5.83E-13
DataValue, 2.25, 5, 0, 1.13548E-05, -1.1322340000000001E-05, -2.4670000000000003E-12, 1.13548E-05, 0.0033696884128951747, 4.1491103058085584E-06, 2.4670000000000003E-12
