
SetupTitle, Transfer stab
PrimitiveTest, I/V Sweep
TestParameter, Context.MainFrame, 4155C
TestParameter, Channel.UnitType, SMU, SMU, SMU
TestParameter, Channel.Unit, SMU1:MP, SMU4:MP, SMU3:MP
TestParameter, Channel.IName, ID, IS, IG
TestParameter, Channel.VName, VD, VS, VG
TestParameter, Channel.Mode, V, COMMON, V
TestParameter, Channel.Func, CONST, CONST, VAR1
TestParameter, Channel.Index, 
TestParameter, Channel.Time, 
TestParameter, Measurement.Port.Unit, SMU1:MP, SMU4:MP, SMU3:MP
TestParameter, Measurement.Port.SeriesResistor, NONE, NONE, NONE
TestParameter, Measurement.Port.Filter, ON, ON, ON
TestParameter, Measurement.Primary.Locus, Single
TestParameter, Measurement.Primary.Scale, LINEAR
TestParameter, Measurement.Primary.Start, -2
TestParameter, Measurement.Primary.Stop, 3
TestParameter, Measurement.Primary.Step, 0.05
TestParameter, Measurement.Primary.Compliance, 0.1
TestParameter, Measurement.Primary.PowerCompliance, 0
TestParameter, Measurement.Aborting.Condition, CONTINUE AT ANY
TestParameter, Measurement.PostOutput.Value, START
TestParameter, Measurement.PostOutput.Retention, OFF
TestParameter, Measurement.Bias.Source, 3, 0, -2
TestParameter, Measurement.Bias.Compliance, 0.1, 0.1, 0.1
TestParameter, Measurement.Monitor.Unit, SMU1:MP, SMU4:MP, SMU3:MP
TestParameter, Measurement.Monitor.Adc, HR ADC, HR ADC, HR ADC
TestParameter, Measurement.Monitor.RangingMode, AUTO, AUTO, AUTO
TestParameter, Measurement.Monitor.RangeBoundary, , , 
TestParameter, Measurement.Monitor.RangeRating, BY FULL RANGE, BY FULL RANGE, BY FULL RANGE
TestParameter, Measurement.Monitor.RangeRatingCoeff, 50, 50, 50
TestParameter, Measurement.Timing.Hold, 0.5
TestParameter, Measurement.Timing.Delay, 0.05
TestParameter, Measurement.Adc.HighResolution.AutoZero, OFF
TestParameter, Measurement.Adc.HighResolution.Mode, AUTO
TestParameter, Measurement.Adc.HighResolution.Coeff, 1
TestParameter, Measurement.Ag16440ASelector.SemiconductorRelay.Channel1, DEFAULT
TestParameter, Measurement.Ag16440ASelector.SemiconductorRelay.Channel3, DEFAULT
TestParameter, Function.User.Name, absID, sqrtID, gm2, absIG
TestParameter, Function.User.Unit, A, A, A/V, A
TestParameter, Function.User.Definition, abs(ID), sqrt(abs(ID)), (delta(sqrtID)/delta(VG))^2, abs(IG)
TestParameter, Output.Graph.Enabled, true
TestParameter, Output.Graph.XAxis.Data, VG
TestParameter, Output.Graph.XAxis.Scale, Linear
TestParameter, Output.Graph.XAxis.Left, -5
TestParameter, Output.Graph.XAxis.Right, 7
TestParameter, Output.Graph.YAxis.Data, ID, absIG, gm2
TestParameter, Output.Graph.YAxis.Scale, Log, Log, Linear
TestParameter, Output.Graph.YAxis.Bottom, 1E-14, 1E-14, 0
TestParameter, Output.Graph.YAxis.Top, 0.01, 0.01, 1E-05
TestParameter, Output.Graph.YAxis.Group, , , 
TestParameter, Output.List.Data, VG, IG, VD, ID, VS, IS, sqrtID, gm2, absIG
TestParameter, AutoAnalysis.Interpolation, false
TestParameter, AutoAnalysis.Line1.Enabled, false
TestParameter, AutoAnalysis.Line1.Type, 1
TestParameter, AutoAnalysis.Line1.Fix, True
TestParameter, AutoAnalysis.Line1.YAxis, 0
TestParameter, AutoAnalysis.Line1.Point1.Type, 0
TestParameter, AutoAnalysis.Line1.Point1.XY.X, 
TestParameter, AutoAnalysis.Line1.Point1.XY.Y, 
TestParameter, AutoAnalysis.Line1.Point1.Data.Var, 
TestParameter, AutoAnalysis.Line1.Point1.Data.Condition, 
TestParameter, AutoAnalysis.Line1.Point1.Data.Start, false
TestParameter, AutoAnalysis.Line1.Point1.Data.StartVar, 
TestParameter, AutoAnalysis.Line1.Point1.Data.StartCondition, 
TestParameter, AutoAnalysis.Line1.Point2.Type, 0
TestParameter, AutoAnalysis.Line1.Point2.XY.X, 
TestParameter, AutoAnalysis.Line1.Point2.XY.Y, 
TestParameter, AutoAnalysis.Line1.Point2.Data.Var, 
TestParameter, AutoAnalysis.Line1.Point2.Data.Condition, 
TestParameter, AutoAnalysis.Line1.Point2.Data.Start, false
TestParameter, AutoAnalysis.Line1.Point2.Data.StartVar, 
TestParameter, AutoAnalysis.Line1.Point2.Data.StartCondition, 
TestParameter, AutoAnalysis.Line1.GradientExpr, 0
TestParameter, AutoAnalysis.Line2.Enabled, false
TestParameter, AutoAnalysis.Line2.Type, 1
TestParameter, AutoAnalysis.Line2.Fix, True
TestParameter, AutoAnalysis.Line2.YAxis, 0
TestParameter, AutoAnalysis.Line2.Point1.Type, 0
TestParameter, AutoAnalysis.Line2.Point1.XY.X, 
TestParameter, AutoAnalysis.Line2.Point1.XY.Y, 
TestParameter, AutoAnalysis.Line2.Point1.Data.Var, 
TestParameter, AutoAnalysis.Line2.Point1.Data.Condition, 
TestParameter, AutoAnalysis.Line2.Point1.Data.Start, false
TestParameter, AutoAnalysis.Line2.Point1.Data.StartVar, 
TestParameter, AutoAnalysis.Line2.Point1.Data.StartCondition, 
TestParameter, AutoAnalysis.Line2.Point2.Type, 0
TestParameter, AutoAnalysis.Line2.Point2.XY.X, 
TestParameter, AutoAnalysis.Line2.Point2.XY.Y, 
TestParameter, AutoAnalysis.Line2.Point2.Data.Var, 
TestParameter, AutoAnalysis.Line2.Point2.Data.Condition, 
TestParameter, AutoAnalysis.Line2.Point2.Data.Start, false
TestParameter, AutoAnalysis.Line2.Point2.Data.StartVar, 
TestParameter, AutoAnalysis.Line2.Point2.Data.StartCondition, 
TestParameter, AutoAnalysis.Line2.GradientExpr, 0
TestParameter, AutoAnalysis.Marker.Enabled, false
TestParameter, AutoAnalysis.Marker.Data.Var, 
TestParameter, AutoAnalysis.Marker.Data.Condition, 
TestParameter, AutoAnalysis.Marker.Data.Start, false
TestParameter, AutoAnalysis.Marker.Data.StartVar, 
TestParameter, AutoAnalysis.Marker.Data.StartCondition, 
MetaData, TestRecord.EntryPoint, true
MetaData, TestRecord.RecordTime, 04/24/2019 16:48:11
MetaData, TestRecord.TestTarget, 44
MetaData, TestRecord.IterationIndex, 5
MetaData, TestRecord.Preservation, true
MetaData, TestRecord.Flag, 
MetaData, TestRecord.Remarks, 350-180-G44
MetaData, TestRecord.LinkKey, 2938843d-1a5e-473a-ae01-44bcc5ca4d7a
Dimension1, 101, 101, 101, 101, 101, 101, 101, 101, 101, 101
Dimension2, 1, 1, 1, 1, 1, 1, 1, 1, 1, 1
DataName, VG, VD, VS, ID, IS, IG, absID, sqrtID, gm2, absIG
DataValue, -2, 3, 0, 7.5344799999999993E-08, -4.0660000000000006E-12, -8.8371399999999986E-08, 7.5344799999999993E-08, 0.00027449007268023375, 1.0949642558486691E-06, 8.8371399999999986E-08
DataValue, -1.9500000000000002, 3, 0, 1.06805E-07, 4.7900000000000008E-13, -1.19942E-07, 1.06805E-07, 0.00032681034255359787, 2.790455318686192E-07, 1.19942E-07
DataValue, -1.9000000000000001, 3, 0, 1.07135E-07, -6.09E-13, -4.2939399999999993E-08, 1.07135E-07, 0.00032731483314998112, 8.66833670954134E-07, 4.2939399999999993E-08
DataValue, -1.85, 3, 0, 5.46187E-08, 1.8870000000000003E-12, -9.2255199999999986E-08, 5.46187E-08, 0.00023370643979146144, 4.7303881585441337E-08, 9.2255199999999986E-08
DataValue, -1.8, 3, 0, 9.3370199999999993E-08, 1.73E-12, -8.3648099999999988E-08, 9.3370199999999993E-08, 0.00030556537761991292, 1.4564858379304606E-07, 8.3648099999999988E-08
DataValue, -1.75, 3, 0, 7.39135E-08, -1.5660000000000002E-12, -8.32743E-08, 7.39135E-08, 0.00027187037352385416, 1.5180977230168208E-08, 8.32743E-08
DataValue, -1.7000000000000002, 3, 0, 8.5992199999999991E-08, -3.9100000000000005E-13, -8.2959899999999991E-08, 8.5992199999999991E-08, 0.00029324426678112563, 1.5188442190204634E-07, 8.2959899999999991E-08
DataValue, -1.6500000000000001, 3, 0, 9.6623199999999989E-08, 1.454E-12, -8.74251E-08, 9.6623199999999989E-08, 0.00031084272550600247, 5.839518780037837E-08, 8.74251E-08
DataValue, -1.6, 3, 0, 7.24036E-08, -2.1290000000000003E-12, -6.621919999999999E-08, 7.24036E-08, 0.00026907917050563389, 2.4202857072998872E-07, 6.621919999999999E-08
DataValue, -1.55, 3, 0, 6.84588E-08, -2.6670000000000002E-12, -7.8123499999999991E-08, 6.84588E-08, 0.00026164632617332883, 1.8253153058793173E-10, 7.8123499999999991E-08
DataValue, -1.5, 3, 0, 7.31325E-08, 7.9300000000000005E-13, -6.956479999999999E-08, 7.31325E-08, 0.000270430212809146, 4.4744412580184521E-08, 6.956479999999999E-08
DataValue, -1.4500000000000002, 3, 0, 5.7837099999999996E-08, 3.7300000000000003E-13, -5.4478499999999994E-08, 5.7837099999999996E-08, 0.00024049345105428546, 1.7704167712767576E-07, 5.4478499999999994E-08
DataValue, -1.4000000000000001, 3, 0, 5.2145499999999995E-08, -1.908E-12, -5.1956399999999994E-08, 5.2145499999999995E-08, 0.00022835389201850709, 1.7468822854697118E-08, 5.1956399999999994E-08
DataValue, -1.35, 3, 0, 5.1654599999999993E-08, 3.1000000000000004E-13, -4.7141299999999995E-08, 5.1654599999999993E-08, 0.00022727648360532156, 7.0862593788324793E-09, 4.7141299999999995E-08
DataValue, -1.3, 3, 0, 4.8371799999999994E-08, 1.009E-12, -4.8339299999999997E-08, 4.8371799999999994E-08, 0.00021993589975263247, 1.8430756592183716E-08, 4.8339299999999997E-08
DataValue, -1.25, 3, 0, 4.56679E-08, -4.7900000000000008E-13, -4.37631E-08, 4.56679E-08, 0.00021370049134243935, 8.8057598703185608E-08, 4.37631E-08
DataValue, -1.2, 3, 0, 3.6199399999999994E-08, 2.5E-14, -3.88791E-08, 3.6199399999999994E-08, 0.00019026139913287717, 3.8470557232565577E-08, 3.88791E-08
DataValue, -1.1500000000000001, 3, 0, 3.76696E-08, 1.312E-12, -4.03273E-08, 3.76696E-08, 0.00019408657861892458, 1.3331933044872193E-10, 4.03273E-08
DataValue, -1.1, 3, 0, 3.6640099999999995E-08, -1.7E-13, -3.84483E-08, 3.6640099999999995E-08, 0.00019141603903539536, 3.4125348504520958E-11, 3.84483E-08
DataValue, -1.05, 3, 0, 3.7896699999999995E-08, 6.7E-14, -3.61022E-08, 3.7896699999999995E-08, 0.00019467074767411769, 8.450066912295563E-13, 3.61022E-08
DataValue, -1, 3, 0, 3.66753E-08, 1.3960000000000001E-12, -3.4938899999999994E-08, 3.66753E-08, 0.0001915079632809038, 1.4713853213409163E-08, 3.4938899999999994E-08
DataValue, -0.95000000000000007, 3, 0, 3.3321099999999997E-08, 2.6200000000000004E-13, -3.60256E-08, 3.3321099999999997E-08, 0.00018254068039754863, 8.2843182530933077E-09, 3.60256E-08
DataValue, -0.9, 3, 0, 3.3271999999999995E-08, -8.47E-13, -3.13669E-08, 3.3271999999999995E-08, 0.00018240614024752564, 1.9676176345564356E-08, 3.13669E-08
DataValue, -0.85000000000000009, 3, 0, 2.83968E-08, -3.6000000000000004E-14, -3.0188899999999994E-08, 2.83968E-08, 0.0001685135009428028, 1.597578641705409E-08, 3.0188899999999994E-08
DataValue, -0.8, 3, 0, 2.8820699999999997E-08, -3.6100000000000003E-13, -3.1659899999999995E-08, 2.8820699999999997E-08, 0.00016976660448981125, 1.8639877536026075E-10, 3.1659899999999995E-08
DataValue, -0.75, 3, 0, 2.8858799999999996E-08, -1.5050000000000002E-12, -2.884E-08, 2.8858799999999996E-08, 0.00016987878031113831, 2.3980207564589188E-09, 2.884E-08
DataValue, -0.70000000000000007, 3, 0, 2.7181999999999998E-08, -4.1500000000000005E-13, -3.1127299999999994E-08, 2.7181999999999998E-08, 0.00016486964547787443, 7.74790832246513E-09, 3.1127299999999994E-08
DataValue, -0.65, 3, 0, 3.19269E-08, 2.45E-13, -3.35316E-08, 3.19269E-08, 0.00017868100066878963, 6.8620592257042855E-09, 3.35316E-08
DataValue, -0.6, 3, 0, 2.9982099999999996E-08, -6.34E-13, -3.00644E-08, 2.9982099999999996E-08, 0.00017315340019762821, 3.0726228625847737E-08, 3.00644E-08
DataValue, -0.55, 3, 0, 2.5969999999999997E-08, 8.1100000000000008E-13, -2.6680099999999997E-08, 2.5969999999999997E-08, 0.00016115210206509871, 1.8149052927088528E-08, 2.6680099999999997E-08
DataValue, -0.5, 3, 0, 2.54982E-08, -4.368E-12, -2.5239199999999996E-08, 2.54982E-08, 0.00015968155810863069, 5.5402513070045929E-09, 2.5239199999999996E-08
DataValue, -0.45, 3, 0, 2.3626399999999998E-08, 9.8E-13, -2.4522399999999998E-08, 2.3626399999999998E-08, 0.00015370881562226676, 7.1457501152316191E-09, 2.4522399999999998E-08
DataValue, -0.4, 3, 0, 2.287E-08, -4.94E-13, -2.3601899999999996E-08, 2.287E-08, 0.0001512283042290695, 7.9757572935227028E-09, 2.3601899999999996E-08
DataValue, -0.35000000000000003, 3, 0, 2.09607E-08, 1.1670000000000002E-12, -2.1439599999999997E-08, 2.09607E-08, 0.00014477810607961412, 3.7076660719717384E-09, 2.1439599999999997E-08
DataValue, -0.3, 3, 0, 2.10654E-08, 6.35E-12, -2.06479E-08, 2.10654E-08, 0.00014513924348707346, 3.9885233848282094E-09, 2.06479E-08
DataValue, -0.25, 3, 0, 1.91719E-08, -1.0410000000000001E-11, -2.0271499999999997E-08, 1.91719E-08, 0.00013846263033757519, 1.8929022421537314E-09, 2.0271499999999997E-08
DataValue, -0.2, 3, 0, 1.9821399999999998E-08, -3.5711E-11, -2.0102499999999998E-08, 1.9821399999999998E-08, 0.00014078849384804144, 2.4242836955473874E-10, 2.0102499999999998E-08
DataValue, -0.15, 3, 0, 1.96055E-08, -4.8311E-11, -1.93718E-08, 1.96055E-08, 0.00014001964147932961, 3.469662543914822E-09, 1.93718E-08
DataValue, -0.1, 3, 0, 1.8197499999999998E-08, -1.34955E-10, -1.5552999999999997E-08, 1.8197499999999998E-08, 0.00013489810969765292, 4.019381390353011E-08, 1.5552999999999997E-08
DataValue, -0.05, 3, 0, 1.4393099999999999E-08, -3.2277E-10, -1.4286599999999999E-08, 1.4393099999999999E-08, 0.00011997124655516421, 2.8580394563681492E-08, 1.4286599999999999E-08
DataValue, 0, 3, 0, 1.3922199999999998E-08, -7.01372E-10, -1.2818099999999998E-08, 1.3922199999999998E-08, 0.00011799237263484448, 4.986374290635945E-09, 1.2818099999999998E-08
DataValue, 0.05, 3, 0, 1.6137299999999997E-08, -1.33045E-09, -1.3711E-08, 1.6137299999999997E-08, 0.00012703267296250992, 4.9438126937530875E-09, 1.3711E-08
DataValue, 0.1, 3, 0, 1.5630899999999997E-08, -2.79744E-09, -1.24665E-08, 1.5630899999999997E-08, 0.0001250235977725805, 6.6503607500225655E-09, 1.24665E-08
DataValue, 0.15, 3, 0, 1.8275699999999998E-08, -5.01231E-09, -1.17444E-08, 1.8275699999999998E-08, 0.00013518764736469082, 1.1835135369263879E-08, 1.17444E-08
DataValue, 0.2, 3, 0, 1.84695E-08, -8.085E-09, -9.96072E-09, 1.84695E-08, 0.00013590253860763603, 1.0371975067281627E-08, 9.96072E-09
DataValue, 0.25, 3, 0, 2.1132999999999998E-08, -1.07897E-08, -1.019902E-08, 2.1132999999999998E-08, 0.00014537193676910271, 6.3732111651437724E-08, 1.019902E-08
DataValue, 0.3, 3, 0, 2.5968599999999997E-08, -1.5682599999999997E-08, -1.019784E-08, 2.5968599999999997E-08, 0.00016114775828412879, 1.0593898842443164E-07, 1.019784E-08
DataValue, 0.35000000000000003, 3, 0, 3.1655599999999994E-08, -2.14244E-08, -9.48921E-09, 3.1655599999999994E-08, 0.00017792020683441212, 1.0740593054979135E-07, 9.48921E-09
DataValue, 0.4, 3, 0, 3.7605199999999996E-08, -2.7892099999999998E-08, -8.89288E-09, 3.7605199999999996E-08, 0.00019392060230929563, 1.324747528298588E-07, 8.89288E-09
DataValue, 0.45, 3, 0, 4.59319E-08, -3.5212199999999996E-08, -9.31622E-09, 4.59319E-08, 0.00021431728815006967, 1.5168487047773172E-07, 9.31622E-09
DataValue, 0.5, 3, 0, 5.42272E-08, -4.3760199999999994E-08, -8.29214E-09, 5.42272E-08, 0.00023286734421124831, 1.2284400378137431E-07, 8.29214E-09
DataValue, 0.55, 3, 0, 6.2183599999999988E-08, -5.3114099999999994E-08, -7.95938E-09, 6.2183599999999988E-08, 0.00024936639709471681, 1.4237588905054677E-07, 7.95938E-09
DataValue, 0.6, 3, 0, 7.322439999999999E-08, -6.3957E-08, -7.85118E-09, 7.322439999999999E-08, 0.00027060007390981991, 1.2146377168761896E-07, 7.85118E-09
DataValue, 0.65, 3, 0, 8.07799E-08, -7.2310199999999988E-08, -6.85858E-09, 8.07799E-08, 0.0002842180500953449, 8.9276718436138729E-08, 6.85858E-09
DataValue, 0.70000000000000007, 3, 0, 9.02878E-08, -8.3373299999999991E-08, -5.57713E-09, 9.02878E-08, 0.00030047928381171304, 1.4768929821980057E-07, 5.57713E-09
DataValue, 0.75, 3, 0, 1.04102E-07, -9.62758E-08, -6.13288E-09, 1.04102E-07, 0.00032264841546178404, 2.7807816155209445E-07, 6.13288E-09
DataValue, 0.8, 3, 0, 1.2475899999999999E-07, -1.12531E-07, -5.99405E-09, 1.2475899999999999E-07, 0.00035321240068831103, 3.2461599951536788E-07, 5.99405E-09
DataValue, 0.85000000000000009, 3, 0, 1.44114E-07, -1.35914E-07, -5.38044E-09, 1.44114E-07, 0.00037962349769212123, 3.3180644636714037E-07, 5.38044E-09
DataValue, 0.9, 3, 0, 1.68769E-07, -1.60225E-07, -4.85319E-09, 1.68769E-07, 0.00041081504354149444, 4.1007897331203032E-07, 4.85319E-09
DataValue, 0.95000000000000007, 3, 0, 1.96835E-07, -1.87793E-07, -4.46523E-09, 1.96835E-07, 0.00044366090654913466, 4.4602639694984086E-07, 4.46523E-09
DataValue, 1, 3, 0, 2.2810199999999999E-07, -2.1897099999999998E-07, -4.13135E-09, 2.2810199999999999E-07, 0.00047760025125621528, 4.7328787325821316E-07, 4.13135E-09
DataValue, 1.05, 3, 0, 2.62612E-07, -2.53567E-07, -3.82712E-09, 2.62612E-07, 0.00051245682744988379, 5.2326441577447411E-07, 3.82712E-09
DataValue, 1.1, 3, 0, 3.02431E-07, -2.90784E-07, -3.77101E-09, 3.02431E-07, 0.000549937269149855, 6.0922898011671629E-07, 3.77101E-09
DataValue, 1.1500000000000001, 3, 0, 3.48702E-07, -3.36761E-07, -3.41587E-09, 3.48702E-07, 0.00059050994911178257, 6.5543465371585119E-07, 3.41587E-09
DataValue, 1.2, 3, 0, 3.9802999999999997E-07, -3.85836E-07, -3.22607E-09, 3.9802999999999997E-07, 0.00063089618797390113, 6.9961267841364672E-07, 3.22607E-09
DataValue, 1.25, 3, 0, 4.54482E-07, -4.41698E-07, -3.21842E-09, 4.54482E-07, 0.00067415280167036314, 8.1711334776099548E-07, 3.21842E-09
DataValue, 1.3, 3, 0, 5.2026E-07, -5.04608E-07, -3.06695E-09, 5.2026E-07, 0.00072129051012750748, 8.8638309727680156E-07, 3.06695E-09
DataValue, 1.35, 3, 0, 5.90286E-07, -5.7566899999999994E-07, -2.95748E-09, 5.90286E-07, 0.00076830072237373307, 9.5814115202450654E-07, 2.95748E-09
DataValue, 1.4000000000000001, 3, 0, 6.71048E-07, -6.54463E-07, -2.88072E-09, 6.71048E-07, 0.000819175194936956, 1.0868927158595276E-06, 2.88072E-09
DataValue, 1.4500000000000002, 3, 0, 7.61352E-07, -7.44541E-07, -2.68548E-09, 7.61352E-07, 0.00087255486933487459, 1.1441550415200497E-06, 2.68548E-09
DataValue, 1.5, 3, 0, 8.57736E-07, -8.38062E-07, -2.48741E-09, 8.57736E-07, 0.00092614037812849953, 7.4955820945801582E-07, 2.48741E-09
DataValue, 1.55, 3, 0, 9.19934E-07, -9.07495E-07, -2.08698E-09, 9.19934E-07, 0.00095913189916715827, 7.2422538503105928E-07, 2.08698E-09
DataValue, 1.6, 3, 0, 1.02261E-06, -1.004962E-06, -2.00496E-09, 1.02261E-06, 0.0010112418108444686, 1.4026802823298729E-06, 2.00496E-09
DataValue, 1.6500000000000001, 3, 0, 1.16115E-06, -1.12501E-06, -2.06519E-09, 1.16115E-06, 0.0010775667032717742, 1.7203875874274485E-06, 2.06519E-09
DataValue, 1.7000000000000002, 3, 0, 1.3050900000000002E-06, -1.2840100000000002E-06, -1.72966E-09, 1.3050900000000002E-06, 0.0011424053571302965, 1.8541507707563696E-06, 1.72966E-09
DataValue, 1.75, 3, 0, 1.4731500000000002E-06, -1.45171E-06, -1.56374E-09, 1.4731500000000002E-06, 0.0012137339082352442, 1.97965604543228E-06, 1.56374E-09
DataValue, 1.8, 3, 0, 1.6463600000000002E-06, -1.6211500000000001E-06, -1.46174E-09, 1.6463600000000002E-06, 0.0012831056075008013, 2.0554849381136115E-06, 1.46174E-09
DataValue, 1.85, 3, 0, 1.8417300000000003E-06, -1.81258E-06, -1.4524999999999999E-09, 1.8417300000000003E-06, 0.0013571035332648723, 2.1430268469283763E-06, 1.4524999999999999E-09
DataValue, 1.9000000000000001, 3, 0, 2.04346E-06, -2.01299E-06, -9.5395E-10, 2.04346E-06, 0.0014294964148258646, 2.1257734072834827E-06, 9.5395E-10
DataValue, 1.9500000000000002, 3, 0, 2.25872E-06, -2.2308500000000004E-06, -9.52822E-10, 2.25872E-06, 0.0015029038558736884, 1.4286430598642089E-06, 9.52822E-10
DataValue, 2, 3, 0, 2.39947E-06, -2.37135E-06, -1.01054E-09, 2.39947E-06, 0.0015490222722737074, 1.2757445017493399E-06, 1.01054E-09
DataValue, 2.05, 3, 0, 2.6109800000000004E-06, -2.58087E-06, -8.2925000000000011E-10, 2.6109800000000004E-06, 0.0016158527160604708, 1.6171409739624582E-06, 8.2925000000000011E-10
DataValue, 2.1, 3, 0, 2.8096100000000004E-06, -2.77629E-06, -7.7745400000000007E-10, 2.8096100000000004E-06, 0.0016761891301401524, 1.3699903896633405E-06, 7.7745400000000007E-10
DataValue, 2.15, 3, 0, 3.0029400000000003E-06, -2.9724900000000005E-06, -6.6391500000000008E-10, 3.0029400000000003E-06, 0.0017328993046337113, 1.4322240641435292E-06, 6.6391500000000008E-10
DataValue, 2.2, 3, 0, 3.2251300000000002E-06, -3.1944600000000002E-06, -7.252E-10, 3.2251300000000002E-06, 0.0017958646942350641, 1.6512431470997228E-06, 7.252E-10
DataValue, 2.25, 3, 0, 3.4648100000000005E-06, -3.4358500000000003E-06, -6.82241E-10, 3.4648100000000005E-06, 0.001861400010744601, 1.8197150309824274E-06, 6.82241E-10
