
SetupTitle, Transfer stab
PrimitiveTest, I/V Sweep
TestParameter, Context.MainFrame, 4155C
TestParameter, Channel.UnitType, SMU, SMU, SMU
TestParameter, Channel.Unit, SMU3:MP, SMU1:MP, SMU4:MP
TestParameter, Channel.IName, ID, IS, IG
TestParameter, Channel.VName, VD, VS, VG
TestParameter, Channel.Mode, V, COMMON, V
TestParameter, Channel.Func, CONST, CONST, VAR1
TestParameter, Channel.Index, 
TestParameter, Channel.Time, 
TestParameter, Measurement.Port.Unit, SMU3:MP, SMU1:MP, SMU4:MP
TestParameter, Measurement.Port.SeriesResistor, NONE, NONE, NONE
TestParameter, Measurement.Port.Filter, ON, ON, ON
TestParameter, Measurement.Primary.Locus, Single
TestParameter, Measurement.Primary.Scale, LINEAR
TestParameter, Measurement.Primary.Start, -2
TestParameter, Measurement.Primary.Stop, 3
TestParameter, Measurement.Primary.Step, 0.05
TestParameter, Measurement.Primary.Compliance, 0.1
TestParameter, Measurement.Primary.PowerCompliance, 0
TestParameter, Measurement.Aborting.Condition, CONTINUE AT ANY
TestParameter, Measurement.PostOutput.Value, START
TestParameter, Measurement.PostOutput.Retention, OFF
TestParameter, Measurement.Bias.Source, 3, 0, -2
TestParameter, Measurement.Bias.Compliance, 0.1, 0.1, 0.1
TestParameter, Measurement.Monitor.Unit, SMU3:MP, SMU1:MP, SMU4:MP
TestParameter, Measurement.Monitor.Adc, HR ADC, HR ADC, HR ADC
TestParameter, Measurement.Monitor.RangingMode, AUTO, AUTO, AUTO
TestParameter, Measurement.Monitor.RangeBoundary, , , 
TestParameter, Measurement.Monitor.RangeRating, BY FULL RANGE, BY FULL RANGE, BY FULL RANGE
TestParameter, Measurement.Monitor.RangeRatingCoeff, 50, 50, 50
TestParameter, Measurement.Timing.Hold, 0.5
TestParameter, Measurement.Timing.Delay, 0.05
TestParameter, Measurement.Adc.HighResolution.AutoZero, OFF
TestParameter, Measurement.Adc.HighResolution.Mode, AUTO
TestParameter, Measurement.Adc.HighResolution.Coeff, 1
TestParameter, Measurement.Ag16440ASelector.SemiconductorRelay.Channel1, DEFAULT
TestParameter, Measurement.Ag16440ASelector.SemiconductorRelay.Channel3, DEFAULT
TestParameter, Function.User.Name, absID, sqrtID, gm2, absIG
TestParameter, Function.User.Unit, A, A, A/V, A
TestParameter, Function.User.Definition, abs(ID), sqrt(abs(ID)), (delta(sqrtID)/delta(VG))^2, abs(IG)
TestParameter, Output.Graph.Enabled, true
TestParameter, Output.Graph.XAxis.Data, VG
TestParameter, Output.Graph.XAxis.Scale, Linear
TestParameter, Output.Graph.XAxis.Left, -5
TestParameter, Output.Graph.XAxis.Right, 7
TestParameter, Output.Graph.YAxis.Data, ID, absIG, gm2
TestParameter, Output.Graph.YAxis.Scale, Log, Log, Linear
TestParameter, Output.Graph.YAxis.Bottom, 1E-14, 1E-14, 0
TestParameter, Output.Graph.YAxis.Top, 0.01, 0.01, 1E-05
TestParameter, Output.Graph.YAxis.Group, , , 
TestParameter, Output.List.Data, VG, IG, VD, ID, VS, IS, sqrtID, gm2, absIG
TestParameter, AutoAnalysis.Interpolation, false
TestParameter, AutoAnalysis.Line1.Enabled, false
TestParameter, AutoAnalysis.Line1.Type, 1
TestParameter, AutoAnalysis.Line1.Fix, True
TestParameter, AutoAnalysis.Line1.YAxis, 0
TestParameter, AutoAnalysis.Line1.Point1.Type, 0
TestParameter, AutoAnalysis.Line1.Point1.XY.X, 
TestParameter, AutoAnalysis.Line1.Point1.XY.Y, 
TestParameter, AutoAnalysis.Line1.Point1.Data.Var, 
TestParameter, AutoAnalysis.Line1.Point1.Data.Condition, 
TestParameter, AutoAnalysis.Line1.Point1.Data.Start, false
TestParameter, AutoAnalysis.Line1.Point1.Data.StartVar, 
TestParameter, AutoAnalysis.Line1.Point1.Data.StartCondition, 
TestParameter, AutoAnalysis.Line1.Point2.Type, 0
TestParameter, AutoAnalysis.Line1.Point2.XY.X, 
TestParameter, AutoAnalysis.Line1.Point2.XY.Y, 
TestParameter, AutoAnalysis.Line1.Point2.Data.Var, 
TestParameter, AutoAnalysis.Line1.Point2.Data.Condition, 
TestParameter, AutoAnalysis.Line1.Point2.Data.Start, false
TestParameter, AutoAnalysis.Line1.Point2.Data.StartVar, 
TestParameter, AutoAnalysis.Line1.Point2.Data.StartCondition, 
TestParameter, AutoAnalysis.Line1.GradientExpr, 0
TestParameter, AutoAnalysis.Line2.Enabled, false
TestParameter, AutoAnalysis.Line2.Type, 1
TestParameter, AutoAnalysis.Line2.Fix, True
TestParameter, AutoAnalysis.Line2.YAxis, 0
TestParameter, AutoAnalysis.Line2.Point1.Type, 0
TestParameter, AutoAnalysis.Line2.Point1.XY.X, 
TestParameter, AutoAnalysis.Line2.Point1.XY.Y, 
TestParameter, AutoAnalysis.Line2.Point1.Data.Var, 
TestParameter, AutoAnalysis.Line2.Point1.Data.Condition, 
TestParameter, AutoAnalysis.Line2.Point1.Data.Start, false
TestParameter, AutoAnalysis.Line2.Point1.Data.StartVar, 
TestParameter, AutoAnalysis.Line2.Point1.Data.StartCondition, 
TestParameter, AutoAnalysis.Line2.Point2.Type, 0
TestParameter, AutoAnalysis.Line2.Point2.XY.X, 
TestParameter, AutoAnalysis.Line2.Point2.XY.Y, 
TestParameter, AutoAnalysis.Line2.Point2.Data.Var, 
TestParameter, AutoAnalysis.Line2.Point2.Data.Condition, 
TestParameter, AutoAnalysis.Line2.Point2.Data.Start, false
TestParameter, AutoAnalysis.Line2.Point2.Data.StartVar, 
TestParameter, AutoAnalysis.Line2.Point2.Data.StartCondition, 
TestParameter, AutoAnalysis.Line2.GradientExpr, 0
TestParameter, AutoAnalysis.Marker.Enabled, false
TestParameter, AutoAnalysis.Marker.Data.Var, 
TestParameter, AutoAnalysis.Marker.Data.Condition, 
TestParameter, AutoAnalysis.Marker.Data.Start, false
TestParameter, AutoAnalysis.Marker.Data.StartVar, 
TestParameter, AutoAnalysis.Marker.Data.StartCondition, 
MetaData, TestRecord.EntryPoint, true
MetaData, TestRecord.RecordTime, 05/27/2019 09:43:23
MetaData, TestRecord.TestTarget, 250-300-G31
MetaData, TestRecord.IterationIndex, 2
MetaData, TestRecord.Preservation, true
MetaData, TestRecord.Flag, 
MetaData, TestRecord.Remarks, BAD
MetaData, TestRecord.LinkKey, 03557202-9cb7-46c2-92b2-8f5081335e6c
Dimension1, 101, 101, 101, 101, 101, 101, 101, 101, 101, 101
Dimension2, 1, 1, 1, 1, 1, 1, 1, 1, 1, 1
DataName, VG, VD, VS, ID, IS, IG, absID, sqrtID, gm2, absIG
DataValue, -2, 3, 0, 2.1880000000000004E-12, 0.0013425, -0.00134244, 2.1880000000000004E-12, 1.4791889669680479E-06, 7.7597217821743036E-11, 0.00134244
DataValue, -1.9500000000000002, 3, 0, 3.6850000000000006E-12, 0.00130981, -0.00130883, 3.6850000000000006E-12, 1.9196353820452468E-06, 8.2788123674342778E-12, 0.00130883
DataValue, -1.9000000000000001, 3, 0, 3.1220000000000002E-12, 0.0012732, -0.0012729500000000001, 3.1220000000000002E-12, 1.766918221084383E-06, 1.3526883131559387E-12, 0.0012729500000000001
DataValue, -1.85, 3, 0, -3.2520000000000003E-12, 0.00123722, -0.00123621, 3.2520000000000003E-12, 1.8033302526159761E-06, 7.35593025697182E-12, 0.00123621
DataValue, -1.8, 3, 0, 4.154E-12, 0.00120083, -0.00120086, 4.154E-12, 2.0381364036786153E-06, 7.22892750655647E-12, 0.00120086
DataValue, -1.75, 3, 0, 4.294E-12, 0.00116383, -0.00116384, 4.294E-12, 2.0721969018411354E-06, 7.6015905996797735E-13, 0.00116384
DataValue, -1.7000000000000002, 3, 0, -4.517E-12, 0.00112889, -0.00112863, 4.517E-12, 2.1253235047869774E-06, 7.3072181143596575E-11, 0.00112863
DataValue, -1.6500000000000001, 3, 0, 1.4820000000000002E-12, 0.00109322, -0.0010922500000000001, 1.4820000000000002E-12, 1.2173742234826563E-06, 3.1727711421628654E-11, 0.0010922500000000001
DataValue, -1.6, 3, 0, 2.44E-12, 0.00105688, -0.00105689, 2.44E-12, 1.5620499351813309E-06, 1.7186206932518293E-12, 0.00105689
DataValue, -1.55, 3, 0, 1.18E-12, 0.00102046, -0.00102073, 1.18E-12, 1.0862780491200216E-06, 6.4075642272591068E-11, 0.00102073
DataValue, -1.5, 3, 0, -5.8000000000000005E-13, 0.00098531400000000016, -0.000985681, 5.8000000000000005E-13, 7.6157731058639085E-07, 7.82804301529415E-11, 0.000985681
DataValue, -1.4500000000000002, 3, 0, -3.8850000000000005E-12, 0.00094971600000000008, -0.000949395, 3.8850000000000005E-12, 1.9710403344427025E-06, 1.5990983836323411E-11, 0.000949395
DataValue, -1.4000000000000001, 3, 0, -1.349E-12, 0.000914029, -0.000914059, 1.349E-12, 1.161464592658769E-06, 3.196066734078507E-11, 0.000914059
DataValue, -1.35, 3, 0, -1.976E-12, 0.00087939700000000008, -0.00087866700000000008, 1.976E-12, 1.4057026712644464E-06, 2.2392671403616374E-12, 0.00087866700000000008
DataValue, -1.3, 3, 0, 1.719E-12, 0.00084538700000000007, -0.00084522800000000006, 1.719E-12, 1.3111064030047295E-06, 1.2688734097174975E-12, 0.00084522800000000006
DataValue, -1.25, 3, 0, 1.6720000000000002E-12, 0.000809955, -0.000809434, 1.6720000000000002E-12, 1.2930583900195692E-06, 1.3483125942992445E-12, 0.000809434
DataValue, -1.2, 3, 0, -1.4280000000000002E-12, 0.000775381, -0.000775609, 1.4280000000000002E-12, 1.1949895397031725E-06, 1.5989447363360179E-11, 0.000775609
DataValue, -1.1500000000000001, 3, 0, -2.866E-12, 0.000741806, -0.000741206, 2.866E-12, 1.6929264603047588E-06, 5.6005601120280357E-14, 0.000741206
DataValue, -1.1, 3, 0, 1.372E-12, 0.000707307, -0.0007072850000000001, 1.372E-12, 1.1713240371477058E-06, 2.7062479252506612E-11, 0.0007072850000000001
DataValue, -1.05, 3, 0, 4.898E-12, 0.000673236, -0.000673547, 4.898E-12, 2.2131425620596608E-06, 1.000403158716455E-11, 0.000673547
DataValue, -1, 3, 0, 2.2130000000000004E-12, 0.000640376, -0.000640082, 2.2130000000000004E-12, 1.4876155417311291E-06, 1.079176609387349E-10, 0.000640082
DataValue, -0.95000000000000007, 3, 0, -1.379E-12, 0.00060619200000000008, -0.00060612900000000006, 1.379E-12, 1.1743083070471741E-06, 2.0321475625936021E-11, 0.00060612900000000006
DataValue, -0.9, 3, 0, 1.0750000000000002E-12, 0.000572942, -0.00057299400000000006, 1.0750000000000002E-12, 1.0368220676663861E-06, 2.3338494068576061E-11, 0.00057299400000000006
DataValue, -0.85000000000000009, 3, 0, -2.7470000000000003E-12, 0.00054034100000000006, -0.000540113, 2.7470000000000003E-12, 1.657407614318216E-06, 1.5256732229657428E-10, 0.000540113
DataValue, -0.8, 3, 0, -5.162E-12, 0.000506906, -0.00050694400000000006, 5.162E-12, 2.2720035211240319E-06, 1.2818747456568704E-11, 0.00050694400000000006
DataValue, -0.75, 3, 0, 4.062E-12, 0.00047439000000000004, -0.000474382, 4.062E-12, 2.01544039852336E-06, 1.4548473077962944E-10, 0.000474382
DataValue, -0.70000000000000007, 3, 0, 1.136E-12, 0.00044141000000000004, -0.00044142300000000003, 1.136E-12, 1.0658330075579383E-06, 1.0250446453120466E-10, 0.00044142300000000003
DataValue, -0.65, 3, 0, 1.0060000000000002E-12, 0.000408842, -0.00040872, 1.0060000000000002E-12, 1.0029955134495868E-06, 3.6722671877123963E-11, 0.00040872
DataValue, -0.6, 3, 0, -2.795E-12, 0.000376212, -0.00037625, 2.795E-12, 1.6718253497300488E-06, 6.4913001896288153E-12, 0.00037625
DataValue, -0.55, 3, 0, 1.5820000000000001E-12, 0.00034427300000000003, -0.000344221, 1.5820000000000001E-12, 1.25777581468241E-06, 1.7415790897049607E-10, 0.000344221
DataValue, -0.5, 3, 0, 1.24E-13, 0.00031223300000000003, -0.000312136, 1.24E-13, 3.5213633723318021E-07, 4.8888932820222275E-11, 0.000312136
DataValue, -0.45, 3, 0, 3.1200000000000003E-13, 0.000280552, -0.000280557, 3.1200000000000003E-13, 5.5856960175075769E-07, 3.5432003447478525E-12, 0.000280557
DataValue, -0.4, 3, 0, -2.92E-13, 0.000248755, -0.00024887, 2.92E-13, 5.4037024344425184E-07, 9.4884304434640466E-12, 0.00024887
DataValue, -0.35000000000000003, 3, 0, 7.51E-13, 0.00021728, -0.00021731000000000002, 7.51E-13, 8.6660256173173182E-07, 1.4148498244600039E-11, 0.00021731000000000002
DataValue, -0.3, 3, 0, 8.4000000000000006E-13, 0.000185765, -0.00018569500000000002, 8.4000000000000006E-13, 9.16515138991168E-07, 2.7761640121753966E-10, 0.00018569500000000002
DataValue, -0.25, 3, 0, -6.4150000000000004E-12, 0.000154484, -0.000154429, 6.4150000000000004E-12, 2.5327850283827882E-06, 6.2413797206096931E-11, 0.000154429
DataValue, -0.2, 3, 0, -1.6E-14, 0.000123389, -0.000123294, 1.6E-14, 1.2649110640673517E-07, 3.0912263062199928E-10, 0.000123294
DataValue, -0.15, 3, 0, 6.0000000000000007E-13, 9.229480000000001E-05, -9.23671E-05, 6.0000000000000007E-13, 7.7459666924148343E-07, 1.8563197642562065E-10, 9.23671E-05
DataValue, -0.1, 3, 0, -2.2170000000000003E-12, 6.13333E-05, -6.13621E-05, 2.2170000000000003E-12, 1.4889593681494469E-06, 1.072574925229772E-10, 6.13621E-05
DataValue, -0.05, 3, 0, -3.2770000000000003E-12, 3.0350100000000003E-05, -3.03193E-05, 3.2770000000000003E-12, 1.8102486017119306E-06, 8.4917870767350084E-11, 3.03193E-05
DataValue, 0, 3, 0, 3.2200000000000004E-13, -1.1620809999999998E-07, 1.1481729999999999E-07, 3.2200000000000004E-13, 5.6745043836444436E-07, 7.5234916841221127E-11, 1.1481729999999999E-07
DataValue, 0.05, 3, 0, 8.89E-13, -3.09759E-05, 3.10071E-05, 8.89E-13, 9.4286796530585349E-07, 1.6043002043565746E-11, 3.10071E-05
DataValue, 0.1, 3, 0, 9.3700000000000015E-13, -6.1872200000000007E-05, 6.1869100000000007E-05, 9.3700000000000015E-13, 9.67987603226405E-07, 3.9833949066233976E-13, 6.1869100000000007E-05
DataValue, 0.15, 3, 0, -1.0120000000000001E-12, -9.28369E-05, 9.2899E-05, 1.0120000000000001E-12, 1.0059821071967435E-06, 2.8791001742282131E-13, 9.2899E-05
DataValue, 0.2, 3, 0, 8.3600000000000007E-13, -0.000123752, 0.00012372200000000002, 8.3600000000000007E-13, 9.1433035605299692E-07, 1.3923946979203255E-11, 0.00012372200000000002
DataValue, 0.25, 3, 0, -1.902E-12, -0.000154802, 0.000154863, 1.902E-12, 1.379130160644745E-06, 2.4959667837210405E-10, 0.000154863
DataValue, 0.3, 3, 0, -6.221E-12, -0.00018583300000000002, 0.00018604800000000002, 6.221E-12, 2.4941932563456266E-06, 7.1817855291293677E-12, 0.00018604800000000002
DataValue, 0.35000000000000003, 3, 0, -2.7130000000000003E-12, -0.000217566, 0.00021754600000000002, 2.7130000000000003E-12, 1.647118696390761E-06, 3.7191424557571983E-10, 0.00021754600000000002
DataValue, 0.4, 3, 0, 3.2000000000000005E-13, -0.000249091, 0.000249339, 3.2000000000000005E-13, 5.6568542494923806E-07, 4.4668363835060372E-11, 0.000249339
DataValue, 0.45, 3, 0, 9.5800000000000016E-13, -0.000280533, 0.000280604, 9.5800000000000016E-13, 9.7877474425937263E-07, 2.2015415190555515E-11, 0.000280604
DataValue, 0.5, 3, 0, -1.0710000000000002E-12, -0.00031283200000000003, 0.000313019, 1.0710000000000002E-12, 1.0348912986396204E-06, 5.8061338381141175E-11, 0.000313019
DataValue, 0.55, 3, 0, 4.7E-14, -0.000345297, 0.000344977, 4.7E-14, 2.16794833886788E-07, 8.720020904103857E-12, 0.000344977
DataValue, 0.6, 3, 0, 5.4700000000000009E-13, -0.000377623, 0.00037762600000000005, 5.4700000000000009E-13, 7.3959448348402393E-07, 5.7988787410824832E-10, 0.00037762600000000005
DataValue, 0.65, 3, 0, 6.8900000000000007E-12, -0.000409512, 0.000409785, 6.8900000000000007E-12, 2.6248809496813375E-06, 2.1321204693473938E-10, 0.000409785
DataValue, 0.70000000000000007, 3, 0, -4.8390000000000007E-12, -0.000442864, 0.00044260800000000004, 4.8390000000000007E-12, 2.1997727155322208E-06, 6.3750238100637355E-10, 0.00044260800000000004
DataValue, 0.75, 3, 0, 1.0000000000000002E-14, -0.00047556100000000005, 0.0004755, 1.0000000000000002E-14, 1.0000000000000001E-07, 2.0440643453571925E-10, 0.0004755
DataValue, 0.8, 3, 0, 5.93E-13, -0.000508517, 0.000508768, 5.93E-13, 7.700649323271382E-07, 9.5731504456731166E-11, 0.000508768
DataValue, 0.85000000000000009, 3, 0, -1.163E-12, -0.00054179, 0.00054167100000000008, 1.163E-12, 1.078424777163433E-06, 1.1928672540943041E-13, 0.00054167100000000008
DataValue, 0.9, 3, 0, -5.41E-13, -0.00057541200000000008, 0.000575478, 5.41E-13, 7.355270219373317E-07, 1.1947659947054944E-11, 0.000575478
DataValue, 0.95000000000000007, 3, 0, 2.0280000000000002E-12, -0.000608769, 0.000608784, 2.0280000000000002E-12, 1.424078649513432E-06, 5.9667283379718817E-12, 0.000608784
DataValue, 1, 3, 0, 9.6000000000000015E-13, -0.00064183900000000006, 0.000641622, 9.6000000000000015E-13, 9.7979589711327135E-07, 1.2032540688587788E-13, 0.000641622
DataValue, 1.05, 3, 0, -2.1280000000000002E-12, -0.00067721900000000006, 0.00067707400000000006, 2.1280000000000002E-12, 1.4587666023048375E-06, 7.08888911741853E-11, 0.00067707400000000006
DataValue, 1.1, 3, 0, 1.9E-14, -0.00070977600000000007, 0.000709953, 1.9E-14, 1.3784048752090222E-07, 6.45310310325188E-11, 0.000709953
DataValue, 1.1500000000000001, 3, 0, -5.117E-12, -0.00074304100000000006, 0.00074315800000000006, 5.117E-12, 2.2620786900547911E-06, 1.6219087510621752E-10, 0.00074315800000000006
DataValue, 1.2, 3, 0, -1.992E-12, -0.000779542, 0.000780037, 1.992E-12, 1.4113823011501881E-06, 1.6429410375960092E-10, 0.000780037
DataValue, 1.25, 3, 0, -9.61E-13, -0.000813999, 0.000813745, 9.61E-13, 9.8030607465219755E-07, 8.8600037678980335E-11, 0.000813745
DataValue, 1.3, 3, 0, 2.2100000000000002E-13, -0.0008482050000000001, 0.000848062, 2.2100000000000002E-13, 4.7010637094172634E-07, 5.0194457914096451E-11, 0.000848062
DataValue, 1.35, 3, 0, -2.8520000000000004E-12, -0.000884193, 0.00088343300000000009, 2.8520000000000004E-12, 1.6887865466067642E-06, 2.6100308518490105E-10, 0.00088343300000000009
DataValue, 1.4000000000000001, 3, 0, -4.3500000000000006E-12, -0.00091682200000000008, 0.00091713900000000008, 4.3500000000000006E-12, 2.085665361461421E-06, 6.581916391237427E-11, 0.00091713900000000008
DataValue, 1.4500000000000002, 3, 0, 7.7000000000000005E-13, -0.00095149800000000006, 0.00095021100000000007, 7.7000000000000005E-13, 8.7749643873921228E-07, 2.7652518157858615E-12, 0.00095021100000000007
DataValue, 1.5, 3, 0, -3.684E-12, -0.000983308, 0.000981792, 3.684E-12, 1.9193748982416123E-06, 2.2682954688949411E-12, 0.000981792
DataValue, 1.55, 3, 0, 1.057E-12, -0.00101391, 0.00101212, 1.057E-12, 1.0281050529979902E-06, 9.0069498458014235E-12, 0.00101212
DataValue, 1.6, 3, 0, -2.6220000000000003E-12, -0.001044144, 0.001042668, 2.6220000000000003E-12, 1.6192590898309017E-06, 4.8955696794084911E-12, 0.001042668
DataValue, 1.6500000000000001, 3, 0, 6.5100000000000005E-13, -0.0010539940000000002, 0.001047271, 6.5100000000000005E-13, 8.0684571015777244E-07, 3.8596534672042776E-11, 0.001047271
DataValue, 1.7000000000000002, 3, 0, 9.96E-13, -0.0010455360000000001, 0.001043405, 9.96E-13, 9.97997995989972E-07, 7.5181359399244935E-11, 0.001043405
DataValue, 1.75, 3, 0, -2.8020000000000004E-12, -0.001064951, 0.001062722, 2.8020000000000004E-12, 1.6739175606940744E-06, 1.1430295686953868E-10, 0.001062722
DataValue, 1.8, 3, 0, -4.273E-12, -0.001088089, 0.001088898, 4.273E-12, 2.0671236053995417E-06, 1.6955990457798561E-11, 0.001088898
DataValue, 1.85, 3, 0, 1.5930000000000002E-12, -0.0011181020000000002, 0.0011188110000000002, 1.5930000000000002E-12, 1.2621410380777578E-06, 2.2893136399759967E-10, 0.0011188110000000002
DataValue, 1.9000000000000001, 3, 0, 3.07E-13, -0.00115041, 0.00115015, 3.07E-13, 5.5407580708780273E-07, 2.5097603112990422E-12, 0.00115015
DataValue, 1.9500000000000002, 3, 0, -2.018E-12, -0.0011957, 0.00119019, 2.018E-12, 1.420563268566381E-06, 5.4737152971684177E-12, 0.00119019
DataValue, 2, 3, 0, 6.2100000000000008E-13, -0.0012210300000000001, 0.00119442, 6.2100000000000008E-13, 7.8803553219382184E-07, 1.5214738952788976E-10, 0.00119442
DataValue, 2.05, 3, 0, 3.5E-14, -0.00122313, 0.00122471, 3.5E-14, 1.8708286933869707E-07, 7.4951961449927547E-11, 0.00122471
DataValue, 2.1, 3, 0, 2.7350000000000004E-12, -0.00126719, 0.00126004, 2.7350000000000004E-12, 1.653783540854123E-06, 2.35928300782436E-10, 0.00126004
DataValue, 2.15, 3, 0, -2.9690000000000004E-12, -0.00132039, 0.00132528, 2.9690000000000004E-12, 1.7230786401090346E-06, 6.4276651073762082E-11, 0.00132528
DataValue, 2.2, 3, 0, 7.26E-13, -0.0014460900000000001, 0.00152513, 7.26E-13, 8.5205633616563175E-07, 7.5612039129622768E-12, 0.00152513
DataValue, 2.25, 3, 0, 2.097E-12, -0.0015582, 0.00154736, 2.097E-12, 1.4481022063376605E-06, 1.8266791520190646E-11, 0.00154736
DataValue, 2.3000000000000003, 3, 0, -1.6370000000000002E-12, -0.00163199, 0.00163341, 1.6370000000000002E-12, 1.2794530081249566E-06, 1.7785526439999593E-10, 0.00163341
DataValue, 2.35, 3, 0, -7.7380000000000012E-12, -0.00165064, 0.00164722, 7.7380000000000012E-12, 2.7817260828485614E-06, 5.715404074777065E-11, 0.00164722
DataValue, 2.4, 3, 0, -2.7400000000000004E-13, -0.0017229, 0.00172306, 2.7400000000000004E-13, 5.23450093132096E-07, 3.7926002111431871E-10, 0.00172306
